Timestamp,Elapsed_Time_s,CAN_Message
2025-10-16T21:22:41.271093,2.983,can1  120  [04]  00 00 00 00
2025-10-16T21:22:42.027717,3.739,can1  100  [03]  26 87 04
2025-10-16T21:22:43.563846,5.276,can1  110  [02]  B8 1C
2025-10-16T21:22:43.565769,5.277,can1  120  [04]  00 00 00 00
2025-10-16T21:22:44.322463,6.034,can1  100  [03]  26 87 04
2025-10-16T21:22:45.088611,6.800,can1  110  [02]  B9 1C
2025-10-16T21:22:45.758160,7.470,can1  120  [04]  00 00 00 00
2025-10-16T21:22:46.525136,8.237,can1  100  [03]  28 87 04
2025-10-16T21:22:47.194128,8.906,can1  110  [02]  B9 1C
2025-10-16T21:22:47.954487,9.666,can1  120  [04]  00 00 00 00
2025-10-16T21:22:48.723001,10.435,can1  100  [03]  2B 87 04
2025-10-16T21:22:48.725753,10.437,can1  110  [02]  B8 1C
2025-10-16T21:22:49.490876,11.203,can1  120  [04]  00 00 00 00
2025-10-16T21:22:50.272439,11.984,can1  100  [03]  2F 87 04
2025-10-16T21:22:51.067073,12.779,can1  110  [02]  B9 1C
2025-10-16T21:22:51.839009,13.551,can1  120  [04]  00 00 00 00
2025-10-16T21:22:51.841786,13.554,can1  100  [03]  34 87 04
2025-10-16T21:22:52.717196,14.429,can1  110  [02]  B9 1C
2025-10-16T21:22:53.598739,15.310,can1  120  [04]  00 00 00 00
2025-10-16T21:22:54.362834,16.075,can1  100  [03]  39 87 04
2025-10-16T21:22:55.136901,16.849,can1  110  [02]  BA 1C
2025-10-16T21:22:55.899633,17.611,can1  120  [04]  00 00 00 00
2025-10-16T21:22:55.906219,17.618,can1  100  [03]  3B 87 04
2025-10-16T21:22:57.448561,19.160,can1  110  [02]  B7 1C
2025-10-16T21:22:57.450952,19.163,can1  120  [04]  00 00 00 00
2025-10-16T21:22:58.223844,19.936,can1  100  [03]  3D 87 04
2025-10-16T21:22:59.097932,20.810,can1  110  [02]  B6 1C
2025-10-16T21:22:59.761569,21.473,can1  120  [04]  00 00 00 00
2025-10-16T21:23:00.538533,22.250,can1  100  [03]  40 87 04
2025-10-16T21:23:01.321712,23.034,can1  110  [02]  BB 1C
2025-10-16T21:23:01.324117,23.036,can1  120  [04]  00 00 00 00
2025-10-16T21:23:01.995255,23.707,can1  100  [03]  43 87 04
2025-10-16T21:23:02.772104,24.484,can1  110  [02]  B9 1C
2025-10-16T21:23:03.567918,25.280,can1  120  [04]  00 00 00 00
2025-10-16T21:23:04.338998,26.051,can1  100  [03]  47 87 04
2025-10-16T21:23:05.104589,26.816,can1  110  [02]  BB 1C
2025-10-16T21:23:05.869859,27.582,can1  120  [04]  00 00 00 00
2025-10-16T21:23:05.872571,27.584,can1  100  [03]  4A 87 04
2025-10-16T21:23:06.656713,28.368,can1  110  [02]  B9 1C
2025-10-16T21:23:07.434865,29.147,can1  120  [04]  00 00 00 00
2025-10-16T21:23:08.204228,29.916,can1  100  [03]  4E 87 04
2025-10-16T21:23:08.971324,30.683,can1  110  [02]  B9 1C
2025-10-16T21:23:09.737118,31.449,can1  120  [04]  00 00 00 00
2025-10-16T21:23:09.739780,31.452,can1  100  [03]  51 87 04
2025-10-16T21:23:11.285849,32.998,can1  110  [02]  B8 1C
2025-10-16T21:23:11.288515,33.000,can1  120  [04]  00 00 00 00
2025-10-16T21:23:12.051643,33.763,can1  100  [03]  55 87 04
2025-10-16T21:23:12.827517,34.539,can1  110  [02]  B9 1C
2025-10-16T21:23:13.588858,35.301,can1  120  [04]  00 00 00 00
2025-10-16T21:23:14.354283,36.066,can1  100  [03]  59 87 04
2025-10-16T21:23:15.117269,36.829,can1  110  [02]  B9 1C
2025-10-16T21:23:15.119926,36.832,can1  120  [04]  00 00 00 00
2025-10-16T21:23:15.889118,37.601,can1  100  [03]  5D 87 04
2025-10-16T21:23:16.789879,38.502,can1  110  [02]  B8 1C
2025-10-16T21:23:17.855078,39.567,can1  120  [04]  00 00 00 00
2025-10-16T21:23:17.857907,39.570,can1  100  [03]  60 87 04
2025-10-16T21:23:18.838486,40.550,can1  110  [02]  BA 1C
2025-10-16T21:23:19.722994,41.435,can1  120  [04]  00 00 00 00
2025-10-16T21:23:19.725666,41.437,can1  100  [03]  62 87 04
2025-10-16T21:23:20.588561,42.300,can1  110  [02]  BC 1C
2025-10-16T21:23:21.477603,43.189,can1  120  [04]  00 00 00 00
2025-10-16T21:23:22.465723,44.177,can1  100  [03]  64 87 04
2025-10-16T21:23:22.467791,44.180,can1  110  [02]  B8 1C
2025-10-16T21:23:23.246597,44.958,can1  120  [04]  00 00 00 00
2025-10-16T21:23:24.019717,45.731,can1  100  [03]  65 87 04
2025-10-16T21:23:24.888399,46.600,can1  110  [02]  B7 1C
2025-10-16T21:23:25.761116,47.473,can1  120  [04]  00 00 00 00
2025-10-16T21:23:25.764776,47.476,can1  100  [03]  65 87 04
2025-10-16T21:23:26.524720,48.236,can1  110  [02]  B9 1C
2025-10-16T21:23:27.622177,49.334,can1  120  [04]  00 00 00 00
2025-10-16T21:23:28.499362,50.211,can1  100  [03]  65 87 04
2025-10-16T21:23:29.272358,50.984,can1  110  [02]  B8 1C
2025-10-16T21:23:29.275222,50.987,can1  120  [04]  00 00 00 00
2025-10-16T21:23:30.177863,51.890,can1  100  [03]  63 87 04
2025-10-16T21:23:31.060801,52.773,can1  110  [02]  B9 1C
2025-10-16T21:23:31.064059,52.776,can1  120  [04]  00 00 00 00
2025-10-16T21:23:32.044937,53.757,can1  100  [03]  60 87 04
2025-10-16T21:23:32.913948,54.626,can1  110  [02]  B7 1C
2025-10-16T21:23:33.786617,55.498,can1  120  [04]  00 00 00 00
2025-10-16T21:23:33.789442,55.501,can1  100  [03]  5D 87 04
2025-10-16T21:23:34.558357,56.270,can1  110  [02]  B7 1C
2025-10-16T21:23:35.437254,57.149,can1  120  [04]  00 00 00 00
2025-10-16T21:23:35.440213,57.152,can1  100  [03]  5A 87 04
2025-10-16T21:23:36.314832,58.027,can1  110  [02]  BC 1C
2025-10-16T21:23:37.291250,59.003,can1  120  [04]  00 00 00 00
2025-10-16T21:23:38.172235,59.884,can1  100  [03]  58 87 04
2025-10-16T21:23:38.951689,60.663,can1  110  [02]  B2 1C
2025-10-16T21:23:38.954170,60.666,can1  120  [04]  00 00 00 00
2025-10-16T21:23:39.736020,61.448,can1  100  [03]  57 87 04
2025-10-16T21:23:41.257384,62.969,can1  110  [02]  B8 1C
2025-10-16T21:23:41.260137,62.972,can1  120  [04]  00 00 00 00
2025-10-16T21:23:42.038024,63.750,can1  100  [03]  58 87 04
2025-10-16T21:23:42.819272,64.531,can1  110  [02]  B7 1C
2025-10-16T21:23:43.484570,65.196,can1  120  [04]  00 00 00 00
2025-10-16T21:23:43.487059,65.199,can1  100  [03]  5C 87 04
2025-10-16T21:23:44.269252,65.981,can1  110  [02]  BB 1C
2025-10-16T21:23:45.139096,66.851,can1  120  [04]  00 00 00 00
2025-10-16T21:23:45.919481,67.631,can1  100  [03]  61 87 04
2025-10-16T21:23:46.798844,68.511,can1  110  [02]  94 1C
2025-10-16T21:23:47.681186,69.393,can1  120  [04]  00 00 00 00
2025-10-16T21:23:47.683933,69.396,can1  100  [03]  68 87 04
2025-10-16T21:23:48.448395,70.160,can1  110  [02]  98 1C
2025-10-16T21:23:49.229346,70.941,can1  120  [04]  00 00 00 00
2025-10-16T21:23:50.122586,71.834,can1  100  [03]  71 87 04
2025-10-16T21:23:50.895487,72.607,can1  110  [02]  66 1C
2025-10-16T21:23:50.898479,72.610,can1  120  [04]  00 00 00 00
2025-10-16T21:23:51.667874,73.380,can1  100  [03]  7A 87 04
2025-10-16T21:23:52.448764,74.161,can1  110  [02]  99 1C
2025-10-16T21:23:53.126839,74.839,can1  120  [04]  08 C4 6A 00
2025-10-16T21:23:53.782841,75.495,can1  100  [03]  84 87 04
2025-10-16T21:23:54.537738,76.249,can1  110  [02]  A3 1C
2025-10-16T21:23:55.207643,76.919,can1  120  [04]  80 02 04 01
2025-10-16T21:23:55.973913,77.686,can1  100  [03]  90 87 04
2025-10-16T21:23:56.754454,78.466,can1  110  [02]  A4 1C
2025-10-16T21:23:56.757417,78.469,can1  120  [04]  60 5A 12 01
2025-10-16T21:23:57.507217,79.219,can1  100  [03]  9E 87 04
2025-10-16T21:23:58.273519,79.985,can1  110  [02]  AB 1C
2025-10-16T21:23:59.052787,80.765,can1  120  [04]  F0 0C 1B 01
2025-10-16T21:23:59.822253,81.534,can1  100  [03]  AD 87 04
2025-10-16T21:24:00.598478,82.310,can1  110  [02]  AD 1C
2025-10-16T21:24:01.355021,83.067,can1  120  [04]  80 4E 21 01
2025-10-16T21:24:02.022439,83.734,can1  100  [03]  BC 87 04
2025-10-16T21:24:02.828612,84.540,can1  110  [02]  AE 1C
2025-10-16T21:24:02.831897,84.544,can1  120  [04]  D0 F3 26 01
2025-10-16T21:24:03.495359,85.207,can1  100  [03]  CC 87 04
2025-10-16T21:24:04.275129,85.987,can1  110  [02]  B1 1C
2025-10-16T21:24:05.071611,86.783,can1  120  [04]  30 C0 2C 01
2025-10-16T21:24:05.732577,87.445,can1  100  [03]  DC 87 04
2025-10-16T21:24:06.617270,88.329,can1  110  [02]  AF 1C
2025-10-16T21:24:07.381016,89.093,can1  120  [04]  80 65 32 01
2025-10-16T21:24:07.383487,89.095,can1  100  [03]  ED 87 04
2025-10-16T21:24:08.166958,89.879,can1  110  [02]  B4 1C
2025-10-16T21:24:08.946587,90.658,can1  120  [04]  40 AB 36 01
2025-10-16T21:24:09.714546,91.426,can1  100  [03]  FD 87 04
2025-10-16T21:24:10.492157,92.204,can1  110  [02]  B5 1C
2025-10-16T21:24:11.365254,93.077,can1  120  [04]  70 91 39 01
2025-10-16T21:24:11.368304,93.080,can1  100  [03]  0E 88 04
2025-10-16T21:24:12.360166,94.072,can1  110  [02]  B6 1C
2025-10-16T21:24:13.448772,95.160,can1  120  [04]  30 66 3B 01
2025-10-16T21:24:13.451673,95.163,can1  100  [03]  1F 88 04
2025-10-16T21:24:14.541137,96.253,can1  110  [02]  B5 1C
2025-10-16T21:24:15.632416,97.344,can1  120  [04]  90 C1 3E 01
2025-10-16T21:24:15.635258,97.347,can1  100  [03]  2F 88 04
2025-10-16T21:24:16.616047,98.328,can1  110  [02]  B7 1C
2025-10-16T21:24:16.618774,98.330,can1  120  [04]  30 48 40 01
2025-10-16T21:24:17.717057,99.429,can1  100  [03]  40 88 04
2025-10-16T21:24:18.720308,100.432,can1  110  [02]  B6 1C
2025-10-16T21:24:18.723366,100.435,can1  120  [04]  B0 80 41 01
2025-10-16T21:24:19.805623,101.517,can1  100  [03]  50 88 04
2025-10-16T21:24:20.934057,102.646,can1  110  [02]  B6 1C
2025-10-16T21:24:20.937007,102.649,can1  120  [04]  40 E0 42 01
2025-10-16T21:24:22.047779,103.760,can1  100  [03]  60 88 04
2025-10-16T21:24:22.051368,103.763,can1  110  [02]  B5 1C
2025-10-16T21:24:23.020848,104.733,can1  120  [04]  10 DC 44 01
2025-10-16T21:24:24.115445,105.827,can1  100  [03]  6F 88 04
2025-10-16T21:24:24.118918,105.831,can1  110  [02]  B4 1C
2025-10-16T21:24:24.999211,106.711,can1  120  [04]  00 26 47 01
2025-10-16T21:24:25.874859,107.587,can1  100  [03]  7D 88 04
2025-10-16T21:24:26.747974,108.460,can1  110  [02]  B7 1C
2025-10-16T21:24:26.751376,108.463,can1  120  [04]  10 4D 47 01
2025-10-16T21:24:27.731104,109.443,can1  100  [03]  8B 88 04
2025-10-16T21:24:28.715858,110.428,can1  110  [02]  B6 1C
2025-10-16T21:24:28.719423,110.431,can1  120  [04]  10 BE 49 01
2025-10-16T21:24:29.695725,111.407,can1  100  [03]  98 88 04
2025-10-16T21:24:30.793753,112.505,can1  110  [02]  B6 1C
2025-10-16T21:24:30.796805,112.509,can1  120  [04]  90 AA 2D 01
2025-10-16T21:24:31.779052,113.491,can1  100  [03]  A4 88 04
2025-10-16T21:24:32.894870,114.607,can1  110  [02]  B8 1C
2025-10-16T21:24:32.898588,114.610,can1  120  [04]  40 E9 7F 01
2025-10-16T21:24:33.872813,115.585,can1  100  [03]  B0 88 04
2025-10-16T21:24:33.875828,115.588,can1  110  [02]  B9 1C
2025-10-16T21:24:34.638793,116.351,can1  120  [04]  70 74 A0 02
2025-10-16T21:24:35.429102,117.141,can1  100  [03]  BC 88 04
2025-10-16T21:24:36.216068,117.928,can1  110  [02]  B8 1C
2025-10-16T21:24:36.973714,118.685,can1  120  [04]  20 E6 AB 02
2025-10-16T21:24:36.976500,118.688,can1  100  [03]  C7 88 04
2025-10-16T21:24:38.523560,120.235,can1  110  [02]  BB 1C
2025-10-16T21:24:39.304968,121.017,can1  120  [04]  B0 27 B2 02
2025-10-16T21:24:39.308105,121.020,can1  100  [03]  D1 88 04
2025-10-16T21:24:40.086706,121.798,can1  110  [02]  B8 1C
2025-10-16T21:24:40.851152,122.563,can1  120  [04]  F0 34 B5 02
2025-10-16T21:24:41.725354,123.437,can1  100  [03]  DB 88 04
2025-10-16T21:24:42.609420,124.321,can1  110  [02]  B7 1C
2025-10-16T21:24:42.612434,124.324,can1  120  [04]  80 05 B9 02
2025-10-16T21:24:43.594720,125.306,can1  100  [03]  E5 88 04
2025-10-16T21:24:44.360887,126.073,can1  110  [02]  BA 1C
2025-10-16T21:24:44.364245,126.076,can1  120  [04]  50 01 BB 02
2025-10-16T21:24:45.127219,126.839,can1  100  [03]  EF 88 04
2025-10-16T21:24:45.995550,127.707,can1  110  [02]  B8 1C
2025-10-16T21:24:46.876883,128.589,can1  120  [04]  30 24 BD 02
2025-10-16T21:24:47.959250,129.671,can1  100  [03]  F8 88 04
2025-10-16T21:24:47.962661,129.674,can1  110  [02]  B9 1C
2025-10-16T21:24:49.175479,130.887,can1  120  [04]  70 31 C0 02
2025-10-16T21:24:49.178767,130.890,can1  100  [03]  01 89 04
2025-10-16T21:24:50.382669,132.094,can1  110  [02]  BB 1C
2025-10-16T21:24:50.385868,132.098,can1  120  [04]  F0 69 C1 02
2025-10-16T21:24:51.480612,133.192,can1  100  [03]  09 89 04
2025-10-16T21:24:52.576417,134.288,can1  110  [02]  B9 1C
2025-10-16T21:24:52.579624,134.291,can1  120  [04]  C0 65 C3 02
2025-10-16T21:24:53.684081,135.396,can1  100  [03]  10 89 04
2025-10-16T21:24:54.782883,136.495,can1  110  [02]  B8 1C
2025-10-16T21:24:54.786187,136.498,can1  120  [04]  50 C5 C4 02
2025-10-16T21:24:55.756916,137.469,can1  100  [03]  18 89 04
2025-10-16T21:24:56.864860,138.577,can1  110  [02]  B8 1C
2025-10-16T21:24:56.868901,138.581,can1  120  [04]  A0 88 C5 02
2025-10-16T21:24:57.845055,139.557,can1  100  [03]  20 89 04
2025-10-16T21:24:57.851345,139.563,can1  110  [02]  BA 1C
2025-10-16T21:24:58.841817,140.554,can1  120  [04]  60 5D C7 02
2025-10-16T21:24:59.831211,141.543,can1  100  [03]  27 89 04
2025-10-16T21:24:59.834780,141.547,can1  110  [02]  B7 1C
2025-10-16T21:25:00.912512,142.624,can1  120  [04]  C0 47 C8 02
2025-10-16T21:25:00.915956,142.628,can1  100  [03]  2E 89 04
2025-10-16T21:25:02.125517,143.837,can1  110  [02]  B9 1C
2025-10-16T21:25:02.887809,144.600,can1  120  [04]  30 59 C9 02
2025-10-16T21:25:03.659913,145.372,can1  100  [03]  33 89 04
2025-10-16T21:25:04.414359,146.126,can1  110  [02]  B9 1C
2025-10-16T21:25:04.418629,146.130,can1  120  [04]  30 59 C9 02
2025-10-16T21:25:05.182515,146.894,can1  100  [03]  39 89 04
2025-10-16T21:25:05.944104,147.656,can1  110  [02]  B8 1C
2025-10-16T21:25:06.714307,148.426,can1  120  [04]  90 43 CA 02
2025-10-16T21:25:07.480639,149.192,can1  100  [03]  3D 89 04
2025-10-16T21:25:08.266101,149.978,can1  110  [02]  B9 1C
2025-10-16T21:25:09.259877,150.972,can1  120  [04]  30 CA CB 02
2025-10-16T21:25:09.264355,150.976,can1  100  [03]  42 89 04
2025-10-16T21:25:10.133136,151.845,can1  110  [02]  B8 1C
2025-10-16T21:25:11.016389,152.728,can1  120  [04]  80 8D CC 02
2025-10-16T21:25:11.020005,152.732,can1  100  [03]  47 89 04
2025-10-16T21:25:11.895322,153.607,can1  110  [02]  B9 1C
2025-10-16T21:25:12.766363,154.478,can1  120  [04]  90 B4 CC 02
2025-10-16T21:25:12.769736,154.481,can1  100  [03]  4C 89 04
2025-10-16T21:25:14.317397,156.029,can1  110  [02]  B7 1C
2025-10-16T21:25:14.320957,156.033,can1  120  [04]  40 62 CE 02
2025-10-16T21:25:15.079132,156.791,can1  100  [03]  51 89 04
2025-10-16T21:25:15.857444,157.569,can1  110  [02]  B7 1C
2025-10-16T21:25:16.629261,158.341,can1  120  [04]  90 25 CF 02
2025-10-16T21:25:17.391894,159.104,can1  100  [03]  57 89 04
2025-10-16T21:25:18.156436,159.868,can1  110  [02]  B7 1C
2025-10-16T21:25:18.159969,159.872,can1  120  [04]  E0 E8 CF 02
2025-10-16T21:25:18.921443,160.633,can1  100  [03]  5D 89 04
2025-10-16T21:25:19.686175,161.398,can1  110  [02]  B7 1C
2025-10-16T21:25:20.456970,162.169,can1  120  [04]  10 CF D2 02
2025-10-16T21:25:21.209381,162.921,can1  100  [03]  63 89 04
2025-10-16T21:25:21.881340,163.593,can1  110  [02]  B6 1C
2025-10-16T21:25:22.669922,164.382,can1  120  [04]  40 44 D3 02
2025-10-16T21:25:22.674077,164.386,can1  100  [03]  68 89 04
2025-10-16T21:25:23.650020,165.362,can1  110  [02]  B7 1C
2025-10-16T21:25:24.431892,166.144,can1  120  [04]  E0 B3 C3 02
2025-10-16T21:25:25.425107,167.137,can1  100  [03]  6E 89 04
2025-10-16T21:25:26.406638,168.118,can1  110  [02]  B6 1C
2025-10-16T21:25:26.410675,168.122,can1  120  [04]  C0 B7 68 01
2025-10-16T21:25:27.386606,169.098,can1  100  [03]  74 89 04
2025-10-16T21:25:28.262766,169.974,can1  110  [02]  B7 1C
2025-10-16T21:25:28.266588,169.978,can1  120  [04]  48 70 15 00
2025-10-16T21:25:29.262738,170.975,can1  100  [03]  7A 89 04
2025-10-16T21:25:30.255064,171.967,can1  110  [02]  B6 1C
2025-10-16T21:25:30.258601,171.970,can1  120  [04]  B0 9A 19 00
2025-10-16T21:25:31.257790,172.970,can1  100  [03]  7F 89 04
2025-10-16T21:25:32.239660,173.951,can1  110  [02]  B6 1C
2025-10-16T21:25:32.243016,173.955,can1  120  [04]  98 92 1B 00
2025-10-16T21:25:33.365500,175.077,can1  100  [03]  83 89 04
2025-10-16T21:25:34.453335,176.165,can1  110  [02]  B5 1C
2025-10-16T21:25:34.456828,176.169,can1  120  [04]  10 7F 1B 00
2025-10-16T21:25:35.774308,177.486,can1  100  [03]  87 89 04
2025-10-16T21:25:35.782824,177.495,can1  110  [02]  B8 1C
2025-10-16T21:25:37.071345,178.783,can1  120  [04]  A8 3C 1B 00
2025-10-16T21:25:37.075048,178.787,can1  100  [03]  8A 89 04
2025-10-16T21:25:38.298953,180.011,can1  110  [02]  B8 1C
2025-10-16T21:25:38.302830,180.015,can1  120  [04]  70 F2 1A 00
2025-10-16T21:25:39.286268,180.998,can1  100  [03]  8C 89 04
2025-10-16T21:25:40.372488,182.084,can1  110  [02]  B7 1C
2025-10-16T21:25:40.376045,182.088,can1  120  [04]  A8 BF 1A 00
2025-10-16T21:25:41.357288,183.069,can1  100  [03]  8D 89 04
2025-10-16T21:25:42.444630,184.156,can1  110  [02]  B6 1C
2025-10-16T21:25:42.448225,184.160,can1  120  [04]  E0 8C 1A 00
2025-10-16T21:25:43.551338,185.263,can1  100  [03]  8C 89 04
2025-10-16T21:25:44.652654,186.364,can1  110  [02]  B7 1C
2025-10-16T21:25:44.656867,186.369,can1  120  [04]  A0 6D 1A 00
2025-10-16T21:25:45.643785,187.356,can1  100  [03]  8A 89 04
2025-10-16T21:25:45.646998,187.359,can1  110  [02]  B6 1C
2025-10-16T21:25:46.616312,188.328,can1  120  [04]  B8 69 1A 00
2025-10-16T21:25:46.619962,188.332,can1  100  [03]  88 89 04
2025-10-16T21:25:47.612476,189.324,can1  110  [02]  B6 1C
2025-10-16T21:25:48.590442,190.302,can1  120  [04]  30 56 1A 00
2025-10-16T21:25:48.593736,190.305,can1  100  [03]  85 89 04
2025-10-16T21:25:49.468402,191.180,can1  110  [02]  B5 1C
2025-10-16T21:25:50.338560,192.050,can1  120  [04]  F0 36 1A 00
2025-10-16T21:25:51.389877,193.102,can1  100  [03]  82 89 04
2025-10-16T21:25:51.390025,193.102,can1  110  [02]  B3 1C
2025-10-16T21:25:52.317746,194.029,can1  120  [04]  B0 17 1A 00
2025-10-16T21:25:53.514459,195.226,can1  100  [03]  7F 89 04
2025-10-16T21:25:53.518338,195.230,can1  110  [02]  B6 1C
2025-10-16T21:25:54.612428,196.324,can1  120  [04]  F8 0B 1A 00
2025-10-16T21:25:54.616731,196.328,can1  100  [03]  7C 89 04
2025-10-16T21:25:55.712866,197.425,can1  110  [02]  B6 1C
2025-10-16T21:25:56.942553,198.654,can1  120  [04]  40 00 1A 00
2025-10-16T21:25:56.946866,198.659,can1  100  [03]  79 89 04
2025-10-16T21:25:58.164069,199.876,can1  110  [02]  B6 1C
2025-10-16T21:25:58.168501,199.880,can1  120  [04]  B8 EC 19 00
2025-10-16T21:25:59.368928,201.081,can1  100  [03]  76 89 04
2025-10-16T21:25:59.372603,201.084,can1  110  [02]  B6 1C
2025-10-16T21:26:00.359779,202.072,can1  120  [04]  00 E1 19 00
2025-10-16T21:26:01.226466,202.938,can1  100  [03]  74 89 04
2025-10-16T21:26:02.024634,203.736,can1  110  [02]  B6 1C
2025-10-16T21:26:02.028220,203.740,can1  120  [04]  60 D1 19 00
2025-10-16T21:26:02.916883,204.629,can1  100  [03]  71 89 04
2025-10-16T21:26:03.704705,205.416,can1  110  [02]  B6 1C
2025-10-16T21:26:04.587866,206.300,can1  120  [04]  A8 C5 19 00
2025-10-16T21:26:04.591500,206.303,can1  100  [03]  6E 89 04
2025-10-16T21:26:05.470426,207.182,can1  110  [02]  B6 1C
2025-10-16T21:26:06.352286,208.064,can1  120  [04]  F0 B9 19 00
2025-10-16T21:26:07.125691,208.837,can1  100  [03]  6C 89 04
2025-10-16T21:26:07.890199,209.602,can1  110  [02]  B5 1C
2025-10-16T21:26:07.893743,209.605,can1  120  [04]  50 AA 19 00
2025-10-16T21:26:08.657527,210.369,can1  100  [03]  6A 89 04
2025-10-16T21:26:09.422420,211.134,can1  110  [02]  B5 1C
2025-10-16T21:26:10.177753,211.889,can1  120  [04]  68 A6 19 00
2025-10-16T21:26:11.179766,212.891,can1  100  [03]  68 89 04
2025-10-16T21:26:11.184146,212.896,can1  110  [02]  B2 1C
2025-10-16T21:26:12.176463,213.888,can1  120  [04]  E0 92 19 00
2025-10-16T21:26:13.293790,215.006,can1  100  [03]  65 89 04
2025-10-16T21:26:14.722469,216.434,can1  110  [02]  B7 1C
2025-10-16T21:26:14.726394,216.438,can1  120  [04]  F8 8E 19 00
2025-10-16T21:26:14.731311,216.443,can1  100  [03]  63 89 04
2025-10-16T21:26:15.700877,217.413,can1  110  [02]  B5 1C
2025-10-16T21:26:15.704449,217.416,can1  120  [04]  40 83 19 00
2025-10-16T21:26:16.705926,218.418,can1  100  [03]  62 89 04
2025-10-16T21:26:17.815207,219.527,can1  110  [02]  B7 1C
2025-10-16T21:26:17.821516,219.533,can1  120  [04]  70 7B 19 00
2025-10-16T21:26:19.054045,220.766,can1  100  [03]  61 89 04
2025-10-16T21:26:20.141302,221.853,can1  110  [02]  B5 1C
2025-10-16T21:26:20.145180,221.857,can1  120  [04]  D0 6B 19 00
2025-10-16T21:26:21.128994,222.841,can1  100  [03]  61 89 04
2025-10-16T21:26:21.133239,222.845,can1  110  [02]  B6 1C
2025-10-16T21:26:22.232663,223.944,can1  120  [04]  48 58 19 00
2025-10-16T21:26:22.236580,223.948,can1  100  [03]  60 89 04
2025-10-16T21:26:23.217724,224.929,can1  110  [02]  B6 1C
2025-10-16T21:26:24.427459,226.139,can1  120  [04]  C0 44 19 00
2025-10-16T21:26:24.431180,226.143,can1  100  [03]  60 89 04
2025-10-16T21:26:25.516528,227.228,can1  110  [02]  B6 1C
2025-10-16T21:26:26.606678,228.318,can1  120  [04]  48 5E 18 00
2025-10-16T21:26:26.610495,228.322,can1  100  [03]  61 89 04
2025-10-16T21:26:27.716906,229.429,can1  110  [02]  B4 1C
2025-10-16T21:26:27.721411,229.433,can1  120  [04]  A8 4E 18 00
2025-10-16T21:26:28.810053,230.522,can1  100  [03]  62 89 04
2025-10-16T21:26:29.921626,231.633,can1  110  [02]  B7 1C
2025-10-16T21:26:29.925396,231.637,can1  120  [04]  20 3B 18 00
2025-10-16T21:26:31.019267,232.731,can1  100  [03]  63 89 04
2025-10-16T21:26:32.102224,233.814,can1  110  [02]  B7 1C
2025-10-16T21:26:32.106569,233.818,can1  120  [04]  C8 1F 18 00
2025-10-16T21:26:33.209019,234.921,can1  100  [03]  64 89 04
2025-10-16T21:26:33.213234,234.925,can1  110  [02]  BC 1C
2025-10-16T21:26:34.334134,236.046,can1  120  [04]  40 0C 18 00
2025-10-16T21:26:34.337783,236.050,can1  100  [03]  65 89 04
2025-10-16T21:26:35.442445,237.154,can1  110  [02]  4D 1C
2025-10-16T21:26:36.652294,238.364,can1  120  [04]  28 93 17 00
2025-10-16T21:26:36.656450,238.368,can1  100  [03]  67 89 04
2025-10-16T21:26:37.757231,239.469,can1  110  [02]  8D 1C
2025-10-16T21:26:37.761593,239.473,can1  120  [04]  80 3D 15 00
2025-10-16T21:26:38.861624,240.573,can1  100  [03]  69 89 04
2025-10-16T21:26:40.068166,241.780,can1  110  [02]  5D 1C
2025-10-16T21:26:40.072276,241.784,can1  120  [04]  90 E7 14 00
2025-10-16T21:26:41.381704,243.093,can1  100  [03]  6A 89 04
2025-10-16T21:26:41.386013,243.098,can1  110  [02]  8A 1C
2025-10-16T21:26:42.480008,244.192,can1  120  [04]  B8 8D 14 00
2025-10-16T21:26:42.484572,244.196,can1  100  [03]  6B 89 04
2025-10-16T21:26:43.468381,245.180,can1  110  [02]  8F 1C
2025-10-16T21:26:44.566787,246.279,can1  120  [04]  70 16 15 00
2025-10-16T21:26:44.571534,246.283,can1  100  [03]  6B 89 04
2025-10-16T21:26:45.652446,247.364,can1  110  [02]  8E 1C
2025-10-16T21:26:45.656533,247.368,can1  120  [04]  58 1A 15 00
2025-10-16T21:26:46.414086,248.126,can1  100  [03]  6B 89 04
2025-10-16T21:26:47.185996,248.898,can1  110  [02]  B6 1C
2025-10-16T21:26:47.960412,249.672,can1  120  [04]  B0 35 15 00
2025-10-16T21:26:48.633747,250.345,can1  100  [03]  6B 89 04
2025-10-16T21:26:49.311274,251.023,can1  110  [02]  D9 1D
2025-10-16T21:26:49.986572,251.698,can1  120  [04]  F0 54 15 00
2025-10-16T21:26:50.744941,252.457,can1  100  [03]  6C 89 04
2025-10-16T21:26:51.528594,253.240,can1  110  [02]  35 1D
2025-10-16T21:26:51.532026,253.244,can1  120  [04]  38 CC 14 00
2025-10-16T21:26:52.301539,254.013,can1  100  [03]  6E 89 04
2025-10-16T21:26:53.055339,254.767,can1  110  [02]  EE 1C
2025-10-16T21:26:53.853361,255.565,can1  120  [04]  60 72 14 00
2025-10-16T21:26:54.625688,256.337,can1  100  [03]  6F 89 04
2025-10-16T21:26:55.385413,257.097,can1  110  [02]  CD 1C
2025-10-16T21:26:56.149383,257.861,can1  120  [04]  28 3A 11 00
2025-10-16T21:26:56.153254,257.865,can1  100  [03]  70 89 04
2025-10-16T21:26:56.922300,258.634,can1  110  [02]  EC 1C
2025-10-16T21:26:57.677846,259.390,can1  120  [04]  68 E2 0F 00
2025-10-16T21:26:58.366340,260.078,can1  100  [03]  72 89 04
2025-10-16T21:26:59.137318,260.849,can1  110  [02]  E2 1C
2025-10-16T21:26:59.896112,261.608,can1  120  [04]  C4 AF 0E 00
2025-10-16T21:27:00.676368,262.388,can1  100  [03]  74 89 04
2025-10-16T21:27:01.440784,263.153,can1  110  [02]  3C 1C
2025-10-16T21:27:02.198777,263.911,can1  120  [04]  0C 40 0E 00
2025-10-16T21:27:02.203019,263.915,can1  100  [03]  76 89 04
2025-10-16T21:27:02.959410,264.671,can1  110  [02]  6F 1C
2025-10-16T21:27:03.631661,265.343,can1  120  [04]  C8 93 0D 00
2025-10-16T21:27:04.409381,266.121,can1  100  [03]  78 89 04
2025-10-16T21:27:05.163577,266.875,can1  110  [02]  99 1C
2025-10-16T21:27:05.944453,267.656,can1  120  [04]  94 8B 0D 00
2025-10-16T21:27:06.627523,268.339,can1  100  [03]  79 89 04
2025-10-16T21:27:07.402522,269.114,can1  110  [02]  8C 1C
2025-10-16T21:27:07.406259,269.118,can1  120  [04]  74 88 0D 00
2025-10-16T21:27:08.169126,269.881,can1  100  [03]  7B 89 04
2025-10-16T21:27:08.930911,270.643,can1  110  [02]  A6 1C
2025-10-16T21:27:09.693826,271.406,can1  120  [04]  A4 80 0D 00
2025-10-16T21:27:10.478173,272.190,can1  100  [03]  7C 89 04
2025-10-16T21:27:11.240052,272.952,can1  110  [02]  9E 1C
2025-10-16T21:27:11.911691,273.623,can1  120  [04]  50 75 0D 00
2025-10-16T21:27:11.915080,273.627,can1  100  [03]  7C 89 04
2025-10-16T21:27:12.678552,274.390,can1  110  [02]  B6 1C
2025-10-16T21:27:14.226483,275.938,can1  120  [04]  1C 86 0D 00
2025-10-16T21:27:14.229576,275.941,can1  100  [03]  7C 89 04
2025-10-16T21:27:14.975059,276.687,can1  110  [02]  C6 1C
2025-10-16T21:27:15.755024,277.467,can1  120  [04]  14 4D 0D 00
2025-10-16T21:27:16.423948,278.136,can1  100  [03]  7A 89 04
2025-10-16T21:27:17.179876,278.892,can1  110  [02]  8F 1C
2025-10-16T21:27:17.960860,279.673,can1  120  [04]  34 50 0D 00
2025-10-16T21:27:17.971572,279.683,can1  100  [03]  78 89 04
2025-10-16T21:27:18.745100,280.457,can1  110  [02]  CA 1C
2025-10-16T21:27:19.511462,281.223,can1  120  [04]  7C 2B 0D 00
2025-10-16T21:27:20.275554,281.987,can1  100  [03]  76 89 04
2025-10-16T21:27:21.151775,282.864,can1  110  [02]  A1 1C
2025-10-16T21:27:21.156026,282.868,can1  120  [04]  20 32 0D 00
2025-10-16T21:27:22.037531,283.749,can1  100  [03]  73 89 04
2025-10-16T21:27:22.816918,284.529,can1  110  [02]  4C 1C
2025-10-16T21:27:23.791412,285.503,can1  120  [04]  A4 35 0D 00
2025-10-16T21:27:24.693572,286.405,can1  100  [03]  70 89 04
2025-10-16T21:27:24.697975,286.410,can1  110  [02]  82 1B
2025-10-16T21:27:25.468433,287.180,can1  120  [04]  C4 38 0D 00
2025-10-16T21:27:26.255407,287.967,can1  100  [03]  6E 89 04
2025-10-16T21:27:27.142546,288.854,can1  110  [02]  F3 1B
2025-10-16T21:27:28.229930,289.942,can1  120  [04]  28 39 0D 00
2025-10-16T21:27:28.234183,289.946,can1  100  [03]  6D 89 04
2025-10-16T21:27:29.130027,290.842,can1  110  [02]  20 1C
2025-10-16T21:27:30.003871,291.716,can1  120  [04]  48 3C 0D 00
2025-10-16T21:27:30.008243,291.720,can1  100  [03]  6D 89 04
2025-10-16T21:27:30.866568,292.578,can1  110  [02]  57 1C
2025-10-16T21:27:31.749846,293.462,can1  120  [04]  54 3A 0D 00
2025-10-16T21:27:31.753898,293.466,can1  100  [03]  6D 89 04
2025-10-16T21:27:32.644984,294.357,can1  110  [02]  7F 1C
2025-10-16T21:27:33.519035,295.231,can1  120  [04]  3C 3E 0D 00
2025-10-16T21:27:34.407951,296.120,can1  100  [03]  6F 89 04
2025-10-16T21:27:35.274279,296.986,can1  110  [02]  26 1D
2025-10-16T21:27:35.278873,296.991,can1  120  [04]  E4 3B 0D 00
2025-10-16T21:27:36.255641,297.967,can1  100  [03]  72 89 04
2025-10-16T21:27:37.135464,298.847,can1  110  [02]  F0 1C
2025-10-16T21:27:37.139650,298.851,can1  120  [04]  5C 41 0D 00
2025-10-16T21:27:38.125425,299.837,can1  100  [03]  76 89 04
2025-10-16T21:27:39.110932,300.823,can1  110  [02]  FD 1C
2025-10-16T21:27:39.115568,300.827,can1  120  [04]  CC 3F 0D 00
2025-10-16T21:27:40.198384,301.910,can1  100  [03]  7B 89 04
2025-10-16T21:27:41.069790,302.782,can1  110  [02]  E8 1C
2025-10-16T21:27:41.074466,302.786,can1  120  [04]  5C 41 0D 00
2025-10-16T21:27:41.947102,303.659,can1  100  [03]  80 89 04
2025-10-16T21:27:42.719579,304.431,can1  110  [02]  DA 1C
2025-10-16T21:27:43.593831,305.306,can1  120  [04]  D4 46 0D 00
2025-10-16T21:27:43.599044,305.311,can1  100  [03]  86 89 04
2025-10-16T21:27:44.578386,306.290,can1  110  [02]  D5 1C
2025-10-16T21:27:45.665852,307.378,can1  120  [04]  38 47 0D 00
2025-10-16T21:27:45.670128,307.382,can1  100  [03]  8A 89 04
2025-10-16T21:27:46.661511,308.373,can1  110  [02]  D1 1C
2025-10-16T21:27:47.661998,309.374,can1  120  [04]  70 2D 0D 00
2025-10-16T21:27:47.678916,309.391,can1  100  [03]  8F 89 04
2025-10-16T21:27:48.759926,310.472,can1  110  [02]  D6 1C
2025-10-16T21:27:49.752474,311.464,can1  120  [04]  80 3B 0D 00
2025-10-16T21:27:49.756953,311.469,can1  100  [03]  92 89 04
2025-10-16T21:27:50.858273,312.570,can1  110  [02]  BD 1C
2025-10-16T21:27:51.839710,313.551,can1  120  [04]  F0 52 0D 00
2025-10-16T21:27:51.845399,313.557,can1  100  [03]  94 89 04
2025-10-16T21:27:52.934573,314.646,can1  110  [02]  C1 1C
2025-10-16T21:27:52.939582,314.651,can1  120  [04]  E4 54 0D 00
2025-10-16T21:27:54.050071,315.762,can1  100  [03]  97 89 04
2025-10-16T21:27:55.142245,316.854,can1  110  [02]  C7 1C
2025-10-16T21:27:55.146750,316.858,can1  120  [04]  8C 39 0D 00
2025-10-16T21:27:56.147930,317.860,can1  100  [03]  98 89 04
2025-10-16T21:27:57.135201,318.847,can1  110  [02]  C2 1C
2025-10-16T21:27:57.139281,318.851,can1  120  [04]  5C 41 0D 00
2025-10-16T21:27:58.120178,319.832,can1  100  [03]  9A 89 04
2025-10-16T21:27:59.122505,320.834,can1  110  [02]  BE 1C
2025-10-16T21:27:59.126396,320.838,can1  120  [04]  04 58 0D 00
2025-10-16T21:28:00.019525,321.731,can1  100  [03]  9A 89 04
2025-10-16T21:28:00.997915,322.710,can1  110  [02]  C5 1C
2025-10-16T21:28:01.012536,322.724,can1  120  [04]  80 3B 0D 00
2025-10-16T21:28:01.872760,323.584,can1  100  [03]  9C 89 04
2025-10-16T21:28:02.864212,324.576,can1  110  [02]  BF 1C
2025-10-16T21:28:03.837056,325.549,can1  120  [04]  CC BC 0D 00
2025-10-16T21:28:03.840876,325.553,can1  100  [03]  9F 89 04
2025-10-16T21:28:04.932004,326.644,can1  110  [02]  C1 1C
2025-10-16T21:28:04.939341,326.651,can1  120  [04]  14 1B 0D 00
2025-10-16T21:28:05.924951,327.637,can1  100  [03]  A5 89 04
2025-10-16T21:28:06.813610,328.525,can1  110  [02]  BA 1C
2025-10-16T21:28:07.900368,329.612,can1  120  [04]  30 59 0D 00
2025-10-16T21:28:07.908275,329.620,can1  100  [03]  AD 89 04
2025-10-16T21:28:09.102185,330.814,can1  110  [02]  BF 1C
2025-10-16T21:28:09.109115,330.821,can1  120  [04]  4C 97 0D 00
2025-10-16T21:28:10.305203,332.017,can1  100  [03]  B8 89 04
2025-10-16T21:28:10.311731,332.023,can1  110  [02]  C3 1C
2025-10-16T21:28:11.527671,333.239,can1  120  [04]  80 1C 0E 00
2025-10-16T21:28:12.645099,334.357,can1  100  [03]  C5 89 04
2025-10-16T21:28:12.652829,334.365,can1  110  [02]  C2 1C
2025-10-16T21:28:13.836393,335.548,can1  120  [04]  E4 9F 0D 00
2025-10-16T21:28:13.841332,335.553,can1  100  [03]  D3 89 04
2025-10-16T21:28:14.838386,336.550,can1  110  [02]  BF 1C
2025-10-16T21:28:15.932707,337.644,can1  120  [04]  BC 18 0D 00
2025-10-16T21:28:15.937498,337.649,can1  100  [03]  E3 89 04
2025-10-16T21:28:16.939641,338.651,can1  110  [02]  BD 1C
2025-10-16T21:28:16.944455,338.656,can1  120  [04]  E0 12 0D 00
2025-10-16T21:28:17.921224,339.633,can1  100  [03]  F4 89 04
2025-10-16T21:28:18.924487,340.636,can1  110  [02]  BE 1C
2025-10-16T21:28:18.928810,340.641,can1  120  [04]  E8 90 0E 00
2025-10-16T21:28:19.903781,341.616,can1  100  [03]  05 8A 04
2025-10-16T21:28:20.893213,342.605,can1  110  [02]  BF 1C
2025-10-16T21:28:20.897684,342.609,can1  120  [04]  EC 42 0D 00
2025-10-16T21:28:21.871707,343.583,can1  100  [03]  17 8A 04
2025-10-16T21:28:22.969909,344.682,can1  110  [02]  B8 1C
2025-10-16T21:28:22.974404,344.686,can1  120  [04]  B0 4C 0D 00
2025-10-16T21:28:24.082747,345.794,can1  100  [03]  28 8A 04
2025-10-16T21:28:25.077295,346.789,can1  110  [02]  B8 1C
2025-10-16T21:28:25.081895,346.794,can1  120  [04]  44 A3 0E 00
2025-10-16T21:28:26.166101,347.878,can1  100  [03]  3A 8A 04
2025-10-16T21:28:26.171106,347.883,can1  110  [02]  C7 1C
2025-10-16T21:28:27.156795,348.869,can1  120  [04]  D0 49 0E 00
2025-10-16T21:28:28.143603,349.855,can1  100  [03]  4C 8A 04
2025-10-16T21:28:28.148791,349.861,can1  110  [02]  BD 1C
2025-10-16T21:28:29.227801,350.940,can1  120  [04]  6C B3 0D 00
2025-10-16T21:28:30.227549,351.939,can1  100  [03]  5E 8A 04
2025-10-16T21:28:30.231944,351.944,can1  110  [02]  CE 1C
2025-10-16T21:28:31.213994,352.926,can1  120  [04]  18 FF 0B 00
2025-10-16T21:28:32.197410,353.909,can1  100  [03]  71 8A 04
2025-10-16T21:28:32.202151,353.914,can1  110  [02]  15 1D
2025-10-16T21:28:33.302146,355.014,can1  120  [04]  48 10 0C 00
2025-10-16T21:28:33.307082,355.019,can1  100  [03]  83 8A 04
2025-10-16T21:28:34.309262,356.021,can1  110  [02]  BF 1C
2025-10-16T21:28:35.314408,357.026,can1  120  [04]  1C 0F 0C 00
2025-10-16T21:28:35.318953,357.031,can1  100  [03]  95 8A 04
2025-10-16T21:28:36.306927,358.019,can1  110  [02]  DC 1C
2025-10-16T21:28:37.287890,359.000,can1  120  [04]  D0 0A 0C 00
2025-10-16T21:28:38.272103,359.984,can1  100  [03]  A6 8A 04
2025-10-16T21:28:38.276859,359.989,can1  110  [02]  95 1C
2025-10-16T21:28:39.267982,360.980,can1  120  [04]  98 0B 0C 00
2025-10-16T21:28:39.272844,360.985,can1  100  [03]  B6 8A 04
2025-10-16T21:28:40.160747,361.872,can1  110  [02]  97 1C
2025-10-16T21:28:41.240166,362.952,can1  120  [04]  E4 F6 0B 00
2025-10-16T21:28:42.227587,363.939,can1  100  [03]  C6 8A 04
2025-10-16T21:28:42.231942,363.944,can1  110  [02]  BC 1C
2025-10-16T21:28:43.218050,364.930,can1  120  [04]  30 FB 0B 00
2025-10-16T21:28:44.309226,366.021,can1  100  [03]  D5 8A 04
2025-10-16T21:28:44.317483,366.029,can1  110  [02]  7C 1C
2025-10-16T21:28:45.759604,367.471,can1  120  [04]  D8 5C 0C 00
2025-10-16T21:28:45.764956,367.477,can1  100  [03]  E3 8A 04
2025-10-16T21:28:46.756060,368.468,can1  110  [02]  76 1C
2025-10-16T21:28:46.760768,368.472,can1  120  [04]  44 3F 0E 00
2025-10-16T21:28:47.865526,369.577,can1  100  [03]  EF 8A 04
2025-10-16T21:28:48.875633,370.587,can1  110  [02]  7B 1C
2025-10-16T21:28:48.881201,370.593,can1  120  [04]  50 DF 0C 00
2025-10-16T21:28:49.968623,371.680,can1  100  [03]  FB 8A 04
2025-10-16T21:28:51.163884,372.876,can1  110  [02]  9D 1C
2025-10-16T21:28:51.168431,372.880,can1  120  [04]  FC A1 0C 00
2025-10-16T21:28:52.275894,373.988,can1  100  [03]  07 8B 04
2025-10-16T21:28:52.282465,373.994,can1  110  [02]  AE 1C
2025-10-16T21:28:53.260748,374.972,can1  120  [04]  A8 96 0C 00
2025-10-16T21:28:54.572197,376.284,can1  100  [03]  14 8B 04
2025-10-16T21:28:54.578107,376.290,can1  110  [02]  B5 1C
2025-10-16T21:28:54.584408,376.296,can1  120  [04]  94 91 0C 00
2025-10-16T21:28:55.997072,377.709,can1  100  [03]  22 8B 04
2025-10-16T21:28:56.002717,377.714,can1  110  [02]  C7 1C
2025-10-16T21:28:57.200863,378.913,can1  120  [04]  54 D6 0C 00
2025-10-16T21:28:58.185234,379.897,can1  100  [03]  30 8B 04
2025-10-16T21:28:58.190231,379.902,can1  110  [02]  C7 1C
2025-10-16T21:28:59.288608,381.000,can1  120  [04]  04 2C 0C 00
2025-10-16T21:28:59.296999,381.009,can1  100  [03]  3F 8B 04
2025-10-16T21:29:00.509704,382.221,can1  110  [02]  AC 1C
2025-10-16T21:29:01.713695,383.425,can1  120  [04]  C0 15 0C 00
2025-10-16T21:29:01.721268,383.433,can1  100  [03]  4F 8B 04
2025-10-16T21:29:02.932546,384.644,can1  110  [02]  06 1D
2025-10-16T21:29:02.937708,384.649,can1  120  [04]  4C 07 0C 00
2025-10-16T21:29:03.704289,385.416,can1  100  [03]  5D 8B 04
2025-10-16T21:29:04.606593,386.318,can1  110  [02]  E7 1C
2025-10-16T21:29:04.612640,386.324,can1  120  [04]  20 06 0C 00
2025-10-16T21:29:05.474326,387.186,can1  100  [03]  69 8B 04
2025-10-16T21:29:06.362327,388.074,can1  110  [02]  E3 1C
2025-10-16T21:29:06.367326,388.079,can1  120  [04]  18 FF 0B 00
2025-10-16T21:29:07.224941,388.937,can1  100  [03]  72 8B 04
2025-10-16T21:29:08.100529,389.812,can1  110  [02]  D6 1C
2025-10-16T21:29:08.980434,390.692,can1  120  [04]  50 FE 0B 00
2025-10-16T21:29:08.985651,390.697,can1  100  [03]  7A 8B 04
2025-10-16T21:29:09.968534,391.680,can1  110  [02]  41 1C
2025-10-16T21:29:10.840085,392.552,can1  120  [04]  AC F7 0B 00
2025-10-16T21:29:11.753265,393.465,can1  100  [03]  81 8B 04
2025-10-16T21:29:12.739838,394.452,can1  110  [02]  71 1C
2025-10-16T21:29:12.744626,394.456,can1  120  [04]  EC E4 0B 00
2025-10-16T21:29:13.518368,395.230,can1  100  [03]  89 8B 04
2025-10-16T21:29:14.296650,396.008,can1  110  [02]  5E 1C
2025-10-16T21:29:15.186543,396.898,can1  120  [04]  CC E1 0B 00
2025-10-16T21:29:15.191880,396.904,can1  100  [03]  8E 8B 04
2025-10-16T21:29:16.061232,397.773,can1  110  [02]  CE 1C
2025-10-16T21:29:16.936959,398.649,can1  120  [04]  10 DF 0B 00
2025-10-16T21:29:16.942052,398.654,can1  100  [03]  93 8B 04
2025-10-16T21:29:17.952043,399.664,can1  110  [02]  7F 1C
2025-10-16T21:29:18.714941,400.427,can1  120  [04]  14 D6 0B 00
2025-10-16T21:29:19.588431,401.300,can1  100  [03]  98 8B 04
2025-10-16T21:29:20.795757,402.508,can1  110  [02]  A7 1C
2025-10-16T21:29:20.803236,402.515,can1  120  [04]  44 CE 0B 00
2025-10-16T21:29:22.020716,403.732,can1  100  [03]  9D 8B 04
2025-10-16T21:29:22.027211,403.739,can1  110  [02]  E5 1C
2025-10-16T21:29:23.115483,404.827,can1  120  [04]  0C CF 0B 00
2025-10-16T21:29:23.120965,404.833,can1  100  [03]  A3 8B 04
2025-10-16T21:29:24.091725,405.803,can1  110  [02]  CB 1C
2025-10-16T21:29:25.415851,407.128,can1  120  [04]  F8 C9 0B 00
2025-10-16T21:29:25.425456,407.137,can1  100  [03]  A9 8B 04
2025-10-16T21:29:26.417308,408.129,can1  110  [02]  C7 1C
2025-10-16T21:29:26.422243,408.134,can1  120  [04]  CC C8 0B 00
2025-10-16T21:29:27.306914,409.019,can1  100  [03]  AF 8B 04
2025-10-16T21:29:28.068315,409.780,can1  110  [02]  C1 1C
2025-10-16T21:29:28.848096,410.560,can1  120  [04]  18 CD 0B 00
2025-10-16T21:29:28.853387,410.565,can1  100  [03]  B7 8B 04
2025-10-16T21:29:29.737873,411.450,can1  110  [02]  C3 1C
2025-10-16T21:29:30.847764,412.559,can1  120  [04]  34 C0 0B 00
2025-10-16T21:29:30.853331,412.565,can1  100  [03]  BF 8B 04
2025-10-16T21:29:32.042792,413.755,can1  110  [02]  C2 1C
2025-10-16T21:29:33.053138,414.765,can1  120  [04]  28 5E 0B 00
2025-10-16T21:29:33.058693,414.770,can1  100  [03]  C7 8B 04
2025-10-16T21:29:34.156330,415.868,can1  110  [02]  C2 1C
2025-10-16T21:29:35.247868,416.960,can1  120  [04]  DC 59 0B 00
2025-10-16T21:29:35.255231,416.967,can1  100  [03]  CD 8B 04
2025-10-16T21:29:36.336734,418.048,can1  110  [02]  C1 1C
2025-10-16T21:29:36.342623,418.054,can1  120  [04]  90 55 0B 00
2025-10-16T21:29:37.338810,419.051,can1  100  [03]  D3 8B 04
2025-10-16T21:29:38.326240,420.038,can1  110  [02]  BF 1C
2025-10-16T21:29:38.331674,420.043,can1  120  [04]  BC 56 0B 00
2025-10-16T21:29:39.307666,421.019,can1  100  [03]  D9 8B 04
2025-10-16T21:29:40.288873,422.001,can1  110  [02]  C0 1C
2025-10-16T21:29:40.293676,422.005,can1  120  [04]  F4 55 0B 00
2025-10-16T21:29:41.602195,423.314,can1  100  [03]  DF 8B 04
2025-10-16T21:29:41.608753,423.320,can1  110  [02]  C2 1C
2025-10-16T21:29:42.706771,424.418,can1  120  [04]  90 55 0B 00
2025-10-16T21:29:43.706499,425.418,can1  100  [03]  E6 8B 04
2025-10-16T21:29:43.711429,425.423,can1  110  [02]  C1 1C
2025-10-16T21:29:44.684664,426.396,can1  120  [04]  A8 51 0B 00
2025-10-16T21:29:45.666208,427.378,can1  100  [03]  EC 8B 04
2025-10-16T21:29:45.672371,427.384,can1  110  [02]  B8 1C
2025-10-16T21:29:46.540633,428.252,can1  120  [04]  44 51 0B 00
2025-10-16T21:29:47.414697,429.126,can1  100  [03]  F2 8B 04
2025-10-16T21:29:48.396547,430.108,can1  110  [02]  C4 1C
2025-10-16T21:29:48.401742,430.113,can1  120  [04]  D4 52 0B 00
2025-10-16T21:29:49.277638,430.989,can1  100  [03]  F8 8B 04
2025-10-16T21:29:50.260286,431.972,can1  110  [02]  ED 1C
2025-10-16T21:29:50.266986,431.979,can1  120  [04]  5C 4D 0B 00
2025-10-16T21:29:51.461408,433.173,can1  100  [03]  FD 8B 04
2025-10-16T21:29:52.458373,434.170,can1  110  [02]  A0 1C
2025-10-16T21:29:52.467615,434.179,can1  120  [04]  0C 6B 0B 00
2025-10-16T21:29:53.445966,435.158,can1  100  [03]  01 8C 04
2025-10-16T21:29:54.429976,436.142,can1  110  [02]  DB 1C
2025-10-16T21:29:54.452121,436.164,can1  120  [04]  04 64 0B 00
2025-10-16T21:29:55.432730,437.144,can1  100  [03]  06 8C 04
2025-10-16T21:29:56.304869,438.017,can1  110  [02]  C8 1C
2025-10-16T21:29:56.309936,438.022,can1  120  [04]  3C 63 0B 00
2025-10-16T21:29:57.412112,439.124,can1  100  [03]  0B 8C 04
2025-10-16T21:29:57.420574,439.133,can1  110  [02]  B4 1C
2025-10-16T21:29:58.384375,440.096,can1  120  [04]  F4 55 0B 00
2025-10-16T21:29:59.378648,441.090,can1  100  [03]  11 8C 04
2025-10-16T21:29:59.384593,441.096,can1  110  [02]  B8 1C
2025-10-16T21:30:00.468960,442.181,can1  120  [04]  70 52 0B 00
2025-10-16T21:30:01.336730,443.048,can1  100  [03]  17 8C 04
2025-10-16T21:30:02.329436,444.041,can1  110  [02]  BA 1C
2025-10-16T21:30:02.334988,444.047,can1  120  [04]  BC 3D 0B 00
2025-10-16T21:30:03.196167,444.908,can1  100  [03]  1E 8C 04
2025-10-16T21:30:04.179857,445.892,can1  110  [02]  BB 1C
2025-10-16T21:30:04.185135,445.897,can1  120  [04]  C8 3B 0B 00
2025-10-16T21:30:05.161490,446.873,can1  100  [03]  23 8C 04
2025-10-16T21:30:06.155701,447.867,can1  110  [02]  BC 1C
2025-10-16T21:30:06.161995,447.874,can1  120  [04]  D8 30 0B 00
2025-10-16T21:30:07.152964,448.865,can1  100  [03]  27 8C 04
2025-10-16T21:30:08.023730,449.735,can1  110  [02]  B9 1C
2025-10-16T21:30:08.029185,449.741,can1  120  [04]  AC 2F 0B 00
2025-10-16T21:30:09.017645,450.729,can1  100  [03]  29 8C 04
2025-10-16T21:30:10.012847,451.725,can1  110  [02]  BA 1C
2025-10-16T21:30:10.018205,451.730,can1  120  [04]  1C 2E 0B 00
2025-10-16T21:30:10.994172,452.706,can1  100  [03]  29 8C 04
2025-10-16T21:30:11.987025,453.699,can1  110  [02]  BA 1C
2025-10-16T21:30:11.992524,453.704,can1  120  [04]  04 19 0B 00
2025-10-16T21:30:12.964113,454.676,can1  100  [03]  28 8C 04
2025-10-16T21:30:13.958651,455.670,can1  110  [02]  BC 1C
2025-10-16T21:30:13.965259,455.677,can1  120  [04]  74 17 0B 00
2025-10-16T21:30:14.955610,456.667,can1  100  [03]  25 8C 04
2025-10-16T21:30:15.948383,457.660,can1  110  [02]  BC 1C
2025-10-16T21:30:15.956801,457.669,can1  120  [04]  18 1E 0B 00
2025-10-16T21:30:17.037689,458.749,can1  100  [03]  23 8C 04
2025-10-16T21:30:18.033870,459.746,can1  110  [02]  BC 1C
2025-10-16T21:30:19.005519,460.717,can1  120  [04]  18 1E 0B 00
2025-10-16T21:30:19.014902,460.727,can1  100  [03]  23 8C 04
2025-10-16T21:30:20.118485,461.830,can1  110  [02]  BD 1C
2025-10-16T21:30:20.124711,461.836,can1  120  [04]  64 22 0B 00
2025-10-16T21:30:21.110246,462.822,can1  100  [03]  24 8C 04
2025-10-16T21:30:22.224531,463.936,can1  110  [02]  B8 1C
2025-10-16T21:30:22.230124,463.942,can1  120  [04]  58 24 0B 00
2025-10-16T21:30:23.098270,464.810,can1  100  [03]  26 8C 04
2025-10-16T21:30:23.970594,465.682,can1  110  [02]  BA 1C
2025-10-16T21:30:23.976903,465.689,can1  120  [04]  A8 1F 0B 00
2025-10-16T21:30:25.170287,466.882,can1  100  [03]  29 8C 04
2025-10-16T21:30:26.382142,468.094,can1  110  [02]  B9 1C
2025-10-16T21:30:26.387607,468.099,can1  120  [04]  2C 23 0B 00
2025-10-16T21:30:27.596599,469.308,can1  100  [03]  2D 8C 04
2025-10-16T21:30:27.603530,469.315,can1  110  [02]  BB 1C
2025-10-16T21:30:28.678571,470.390,can1  120  [04]  2C 23 0B 00
2025-10-16T21:30:28.684637,470.396,can1  100  [03]  32 8C 04
2025-10-16T21:30:29.671797,471.384,can1  110  [02]  C3 1C
2025-10-16T21:30:30.449773,472.162,can1  120  [04]  2C 23 0B 00
2025-10-16T21:30:30.456112,472.168,can1  100  [03]  38 8C 04
2025-10-16T21:30:31.323132,473.035,can1  110  [02]  B8 1C
2025-10-16T21:30:32.303626,474.015,can1  120  [04]  50 1D 0B 00
2025-10-16T21:30:33.179221,474.891,can1  100  [03]  3D 8C 04
2025-10-16T21:30:33.185064,474.897,can1  110  [02]  C2 1C
2025-10-16T21:30:34.077088,475.789,can1  120  [04]  CC 19 0B 00
2025-10-16T21:30:34.840339,476.552,can1  100  [03]  42 8C 04
2025-10-16T21:30:35.726875,477.439,can1  110  [02]  61 1E
2025-10-16T21:30:36.820355,478.532,can1  120  [04]  24 1C 0B 00
2025-10-16T21:30:36.826555,478.538,can1  100  [03]  46 8C 04
2025-10-16T21:30:37.802587,479.514,can1  110  [02]  28 1D
2025-10-16T21:30:38.690722,480.402,can1  120  [04]  94 33 0B 00
2025-10-16T21:30:38.697356,480.409,can1  100  [03]  4B 8C 04
2025-10-16T21:30:39.564273,481.276,can1  110  [02]  B5 1C
2025-10-16T21:30:40.455885,482.168,can1  120  [04]  38 21 0B 00
2025-10-16T21:30:40.461684,482.173,can1  100  [03]  51 8C 04
2025-10-16T21:30:41.345689,483.057,can1  110  [02]  81 1C
2025-10-16T21:30:42.327433,484.039,can1  120  [04]  38 21 0B 00
2025-10-16T21:30:43.202184,484.914,can1  100  [03]  57 8C 04
2025-10-16T21:30:43.208182,484.920,can1  110  [02]  86 1C
2025-10-16T21:30:44.073627,485.785,can1  120  [04]  20 3E 0B 00
2025-10-16T21:30:44.837673,486.549,can1  100  [03]  5F 8C 04
2025-10-16T21:30:45.710178,487.422,can1  110  [02]  A6 1C
2025-10-16T21:30:45.715780,487.428,can1  120  [04]  0C 39 0B 00
2025-10-16T21:30:46.489352,488.201,can1  100  [03]  66 8C 04
2025-10-16T21:30:47.269391,488.981,can1  110  [02]  90 1B
2025-10-16T21:30:48.160931,489.873,can1  120  [04]  90 3C 0B 00
2025-10-16T21:30:49.033002,490.745,can1  100  [03]  6D 8C 04
2025-10-16T21:30:49.039332,490.751,can1  110  [02]  57 1D
2025-10-16T21:30:49.906283,491.618,can1  120  [04]  C8 3B 0B 00
2025-10-16T21:30:50.669452,492.381,can1  100  [03]  75 8C 04
2025-10-16T21:30:51.558764,493.271,can1  110  [02]  CC 1C
2025-10-16T21:30:52.447373,494.159,can1  120  [04]  14 40 0B 00
2025-10-16T21:30:52.453826,494.166,can1  100  [03]  7D 8C 04
2025-10-16T21:30:53.322358,495.034,can1  110  [02]  CD 1C
2025-10-16T21:30:54.194173,495.906,can1  120  [04]  DC 27 0B 00
2025-10-16T21:30:55.068898,496.781,can1  100  [03]  86 8C 04
2025-10-16T21:30:55.074560,496.786,can1  110  [02]  AD 1C
2025-10-16T21:30:56.067303,497.779,can1  120  [04]  C8 22 0B 00
2025-10-16T21:30:56.942006,498.654,can1  100  [03]  8F 8C 04
2025-10-16T21:30:57.815444,499.527,can1  110  [02]  8F 1C
2025-10-16T21:30:57.821562,499.533,can1  120  [04]  54 2D 0B 00
2025-10-16T21:30:58.791877,500.504,can1  100  [03]  98 8C 04
2025-10-16T21:30:59.666200,501.378,can1  110  [02]  AD 1C
2025-10-16T21:30:59.672121,501.384,can1  120  [04]  50 36 0B 00
2025-10-16T21:31:00.435712,502.147,can1  100  [03]  A0 8C 04
2025-10-16T21:31:01.211848,502.924,can1  110  [02]  A9 1C
2025-10-16T21:31:01.989152,503.701,can1  120  [04]  F0 2C 0B 00
2025-10-16T21:31:02.753427,504.465,can1  100  [03]  A9 8C 04
2025-10-16T21:31:03.524249,505.236,can1  110  [02]  B0 1C
2025-10-16T21:31:04.298587,506.010,can1  120  [04]  80 2E 0B 00
2025-10-16T21:31:04.304676,506.016,can1  100  [03]  B0 8C 04
2025-10-16T21:31:05.058694,506.770,can1  110  [02]  47 1C
2025-10-16T21:31:05.834333,507.546,can1  120  [04]  D0 29 0B 00
2025-10-16T21:31:06.724792,508.437,can1  100  [03]  B6 8C 04
2025-10-16T21:31:07.504562,509.216,can1  110  [02]  63 1C
2025-10-16T21:31:08.265281,509.977,can1  120  [04]  C4 2B 0B 00
2025-10-16T21:31:08.270150,509.982,can1  100  [03]  BA 8C 04
2025-10-16T21:31:09.043026,510.755,can1  110  [02]  0D 1C
2025-10-16T21:31:09.823667,511.535,can1  120  [04]  98 2A 0B 00
2025-10-16T21:31:10.587901,512.300,can1  100  [03]  BD 8C 04
2025-10-16T21:31:11.351128,513.063,can1  110  [02]  A4 1C
2025-10-16T21:31:12.130190,513.842,can1  120  [04]  94 1A 0B 00
2025-10-16T21:31:12.136258,513.848,can1  100  [03]  C0 8C 04
2025-10-16T21:31:13.671417,515.383,can1  110  [02]  9A 1C
2025-10-16T21:31:13.677489,515.389,can1  120  [04]  14 0E 0B 00
2025-10-16T21:31:14.449430,516.161,can1  100  [03]  C4 8C 04
2025-10-16T21:31:15.213513,516.925,can1  110  [02]  0A 1D
2025-10-16T21:31:15.977289,517.689,can1  120  [04]  F8 01 0B 00
2025-10-16T21:31:16.755456,518.467,can1  100  [03]  C9 8C 04
2025-10-16T21:31:17.531557,519.243,can1  110  [02]  B9 1C
2025-10-16T21:31:17.537542,519.249,can1  120  [04]  B8 FB 0A 00
2025-10-16T21:31:18.294094,520.006,can1  100  [03]  CD 8C 04
2025-10-16T21:31:19.071400,520.783,can1  110  [02]  90 1C
2025-10-16T21:31:19.833381,521.545,can1  120  [04]  34 F8 0A 00
2025-10-16T21:31:20.612787,522.325,can1  100  [03]  CF 8C 04
2025-10-16T21:31:21.390213,523.102,can1  110  [02]  BF 1C
2025-10-16T21:31:22.158083,523.870,can1  120  [04]  38 EF 0A 00
2025-10-16T21:31:22.163931,523.876,can1  100  [03]  D1 8C 04
2025-10-16T21:31:22.934816,524.647,can1  110  [02]  9C 1C
2025-10-16T21:31:23.713803,525.426,can1  120  [04]  94 E8 0A 00
2025-10-16T21:31:24.586457,526.298,can1  100  [03]  D2 8C 04
2025-10-16T21:31:25.349392,527.061,can1  110  [02]  A7 1C
2025-10-16T21:31:26.127148,527.839,can1  120  [04]  48 E4 0A 00
2025-10-16T21:31:26.132116,527.844,can1  100  [03]  D2 8C 04
2025-10-16T21:31:27.650755,529.362,can1  110  [02]  89 1C
2025-10-16T21:31:27.656910,529.369,can1  120  [04]  A4 DD 0A 00
2025-10-16T21:31:28.429114,530.141,can1  100  [03]  D0 8C 04
2025-10-16T21:31:29.093484,530.805,can1  110  [02]  8B 1C
2025-10-16T21:31:29.858709,531.570,can1  120  [04]  38 D6 0A 00
2025-10-16T21:31:30.637951,532.350,can1  100  [03]  CD 8C 04
2025-10-16T21:31:31.400369,533.112,can1  110  [02]  B2 1C
2025-10-16T21:31:31.406259,533.118,can1  120  [04]  18 D3 0A 00
2025-10-16T21:31:32.164040,533.876,can1  100  [03]  C8 8C 04
2025-10-16T21:31:32.942412,534.654,can1  110  [02]  A9 1C
2025-10-16T21:31:33.705626,535.417,can1  120  [04]  CC CE 0A 00
2025-10-16T21:31:34.372840,536.085,can1  100  [03]  C3 8C 04
2025-10-16T21:31:35.152002,536.864,can1  110  [02]  B6 1C
2025-10-16T21:31:35.931382,537.643,can1  120  [04]  A0 CD 0A 00
2025-10-16T21:31:35.936195,537.648,can1  100  [03]  BF 8C 04
2025-10-16T21:31:36.693306,538.405,can1  110  [02]  C2 1C
2025-10-16T21:31:38.235822,539.948,can1  120  [04]  4C C2 0A 00
2025-10-16T21:31:38.241637,539.953,can1  100  [03]  BB 8C 04
2025-10-16T21:31:39.000238,540.712,can1  110  [02]  DC 1C
2025-10-16T21:31:39.763408,541.475,can1  120  [04]  DC C3 0A 00
2025-10-16T21:31:40.525423,542.237,can1  100  [03]  BA 8C 04
2025-10-16T21:31:41.288808,543.001,can1  110  [02]  C8 1C
2025-10-16T21:31:41.294605,543.006,can1  120  [04]  B0 C2 0A 00
2025-10-16T21:31:42.052123,543.764,can1  100  [03]  BA 8C 04
2025-10-16T21:31:42.831621,544.544,can1  110  [02]  CD 1C
2025-10-16T21:31:43.596619,545.308,can1  120  [04]  B4 B9 0A 00
2025-10-16T21:31:44.377522,546.089,can1  100  [03]  BA 8C 04
2025-10-16T21:31:45.141102,546.853,can1  110  [02]  D0 1C
2025-10-16T21:31:45.903956,547.616,can1  120  [04]  68 B5 0A 00
2025-10-16T21:31:45.910311,547.622,can1  100  [03]  B9 8C 04
2025-10-16T21:31:46.668138,548.380,can1  110  [02]  C0 1C
2025-10-16T21:31:47.432945,549.145,can1  120  [04]  6C AC 0A 00
2025-10-16T21:31:48.200289,549.912,can1  100  [03]  B8 8C 04
2025-10-16T21:31:48.961788,550.674,can1  110  [02]  BC 1C
2025-10-16T21:31:49.725057,551.437,can1  120  [04]  F0 AF 0A 00
2025-10-16T21:31:50.506628,552.218,can1  100  [03]  B9 8C 04
2025-10-16T21:31:51.171583,552.883,can1  110  [02]  C9 1C
2025-10-16T21:31:51.933047,553.645,can1  120  [04]  94 B6 0A 00
2025-10-16T21:31:51.941485,553.653,can1  100  [03]  BA 8C 04
2025-10-16T21:31:52.712484,554.424,can1  110  [02]  B6 1C
2025-10-16T21:31:54.253788,555.966,can1  120  [04]  CC B5 0A 00
2025-10-16T21:31:54.260498,555.972,can1  100  [03]  BB 8C 04
2025-10-16T21:31:55.016673,556.728,can1  110  [02]  C8 1C
2025-10-16T21:31:55.779051,557.491,can1  120  [04]  48 B2 0A 00
2025-10-16T21:31:56.651639,558.363,can1  100  [03]  BE 8C 04
2025-10-16T21:31:56.657645,558.369,can1  110  [02]  C9 1C
2025-10-16T21:31:57.412348,559.124,can1  120  [04]  A8 A2 0A 00
2025-10-16T21:31:58.077648,559.789,can1  100  [03]  C1 8C 04
2025-10-16T21:31:58.857846,560.570,can1  110  [02]  D0 1C
2025-10-16T21:31:59.621959,561.334,can1  120  [04]  48 99 0A 00
2025-10-16T21:32:00.400437,562.112,can1  100  [03]  C3 8C 04
2025-10-16T21:32:01.162111,562.874,can1  110  [02]  AE 1C
2025-10-16T21:32:01.168933,562.881,can1  120  [04]  54 97 0A 00
2025-10-16T21:32:02.705968,564.418,can1  100  [03]  C4 8C 04
2025-10-16T21:32:02.712797,564.425,can1  110  [02]  4C 12
2025-10-16T21:32:03.484912,565.197,can1  120  [04]  EC 86 0A 00
2025-10-16T21:32:04.245722,565.957,can1  100  [03]  C4 8C 04
2025-10-16T21:32:05.024683,566.736,can1  110  [02]  C9 19
2025-10-16T21:32:05.801062,567.513,can1  120  [04]  B0 77 0A 00
2025-10-16T21:32:05.807257,567.519,can1  100  [03]  C1 8C 04
2025-10-16T21:32:07.340721,569.052,can1  110  [02]  3D 1A
2025-10-16T21:32:07.347466,569.059,can1  120  [04]  B0 77 0A 00
2025-10-16T21:32:08.103393,569.815,can1  100  [03]  BD 8C 04
2025-10-16T21:32:08.867556,570.579,can1  110  [02]  E1 1A
2025-10-16T21:32:09.645875,571.358,can1  120  [04]  20 76 0A 00
2025-10-16T21:32:09.652430,571.364,can1  100  [03]  BA 8C 04
2025-10-16T21:32:10.531752,572.243,can1  110  [02]  69 1B
2025-10-16T21:32:11.310433,573.022,can1  120  [04]  40 79 0A 00
2025-10-16T21:32:12.074075,573.786,can1  100  [03]  B9 8C 04
2025-10-16T21:32:12.845485,574.557,can1  110  [02]  C4 1B
2025-10-16T21:32:13.620216,575.332,can1  120  [04]  DC 78 0A 00
2025-10-16T21:32:14.381108,576.093,can1  100  [03]  B7 8C 04
2025-10-16T21:32:15.146367,576.858,can1  110  [02]  DF 1B
2025-10-16T21:32:15.153067,576.865,can1  120  [04]  38 72 0A 00
2025-10-16T21:32:15.925125,577.637,can1  100  [03]  B6 8C 04
2025-10-16T21:32:16.690979,578.403,can1  110  [02]  5D 1C
2025-10-16T21:32:17.453823,579.166,can1  120  [04]  7C 6F 0A 00
2025-10-16T21:32:18.209074,579.921,can1  100  [03]  B5 8C 04
2025-10-16T21:32:18.984270,580.696,can1  110  [02]  78 1C
2025-10-16T21:32:18.992645,580.704,can1  120  [04]  18 6F 0A 00
2025-10-16T21:32:19.659080,581.371,can1  100  [03]  B2 8C 04
2025-10-16T21:32:20.419605,582.131,can1  110  [02]  A7 1C
2025-10-16T21:32:21.183504,582.895,can1  120  [04]  88 6D 0A 00
2025-10-16T21:32:21.944945,583.657,can1  100  [03]  B0 8C 04
2025-10-16T21:32:22.722672,584.434,can1  110  [02]  CC 1C
2025-10-16T21:32:23.483705,585.195,can1  120  [04]  EC 6D 0A 00
2025-10-16T21:32:23.489891,585.202,can1  100  [03]  AF 8C 04
2025-10-16T21:32:25.016703,586.728,can1  110  [02]  DA 1C
2025-10-16T21:32:25.023151,586.735,can1  120  [04]  18 6F 0A 00
2025-10-16T21:32:25.778457,587.490,can1  100  [03]  AF 8C 04
2025-10-16T21:32:26.538745,588.250,can1  110  [02]  C3 1C
2025-10-16T21:32:27.315157,589.027,can1  120  [04]  CC 6A 0A 00
2025-10-16T21:32:28.077597,589.789,can1  100  [03]  AF 8C 04
2025-10-16T21:32:28.856697,590.568,can1  110  [02]  BD 1C
2025-10-16T21:32:28.863556,590.575,can1  120  [04]  5C 6C 0A 00
2025-10-16T21:32:29.637437,591.349,can1  100  [03]  AF 8C 04
2025-10-16T21:32:31.165504,592.877,can1  110  [02]  11 1D
2025-10-16T21:32:31.181238,592.893,can1  120  [04]  C4 63 0A 00
2025-10-16T21:32:31.927403,593.639,can1  100  [03]  AF 8C 04
2025-10-16T21:32:32.706868,594.419,can1  110  [02]  40 1D
2025-10-16T21:32:33.477331,595.189,can1  120  [04]  08 61 0A 00
2025-10-16T21:32:33.483425,595.195,can1  100  [03]  AE 8C 04
2025-10-16T21:32:34.256936,595.969,can1  110  [02]  8D 1D
2025-10-16T21:32:35.036186,596.748,can1  120  [04]  64 5A 0A 00
2025-10-16T21:32:35.798546,597.510,can1  100  [03]  AC 8C 04
2025-10-16T21:32:36.560634,598.272,can1  110  [02]  89 1D
2025-10-16T21:32:37.322278,599.034,can1  120  [04]  7C 56 0A 00
2025-10-16T21:32:38.098590,599.810,can1  100  [03]  AA 8C 04
2025-10-16T21:32:38.874357,600.586,can1  110  [02]  E2 1D
2025-10-16T21:32:38.881959,600.594,can1  120  [04]  38 59 0A 00
2025-10-16T21:32:39.638491,601.350,can1  100  [03]  A8 8C 04
2025-10-16T21:32:40.399603,602.111,can1  110  [02]  FB 1D
2025-10-16T21:32:41.166091,602.878,can1  120  [04]  B4 55 0A 00
2025-10-16T21:32:41.942850,603.655,can1  100  [03]  A8 8C 04
2025-10-16T21:32:42.722210,604.434,can1  110  [02]  12 1E
2025-10-16T21:32:43.484093,605.196,can1  120  [04]  38 59 0A 00
2025-10-16T21:32:43.491228,605.203,can1  100  [03]  A9 8C 04
2025-10-16T21:32:44.247749,605.959,can1  110  [02]  BD 1D
2025-10-16T21:32:45.024778,606.737,can1  120  [04]  4C 5E 0A 00
2025-10-16T21:32:45.800524,607.512,can1  100  [03]  AC 8C 04
2025-10-16T21:32:46.562138,608.274,can1  110  [02]  C9 1D
2025-10-16T21:32:47.342924,609.055,can1  120  [04]  E8 5D 0A 00
2025-10-16T21:32:48.107139,609.819,can1  100  [03]  AF 8C 04
2025-10-16T21:32:48.114347,609.826,can1  110  [02]  9E 1E
2025-10-16T21:32:48.871548,610.583,can1  120  [04]  00 5A 0A 00
2025-10-16T21:32:49.634364,611.346,can1  100  [03]  B2 8C 04
2025-10-16T21:32:50.398104,612.110,can1  110  [02]  E2 1E
2025-10-16T21:32:51.161779,612.874,can1  120  [04]  5C 53 0A 00
2025-10-16T21:32:51.828921,613.541,can1  100  [03]  B6 8C 04
2025-10-16T21:32:52.595183,614.307,can1  110  [02]  5F 1E
2025-10-16T21:32:53.248445,614.960,can1  120  [04]  50 55 0A 00
2025-10-16T21:32:54.016707,615.728,can1  100  [03]  BA 8C 04
2025-10-16T21:32:54.780324,616.492,can1  110  [02]  50 1E
2025-10-16T21:32:54.786788,616.499,can1  120  [04]  AC 4E 0A 00
2025-10-16T21:32:55.559821,617.272,can1  100  [03]  BE 8C 04
2025-10-16T21:32:56.321381,618.033,can1  110  [02]  62 1E
2025-10-16T21:32:57.098893,618.811,can1  120  [04]  94 52 0A 00
2025-10-16T21:32:57.876293,619.588,can1  100  [03]  C2 8C 04
2025-10-16T21:32:58.653481,620.365,can1  110  [02]  70 1E
2025-10-16T21:32:59.415583,621.127,can1  120  [04]  CC 51 0A 00
2025-10-16T21:32:59.423514,621.135,can1  100  [03]  C6 8C 04
2025-10-16T21:33:00.205186,621.917,can1  110  [02]  7B 1E
2025-10-16T21:33:00.965799,622.678,can1  120  [04]  60 4A 0A 00
2025-10-16T21:33:01.727661,623.439,can1  100  [03]  CA 8C 04
2025-10-16T21:33:02.505397,624.217,can1  110  [02]  72 1E
2025-10-16T21:33:03.285191,624.997,can1  120  [04]  D8 4F 0A 00
2025-10-16T21:33:03.291989,625.004,can1  100  [03]  CE 8C 04
2025-10-16T21:33:04.059016,625.771,can1  110  [02]  32 1E
2025-10-16T21:33:04.831007,626.543,can1  120  [04]  10 4F 0A 00
2025-10-16T21:33:05.593812,627.306,can1  100  [03]  D2 8C 04
2025-10-16T21:33:06.376144,628.088,can1  110  [02]  44 1E
2025-10-16T21:33:07.152481,628.864,can1  120  [04]  80 4D 0A 00
2025-10-16T21:33:07.914767,629.626,can1  100  [03]  D7 8C 04
2025-10-16T21:33:08.694109,630.406,can1  110  [02]  88 1E
2025-10-16T21:33:09.471662,631.183,can1  120  [04]  34 49 0A 00
2025-10-16T21:33:09.479037,631.191,can1  100  [03]  DC 8C 04
2025-10-16T21:33:10.253382,631.965,can1  110  [02]  14 1E
2025-10-16T21:33:11.031282,632.743,can1  120  [04]  6C 48 0A 00
2025-10-16T21:33:11.794113,633.506,can1  100  [03]  E0 8C 04
2025-10-16T21:33:12.570696,634.282,can1  110  [02]  CB 1D
2025-10-16T21:33:12.576675,634.288,can1  120  [04]  D4 3F 0A 00
2025-10-16T21:33:13.350776,635.063,can1  100  [03]  E3 8C 04
2025-10-16T21:33:14.128804,635.841,can1  110  [02]  7F 1E
2025-10-16T21:33:14.891997,636.604,can1  120  [04]  A8 3E 0A 00
2025-10-16T21:33:15.653873,637.366,can1  100  [03]  E7 8C 04
2025-10-16T21:33:16.524226,638.236,can1  110  [02]  E7 1E
2025-10-16T21:33:17.301629,639.013,can1  120  [04]  0C 3F 0A 00
2025-10-16T21:33:17.307560,639.019,can1  100  [03]  EB 8C 04
2025-10-16T21:33:18.188204,639.900,can1  110  [02]  A6 1E
2025-10-16T21:33:18.949623,640.661,can1  120  [04]  88 3B 0A 00
2025-10-16T21:33:19.819594,641.531,can1  100  [03]  F0 8C 04
2025-10-16T21:33:20.596870,642.309,can1  110  [02]  89 1E
2025-10-16T21:33:20.603625,642.315,can1  120  [04]  74 36 0A 00
2025-10-16T21:33:21.374928,643.087,can1  100  [03]  F7 8C 04
2025-10-16T21:33:22.136873,643.849,can1  110  [02]  AD 1E
2025-10-16T21:33:22.900967,644.613,can1  120  [04]  10 36 0A 00
2025-10-16T21:33:23.664033,645.376,can1  100  [03]  FD 8C 04
2025-10-16T21:33:24.334851,646.047,can1  110  [02]  FE 1E
2025-10-16T21:33:25.092154,646.804,can1  120  [04]  10 36 0A 00
2025-10-16T21:33:25.102870,646.815,can1  100  [03]  03 8D 04
2025-10-16T21:33:26.628811,648.341,can1  110  [02]  BC 1E
2025-10-16T21:33:26.635513,648.347,can1  120  [04]  80 34 0A 00
2025-10-16T21:33:27.390517,649.102,can1  100  [03]  08 8D 04
2025-10-16T21:33:28.154837,649.867,can1  110  [02]  0C 1F
2025-10-16T21:33:28.917177,650.629,can1  120  [04]  48 7C 13 00
2025-10-16T21:33:29.694052,651.406,can1  100  [03]  0E 8D 04
2025-10-16T21:33:30.471836,652.184,can1  110  [02]  78 1E
2025-10-16T21:33:30.478479,652.190,can1  120  [04]  18 8A 12 00
2025-10-16T21:33:31.232437,652.944,can1  100  [03]  0E 8D 04
2025-10-16T21:33:31.995206,653.707,can1  110  [02]  63 1E
2025-10-16T21:33:32.773470,654.485,can1  120  [04]  D0 18 12 00
2025-10-16T21:33:33.438700,655.150,can1  100  [03]  03 8D 04
2025-10-16T21:33:34.220029,655.932,can1  110  [02]  D7 1E
2025-10-16T21:33:34.982915,656.695,can1  120  [04]  38 6D 0F 00
2025-10-16T21:33:34.990089,656.702,can1  100  [03]  E8 8C 04
2025-10-16T21:33:35.762987,657.475,can1  110  [02]  A3 1E
2025-10-16T21:33:36.523028,658.235,can1  120  [04]  D4 D5 0A 00
2025-10-16T21:33:37.300075,659.012,can1  100  [03]  50 8C 04
2025-10-16T21:33:38.165642,659.877,can1  110  [02]  63 21
2025-10-16T21:33:39.042966,660.755,can1  120  [04]  8C 00 0A 00
2025-10-16T21:33:39.050776,660.763,can1  100  [03]  43 8C 04
2025-10-16T21:33:39.916763,661.628,can1  110  [02]  27 21
2025-10-16T21:33:40.689006,662.401,can1  120  [04]  88 BE 09 00
2025-10-16T21:33:41.466056,663.178,can1  100  [03]  19 8A 04
2025-10-16T21:33:42.243965,663.956,can1  110  [02]  A6 1F
2025-10-16T21:33:43.023202,664.735,can1  120  [04]  9C 5A 0E 00
2025-10-16T21:33:43.031747,664.743,can1  100  [03]  5C 86 04
2025-10-16T21:33:44.676094,666.388,can1  110  [02]  E2 1F
2025-10-16T21:33:44.683435,666.395,can1  120  [04]  E0 1B 18 00
2025-10-16T21:33:45.436791,667.149,can1  100  [03]  B0 83 04
2025-10-16T21:33:46.199593,667.911,can1  110  [02]  16 1F
2025-10-16T21:33:46.979172,668.691,can1  120  [04]  30 02 0F 00
2025-10-16T21:33:47.740523,669.452,can1  100  [03]  3A 81 04
2025-10-16T21:33:47.746313,669.458,can1  110  [02]  0D 20
2025-10-16T21:33:48.521869,670.234,can1  120  [04]  50 04 0B 00
2025-10-16T21:33:49.300936,671.013,can1  100  [03]  25 7F 04
2025-10-16T21:33:50.063109,671.775,can1  110  [02]  63 1F
2025-10-16T21:33:50.843278,672.555,can1  120  [04]  E8 C7 09 00
2025-10-16T21:33:50.849257,672.561,can1  100  [03]  77 7D 04
2025-10-16T21:33:52.487582,674.199,can1  110  [02]  C9 1F
2025-10-16T21:33:52.515658,674.227,can1  120  [04]  F4 FD 08 00
2025-10-16T21:33:53.570061,675.282,can1  100  [03]  20 7C 04
2025-10-16T21:33:54.343243,676.055,can1  110  [02]  5C 1F
2025-10-16T21:33:54.350252,676.062,can1  120  [04]  70 C8 08 00
2025-10-16T21:33:55.218186,676.930,can1  100  [03]  03 7B 04
2025-10-16T21:33:56.200830,677.913,can1  110  [02]  01 1F
2025-10-16T21:33:56.209123,677.921,can1  120  [04]  20 B4 08 00
2025-10-16T21:33:57.072099,678.784,can1  100  [03]  18 7A 04
2025-10-16T21:33:58.170634,679.882,can1  110  [02]  8E 1F
2025-10-16T21:33:58.179155,679.891,can1  120  [04]  0C AF 08 00
2025-10-16T21:33:59.278906,680.991,can1  100  [03]  55 79 04
2025-10-16T21:34:00.478063,682.190,can1  110  [02]  7A 1F
2025-10-16T21:34:00.486287,682.198,can1  120  [04]  E4 A4 08 00
2025-10-16T21:34:01.578084,683.290,can1  100  [03]  B7 78 04
2025-10-16T21:34:01.585812,683.298,can1  110  [02]  10 1F
2025-10-16T21:34:02.676249,684.388,can1  120  [04]  E4 A4 08 00
2025-10-16T21:34:03.656148,685.368,can1  100  [03]  99 78 04
2025-10-16T21:34:03.663292,685.375,can1  110  [02]  2F 1F
2025-10-16T21:34:04.753840,686.466,can1  120  [04]  F8 A9 08 00
2025-10-16T21:34:04.764615,686.476,can1  100  [03]  D4 77 04
2025-10-16T21:34:05.841315,687.553,can1  110  [02]  06 1F
2025-10-16T21:34:06.953974,688.666,can1  120  [04]  24 AB 08 00
2025-10-16T21:34:06.961283,688.673,can1  100  [03]  C3 77 04
2025-10-16T21:34:08.162786,689.875,can1  110  [02]  EA 1D
2025-10-16T21:34:08.169768,689.881,can1  120  [04]  04 A8 08 00
2025-10-16T21:34:09.262448,690.974,can1  100  [03]  A8 77 04
2025-10-16T21:34:10.259861,691.972,can1  110  [02]  A4 1E
2025-10-16T21:34:10.267021,691.979,can1  120  [04]  9C B0 08 00
2025-10-16T21:34:11.349291,693.061,can1  100  [03]  1C 77 04
2025-10-16T21:34:12.453485,694.165,can1  110  [02]  DE 1E
2025-10-16T21:34:12.461309,694.173,can1  120  [04]  08 B8 08 00
2025-10-16T21:34:13.560361,695.272,can1  100  [03]  13 77 04
2025-10-16T21:34:13.568953,695.281,can1  110  [02]  0F 1F
2025-10-16T21:34:14.663273,696.375,can1  120  [04]  D4 C8 08 00
2025-10-16T21:34:15.768745,697.480,can1  100  [03]  04 77 04
2025-10-16T21:34:15.809872,697.522,can1  110  [02]  7A 1F
2025-10-16T21:34:16.752934,698.465,can1  120  [04]  8C D4 08 00
2025-10-16T21:34:16.760261,698.472,can1  100  [03]  F1 76 04
2025-10-16T21:34:17.836698,699.548,can1  110  [02]  4F 1F
2025-10-16T21:34:18.937985,700.650,can1  120  [04]  04 DA 08 00
2025-10-16T21:34:18.947619,700.659,can1  100  [03]  DF 76 04
2025-10-16T21:34:20.040377,701.752,can1  110  [02]  4B 1F
2025-10-16T21:34:20.941239,702.653,can1  120  [04]  38 E2 08 00
2025-10-16T21:34:20.949361,702.661,can1  100  [03]  D1 76 04
2025-10-16T21:34:21.915749,703.627,can1  110  [02]  53 1F
2025-10-16T21:34:22.794814,704.507,can1  120  [04]  D8 64 13 00
2025-10-16T21:34:22.802606,704.514,can1  100  [03]  C6 76 04
2025-10-16T21:34:23.680680,705.392,can1  110  [02]  2A 1F
2025-10-16T21:34:24.666078,706.378,can1  120  [04]  48 FF 12 00
2025-10-16T21:34:24.673215,706.385,can1  100  [03]  C0 76 04
2025-10-16T21:34:25.557559,707.269,can1  110  [02]  21 1F
2025-10-16T21:34:26.441634,708.153,can1  120  [04]  08 69 11 00
2025-10-16T21:34:27.313601,709.025,can1  100  [03]  BD 76 04
2025-10-16T21:34:28.097063,709.809,can1  110  [02]  18 1F
2025-10-16T21:34:28.104063,709.816,can1  120  [04]  04 EE 0D 00
2025-10-16T21:34:29.094909,710.807,can1  100  [03]  BA 76 04
2025-10-16T21:34:30.197766,711.910,can1  110  [02]  EA 1E
2025-10-16T21:34:30.207037,711.919,can1  120  [04]  D0 D2 0C 00
2025-10-16T21:34:31.309655,713.021,can1  100  [03]  B7 76 04
2025-10-16T21:34:31.317598,713.029,can1  110  [02]  A3 1E
2025-10-16T21:34:32.406143,714.118,can1  120  [04]  A8 64 0C 00
2025-10-16T21:34:33.505563,715.217,can1  100  [03]  B3 76 04
2025-10-16T21:34:33.514197,715.226,can1  110  [02]  43 1F
2025-10-16T21:34:34.728698,716.440,can1  120  [04]  C8 35 0C 00
2025-10-16T21:34:34.739257,716.451,can1  100  [03]  AF 76 04
2025-10-16T21:34:35.823796,717.536,can1  110  [02]  89 1F
2025-10-16T21:34:36.925858,718.638,can1  120  [04]  14 21 0C 00
2025-10-16T21:34:36.934852,718.647,can1  100  [03]  A9 76 04
2025-10-16T21:34:38.024566,719.736,can1  110  [02]  1B 1F
2025-10-16T21:34:38.032323,719.744,can1  120  [04]  24 16 0C 00
2025-10-16T21:34:39.129734,720.841,can1  100  [03]  A2 76 04
2025-10-16T21:34:40.242603,721.954,can1  110  [02]  F5 1E
2025-10-16T21:34:40.253693,721.965,can1  120  [04]  FC 0B 0C 00
2025-10-16T21:34:41.344381,723.056,can1  100  [03]  9A 76 04
2025-10-16T21:34:41.354097,723.066,can1  110  [02]  8F 1E
2025-10-16T21:34:42.444634,724.156,can1  120  [04]  A4 09 0C 00
2025-10-16T21:34:43.545362,725.257,can1  100  [03]  92 76 04
2025-10-16T21:34:43.553490,725.266,can1  110  [02]  DF 1E
2025-10-16T21:34:44.642515,726.354,can1  120  [04]  C8 03 0C 00
2025-10-16T21:34:44.650293,726.362,can1  100  [03]  8B 76 04
2025-10-16T21:34:45.739510,727.451,can1  110  [02]  05 1F
2025-10-16T21:34:46.844140,728.556,can1  120  [04]  90 04 0C 00
2025-10-16T21:34:46.853577,728.565,can1  100  [03]  86 76 04
2025-10-16T21:34:47.955407,729.667,can1  110  [02]  A4 1E
2025-10-16T21:34:49.043746,730.755,can1  120  [04]  C8 03 0C 00
2025-10-16T21:34:49.050761,730.762,can1  100  [03]  83 76 04
2025-10-16T21:34:50.158896,731.871,can1  110  [02]  C6 1E
2025-10-16T21:34:50.166971,731.879,can1  120  [04]  90 04 0C 00
2025-10-16T21:34:51.257172,732.969,can1  100  [03]  83 76 04
2025-10-16T21:34:52.378478,734.090,can1  110  [02]  A2 1D
2025-10-16T21:34:52.386599,734.098,can1  120  [04]  5C 15 0C 00
2025-10-16T21:34:52.405543,734.117,can1  100  [03]  83 76 04
2025-10-16T21:34:53.470004,735.182,can1  110  [02]  BB 1D
2025-10-16T21:34:54.560648,736.272,can1  120  [04]  44 19 0C 00
2025-10-16T21:34:54.571149,736.283,can1  100  [03]  81 76 04
2025-10-16T21:34:55.661538,737.373,can1  110  [02]  24 1E
2025-10-16T21:34:56.757970,738.470,can1  120  [04]  6C 23 0C 00
2025-10-16T21:34:56.767234,738.479,can1  100  [03]  7F 76 04
2025-10-16T21:34:57.873363,739.585,can1  110  [02]  37 1E
2025-10-16T21:34:57.882295,739.594,can1  120  [04]  34 24 0C 00
2025-10-16T21:34:58.983017,740.695,can1  100  [03]  7B 76 04
2025-10-16T21:35:00.094767,741.807,can1  110  [02]  5C 1E
2025-10-16T21:35:00.103916,741.816,can1  120  [04]  BC 1E 0C 00
2025-10-16T21:35:01.189679,742.901,can1  100  [03]  78 76 04
2025-10-16T21:35:01.199020,742.911,can1  110  [02]  16 1E
2025-10-16T21:35:02.278102,743.990,can1  120  [04]  D0 23 0C 00
2025-10-16T21:35:02.288021,744.000,can1  100  [03]  74 76 04
2025-10-16T21:35:03.378138,745.090,can1  110  [02]  A7 1E
2025-10-16T21:35:04.462566,746.174,can1  120  [04]  A4 22 0C 00
2025-10-16T21:35:04.470614,746.182,can1  100  [03]  71 76 04
2025-10-16T21:35:05.574735,747.286,can1  110  [02]  12 1F
2025-10-16T21:35:06.678069,748.390,can1  120  [04]  B0 20 0C 00
2025-10-16T21:35:06.687972,748.400,can1  100  [03]  70 76 04
2025-10-16T21:35:07.777600,749.489,can1  110  [02]  74 1C
2025-10-16T21:35:07.787362,749.499,can1  120  [04]  9C 34 0C 00
2025-10-16T21:35:08.871158,750.583,can1  100  [03]  70 76 04
2025-10-16T21:35:09.961789,751.674,can1  110  [02]  65 1E
2025-10-16T21:35:09.993716,751.705,can1  120  [04]  00 35 0C 00
2025-10-16T21:35:11.059870,752.772,can1  100  [03]  70 76 04
2025-10-16T21:35:12.160132,753.872,can1  110  [02]  E4 1F
2025-10-16T21:35:12.168624,753.880,can1  120  [04]  18 31 0C 00
2025-10-16T21:35:13.246853,754.959,can1  100  [03]  70 76 04
2025-10-16T21:35:13.254685,754.966,can1  110  [02]  EC 1E
2025-10-16T21:35:14.344259,756.056,can1  120  [04]  18 31 0C 00
2025-10-16T21:35:14.353639,756.065,can1  100  [03]  6E 76 04
2025-10-16T21:35:15.442911,757.155,can1  110  [02]  F7 1E
2025-10-16T21:35:16.544120,758.256,can1  120  [04]  BC 37 0C 00
2025-10-16T21:35:16.552155,758.264,can1  100  [03]  69 76 04
2025-10-16T21:35:17.640852,759.353,can1  110  [02]  F0 1E
2025-10-16T21:35:18.727820,760.440,can1  120  [04]  78 3A 0C 00
2025-10-16T21:35:18.806907,760.519,can1  100  [03]  62 76 04
2025-10-16T21:35:19.832082,761.544,can1  110  [02]  B4 1E
2025-10-16T21:35:20.914194,762.626,can1  120  [04]  A0 44 0C 00
2025-10-16T21:35:20.921468,762.633,can1  100  [03]  5A 76 04
2025-10-16T21:35:22.033174,763.745,can1  110  [02]  28 1D
2025-10-16T21:35:22.042075,763.754,can1  120  [04]  B0 52 0C 00
2025-10-16T21:35:23.111466,764.823,can1  100  [03]  54 76 04
2025-10-16T21:35:23.119565,764.831,can1  110  [02]  65 1E
2025-10-16T21:35:24.209178,765.921,can1  120  [04]  A4 54 0C 00
2025-10-16T21:35:24.219959,765.932,can1  100  [03]  51 76 04
2025-10-16T21:35:25.322514,767.034,can1  110  [02]  4B 1E
2025-10-16T21:35:26.312265,768.024,can1  120  [04]  78 53 0C 00
2025-10-16T21:35:27.423046,769.135,can1  100  [03]  52 76 04
2025-10-16T21:35:27.434475,769.146,can1  110  [02]  9B 1E
2025-10-16T21:35:28.519499,770.231,can1  120  [04]  60 57 0C 00
2025-10-16T21:35:28.528952,770.241,can1  100  [03]  55 76 04
2025-10-16T21:35:29.609132,771.321,can1  110  [02]  8B 1F
2025-10-16T21:35:30.714287,772.426,can1  120  [04]  4C 52 0C 00
2025-10-16T21:35:30.722292,772.434,can1  100  [03]  5A 76 04
2025-10-16T21:35:31.802901,773.515,can1  110  [02]  3D 1F
2025-10-16T21:35:31.813873,773.526,can1  120  [04]  14 53 0C 00
2025-10-16T21:35:32.817124,774.529,can1  100  [03]  60 76 04
2025-10-16T21:35:33.922085,775.634,can1  110  [02]  FD 1E
2025-10-16T21:35:33.930792,775.643,can1  120  [04]  D8 5C 0C 00
2025-10-16T21:35:35.015349,776.727,can1  100  [03]  67 76 04
2025-10-16T21:35:35.023494,776.735,can1  110  [02]  EB 1E
2025-10-16T21:35:36.232366,777.944,can1  120  [04]  78 53 0C 00
2025-10-16T21:35:36.240304,777.952,can1  100  [03]  70 76 04
2025-10-16T21:35:37.430405,779.142,can1  110  [02]  BF 1E
2025-10-16T21:35:38.522944,780.235,can1  120  [04]  98 56 0C 00
2025-10-16T21:35:38.531143,780.243,can1  100  [03]  7A 76 04
2025-10-16T21:35:39.516321,781.228,can1  110  [02]  D2 1E
2025-10-16T21:35:39.533233,781.245,can1  120  [04]  C4 57 0C 00
2025-10-16T21:35:40.613750,782.325,can1  100  [03]  84 76 04
2025-10-16T21:35:41.706341,783.418,can1  110  [02]  2E 1F
2025-10-16T21:35:41.717015,783.429,can1  120  [04]  34 56 0C 00
2025-10-16T21:35:42.798123,784.510,can1  100  [03]  8F 76 04
2025-10-16T21:35:43.891058,785.603,can1  110  [02]  E5 1E
2025-10-16T21:35:43.899521,785.611,can1  120  [04]  B0 52 0C 00
2025-10-16T21:35:44.989407,786.701,can1  100  [03]  9A 76 04
2025-10-16T21:35:44.998096,786.710,can1  110  [02]  E8 1E
2025-10-16T21:35:46.103819,787.816,can1  120  [04]  90 4F 0C 00
2025-10-16T21:35:46.111658,787.823,can1  100  [03]  A6 76 04
2025-10-16T21:35:47.194606,788.906,can1  110  [02]  EF 1E
2025-10-16T21:35:48.309728,790.021,can1  120  [04]  44 4B 0C 00
2025-10-16T21:35:48.320207,790.032,can1  100  [03]  B1 76 04
2025-10-16T21:35:49.426673,791.138,can1  110  [02]  EF 1E
2025-10-16T21:35:50.559234,792.271,can1  120  [04]  B4 49 0C 00
2025-10-16T21:35:50.570142,792.282,can1  100  [03]  BD 76 04
2025-10-16T21:35:51.660455,793.372,can1  110  [02]  A2 1E
2025-10-16T21:35:51.669989,793.382,can1  120  [04]  3C 44 0C 00
2025-10-16T21:35:52.863424,794.575,can1  100  [03]  C8 76 04
2025-10-16T21:35:53.961391,795.673,can1  110  [02]  85 1E
2025-10-16T21:35:53.971933,795.684,can1  120  [04]  54 40 0C 00
2025-10-16T21:35:53.993243,795.705,can1  100  [03]  D3 76 04
2025-10-16T21:35:55.064451,796.776,can1  110  [02]  D1 1E
2025-10-16T21:35:56.147461,797.859,can1  120  [04]  D8 43 0C 00
2025-10-16T21:35:56.155896,797.868,can1  100  [03]  DD 76 04
2025-10-16T21:35:57.259323,798.971,can1  110  [02]  77 1F
2025-10-16T21:35:58.359947,800.072,can1  120  [04]  68 45 0C 00
2025-10-16T21:35:58.370552,800.082,can1  100  [03]  E7 76 04
2025-10-16T21:35:59.446198,801.158,can1  110  [02]  AC 1C
2025-10-16T21:36:00.548463,802.260,can1  120  [04]  24 48 0C 00
2025-10-16T21:36:00.556133,802.268,can1  100  [03]  F1 76 04
2025-10-16T21:36:01.643476,803.355,can1  110  [02]  77 1E
2025-10-16T21:36:01.654894,803.367,can1  120  [04]  AC 42 0C 00
2025-10-16T21:36:02.741533,804.453,can1  100  [03]  FB 76 04
2025-10-16T21:36:02.749871,804.462,can1  110  [02]  BA 1E
2025-10-16T21:36:03.864210,805.576,can1  120  [04]  04 45 0C 00
2025-10-16T21:36:03.875831,805.588,can1  100  [03]  04 77 04
2025-10-16T21:36:05.078703,806.790,can1  110  [02]  E2 1E
2025-10-16T21:36:06.066624,807.778,can1  120  [04]  04 45 0C 00
2025-10-16T21:36:06.075203,807.787,can1  100  [03]  0E 77 04
2025-10-16T21:36:07.040211,808.752,can1  110  [02]  C3 1C
2025-10-16T21:36:08.132960,809.845,can1  120  [04]  80 41 0C 00
2025-10-16T21:36:08.142389,809.854,can1  100  [03]  17 77 04
2025-10-16T21:36:09.121299,810.833,can1  110  [02]  F1 1D
2025-10-16T21:36:10.213242,811.925,can1  120  [04]  B4 49 0C 00
2025-10-16T21:36:10.221724,811.933,can1  100  [03]  1F 77 04
2025-10-16T21:36:11.316388,813.028,can1  110  [02]  ED 1D
2025-10-16T21:36:11.325379,813.037,can1  120  [04]  EC 48 0C 00
2025-10-16T21:36:12.642169,814.354,can1  100  [03]  28 77 04
2025-10-16T21:36:12.650477,814.362,can1  110  [02]  1A 1E
2025-10-16T21:36:13.616111,815.328,can1  120  [04]  EC 48 0C 00
2025-10-16T21:36:14.715289,816.427,can1  100  [03]  30 77 04
2025-10-16T21:36:14.725308,816.437,can1  110  [02]  5F 1E
2025-10-16T21:36:15.924823,817.637,can1  120  [04]  A0 44 0C 00
2025-10-16T21:36:15.934531,817.646,can1  100  [03]  38 77 04
2025-10-16T21:36:17.232978,818.945,can1  110  [02]  78 1E
2025-10-16T21:36:17.242596,818.954,can1  120  [04]  1C 41 0C 00
2025-10-16T21:36:18.326114,820.038,can1  100  [03]  40 77 04
2025-10-16T21:36:19.417172,821.129,can1  110  [02]  7C 1E
2025-10-16T21:36:20.516292,822.228,can1  120  [04]  F0 3F 0C 00
2025-10-16T21:36:20.526035,822.238,can1  100  [03]  48 77 04
2025-10-16T21:36:21.516334,823.228,can1  110  [02]  99 1E
2025-10-16T21:36:21.524606,823.236,can1  120  [04]  9C 34 0C 00
2025-10-16T21:36:22.613905,824.326,can1  100  [03]  4F 77 04
2025-10-16T21:36:23.739547,825.451,can1  110  [02]  97 1E
2025-10-16T21:36:23.749477,825.461,can1  120  [04]  7C 31 0C 00
2025-10-16T21:36:24.973286,826.685,can1  100  [03]  57 77 04
2025-10-16T21:36:24.982508,826.694,can1  110  [02]  C8 1E
2025-10-16T21:36:26.063864,827.776,can1  120  [04]  C8 35 0C 00
2025-10-16T21:36:26.072464,827.784,can1  100  [03]  5E 77 04
2025-10-16T21:36:27.149510,828.861,can1  110  [02]  BB 1E
2025-10-16T21:36:27.158126,828.870,can1  120  [04]  68 2C 0C 00
2025-10-16T21:36:28.257783,829.970,can1  100  [03]  65 77 04
2025-10-16T21:36:29.349767,831.061,can1  110  [02]  C3 1E
2025-10-16T21:36:29.361568,831.073,can1  120  [04]  30 2D 0C 00
2025-10-16T21:36:30.576810,832.289,can1  100  [03]  6C 77 04
2025-10-16T21:36:30.584837,832.297,can1  110  [02]  E9 1E
2025-10-16T21:36:31.665139,833.377,can1  120  [04]  AC 29 0C 00
2025-10-16T21:36:32.771528,834.483,can1  100  [03]  73 77 04
2025-10-16T21:36:32.781326,834.493,can1  110  [02]  BF 1E
2025-10-16T21:36:33.868859,835.581,can1  120  [04]  04 2C 0C 00
2025-10-16T21:36:33.884775,835.596,can1  100  [03]  79 77 04
2025-10-16T21:36:34.753644,836.465,can1  110  [02]  B6 1E
2025-10-16T21:36:35.629621,837.341,can1  120  [04]  B4 30 0C 00
2025-10-16T21:36:36.494992,838.207,can1  100  [03]  80 77 04
2025-10-16T21:36:36.503506,838.215,can1  110  [02]  BD 1E
2025-10-16T21:36:37.481515,839.193,can1  120  [04]  18 31 0C 00
2025-10-16T21:36:38.253502,839.965,can1  100  [03]  87 77 04
2025-10-16T21:36:39.026367,840.738,can1  110  [02]  1B 1F
2025-10-16T21:36:39.035441,840.747,can1  120  [04]  A0 2B 0C 00
2025-10-16T21:36:39.809819,841.522,can1  100  [03]  8D 77 04
2025-10-16T21:36:40.679498,842.391,can1  110  [02]  CD 1E
2025-10-16T21:36:41.567273,843.279,can1  120  [04]  F8 2D 0C 00
2025-10-16T21:36:42.458364,844.170,can1  100  [03]  94 77 04
2025-10-16T21:36:42.525497,844.237,can1  110  [02]  EF 1E
2025-10-16T21:36:43.321062,845.033,can1  120  [04]  EC 2F 0C 00
2025-10-16T21:36:44.090261,845.802,can1  100  [03]  9A 77 04
2025-10-16T21:36:44.853825,846.566,can1  110  [02]  14 1F
2025-10-16T21:36:45.839255,847.551,can1  120  [04]  EC 2F 0C 00
2025-10-16T21:36:45.848931,847.561,can1  100  [03]  A1 77 04
2025-10-16T21:36:46.728808,848.441,can1  110  [02]  D4 1E
2025-10-16T21:36:47.490079,849.202,can1  120  [04]  6C 23 0C 00
2025-10-16T21:36:47.517753,849.229,can1  100  [03]  A7 77 04
2025-10-16T21:36:49.166117,850.878,can1  110  [02]  D1 1E
2025-10-16T21:36:49.175053,850.887,can1  120  [04]  38 1B 0C 00
2025-10-16T21:36:50.040160,851.752,can1  100  [03]  AE 77 04
2025-10-16T21:36:51.024906,852.737,can1  110  [02]  C3 1E
2025-10-16T21:36:51.034748,852.746,can1  120  [04]  A4 22 0C 00
2025-10-16T21:36:51.901670,853.613,can1  100  [03]  B4 77 04
2025-10-16T21:36:52.884951,854.597,can1  110  [02]  B8 1E
2025-10-16T21:36:53.665708,855.377,can1  120  [04]  64 1C 0C 00
2025-10-16T21:36:53.674904,855.387,can1  100  [03]  BA 77 04
2025-10-16T21:36:54.765546,856.477,can1  110  [02]  B4 1E
2025-10-16T21:36:55.864862,857.577,can1  120  [04]  EC 16 0C 00
2025-10-16T21:36:55.879124,857.591,can1  100  [03]  C1 77 04
2025-10-16T21:36:57.091992,858.804,can1  110  [02]  BC 1E
2025-10-16T21:36:57.100558,858.812,can1  120  [04]  A8 19 0C 00
2025-10-16T21:36:58.183109,859.895,can1  100  [03]  C9 77 04
2025-10-16T21:36:59.412547,861.124,can1  110  [02]  BD 1E
2025-10-16T21:36:59.422443,861.134,can1  120  [04]  20 1F 0C 00
2025-10-16T21:37:00.401059,862.113,can1  100  [03]  D0 77 04
2025-10-16T21:37:00.411089,862.123,can1  110  [02]  97 1E
2025-10-16T21:37:01.384131,863.096,can1  120  [04]  54 27 0C 00
2025-10-16T21:37:01.391495,863.103,can1  100  [03]  D7 77 04
2025-10-16T21:37:02.365352,864.077,can1  110  [02]  4A 1D
2025-10-16T21:37:03.352622,865.064,can1  120  [04]  3C 2B 0C 00
2025-10-16T21:37:04.234454,865.946,can1  100  [03]  DC 77 04
2025-10-16T21:37:04.243497,865.955,can1  110  [02]  6D 20
2025-10-16T21:37:05.213635,866.925,can1  120  [04]  D8 2A 0C 00
2025-10-16T21:37:06.521284,868.233,can1  100  [03]  E1 77 04
2025-10-16T21:37:06.530101,868.242,can1  110  [02]  2B 1F
2025-10-16T21:37:07.517868,869.230,can1  120  [04]  68 2C 0C 00
2025-10-16T21:37:07.527146,869.239,can1  100  [03]  E5 77 04
2025-10-16T21:37:09.610283,871.322,can1  110  [02]  5D 1F
2025-10-16T21:37:09.619771,871.331,can1  120  [04]  AC 29 0C 00
2025-10-16T21:37:09.628252,871.340,can1  100  [03]  E9 77 04
2025-10-16T21:37:10.705649,872.417,can1  110  [02]  77 1C
2025-10-16T21:37:11.799529,873.511,can1  120  [04]  3C 2B 0C 00
2025-10-16T21:37:11.809439,873.521,can1  100  [03]  EE 77 04
2025-10-16T21:37:12.775560,874.487,can1  110  [02]  CD 1F
2025-10-16T21:37:13.982020,875.694,can1  120  [04]  10 2A 0C 00
2025-10-16T21:37:13.991203,875.703,can1  100  [03]  F7 77 04
2025-10-16T21:37:15.128417,876.840,can1  110  [02]  C5 1F
2025-10-16T21:37:15.137823,876.850,can1  120  [04]  F0 26 0C 00
2025-10-16T21:37:16.328542,878.040,can1  100  [03]  02 78 04
2025-10-16T21:37:16.337934,878.050,can1  110  [02]  8E 1F
2025-10-16T21:37:17.544633,879.256,can1  120  [04]  4C 20 0C 00
2025-10-16T21:37:17.554227,879.266,can1  100  [03]  0C 78 04
2025-10-16T21:37:18.757237,880.469,can1  110  [02]  73 1F
2025-10-16T21:37:19.962497,881.674,can1  120  [04]  C4 25 0C 00
2025-10-16T21:37:19.972221,881.684,can1  100  [03]  14 78 04
2025-10-16T21:37:21.168094,882.880,can1  110  [02]  78 1F
2025-10-16T21:37:21.177526,882.889,can1  120  [04]  B0 20 0C 00
2025-10-16T21:37:22.500499,884.212,can1  100  [03]  1A 78 04
2025-10-16T21:37:22.511757,884.223,can1  110  [02]  38 1F
2025-10-16T21:37:23.701342,885.413,can1  120  [04]  20 1F 0C 00
2025-10-16T21:37:23.711273,885.423,can1  100  [03]  1D 78 04
2025-10-16T21:37:25.114970,886.827,can1  110  [02]  1E 1F
2025-10-16T21:37:25.124434,886.836,can1  120  [04]  50 17 0C 00
2025-10-16T21:37:26.119300,887.831,can1  100  [03]  1F 78 04
2025-10-16T21:37:26.128799,887.841,can1  110  [02]  08 1F
2025-10-16T21:37:27.102068,888.814,can1  120  [04]  EC 16 0C 00
2025-10-16T21:37:28.526475,890.238,can1  100  [03]  20 78 04
2025-10-16T21:37:28.535926,890.248,can1  110  [02]  F8 1E
2025-10-16T21:37:29.626790,891.339,can1  120  [04]  3C 12 0C 00
2025-10-16T21:37:29.635755,891.347,can1  100  [03]  21 78 04
2025-10-16T21:37:30.832113,892.544,can1  110  [02]  E8 1E
2025-10-16T21:37:30.841921,892.554,can1  120  [04]  30 14 0C 00
2025-10-16T21:37:32.031563,893.743,can1  100  [03]  21 78 04
2025-10-16T21:37:32.040592,893.752,can1  110  [02]  DB 1E
2025-10-16T21:37:33.015134,894.727,can1  120  [04]  A0 12 0C 00
2025-10-16T21:37:34.100628,895.812,can1  100  [03]  21 78 04
2025-10-16T21:37:34.109532,895.821,can1  110  [02]  D1 1E
2025-10-16T21:37:35.324208,897.036,can1  120  [04]  E4 0F 0C 00
2025-10-16T21:37:35.334418,897.046,can1  100  [03]  21 78 04
2025-10-16T21:37:36.418333,898.130,can1  110  [02]  C5 1E
2025-10-16T21:37:37.616260,899.328,can1  120  [04]  08 0A 0C 00
2025-10-16T21:37:37.626027,899.338,can1  100  [03]  22 78 04
2025-10-16T21:37:38.746019,900.458,can1  110  [02]  C9 1E
2025-10-16T21:37:38.759035,900.471,can1  120  [04]  F0 0D 0C 00
2025-10-16T21:37:40.055939,901.768,can1  100  [03]  23 78 04
2025-10-16T21:37:41.485168,903.197,can1  110  [02]  BF 1E
2025-10-16T21:37:41.495068,903.207,can1  120  [04]  B0 07 0C 00
2025-10-16T21:37:41.504656,903.216,can1  100  [03]  24 78 04
2025-10-16T21:37:42.699148,904.411,can1  110  [02]  B1 1E
2025-10-16T21:37:42.710899,904.423,can1  120  [04]  38 02 0C 00
2025-10-16T21:37:43.909473,905.621,can1  100  [03]  27 78 04
2025-10-16T21:37:43.917903,905.630,can1  110  [02]  AF 1E
2025-10-16T21:37:44.684211,906.396,can1  120  [04]  44 00 0C 00
2025-10-16T21:37:45.446158,907.158,can1  100  [03]  29 78 04
2025-10-16T21:37:46.323057,908.035,can1  110  [02]  8B 1E
