Timestamp,Elapsed_Time_s,CAN_Message
2025-10-11T14:34:05.878606,4.403,can1  110  [02]  40 1F
2025-10-11T14:34:05.880526,4.405,can1  110  [02]  40 1F
2025-10-11T14:34:05.881300,4.405,can1  100  [03]  80 38 01
2025-10-11T14:34:05.884201,4.408,can1  100  [03]  80 38 01
2025-10-11T14:34:07.948152,6.472,can1  110  [02]  28 23
2025-10-11T14:34:07.949254,6.473,can1  110  [02]  28 23
2025-10-11T14:34:07.970963,6.495,can1  100  [03]  90 5F 01
2025-10-11T14:34:07.972508,6.497,can1  100  [03]  90 5F 01
2025-10-11T14:34:10.022759,8.547,can1  110  [02]  40 1F
2025-10-11T14:34:10.024414,8.549,can1  110  [02]  40 1F
2025-10-11T14:34:10.043447,8.568,can1  100  [03]  80 38 01
2025-10-11T14:34:10.043681,8.568,can1  100  [03]  80 38 01
2025-10-11T14:34:12.219508,10.744,can1  110  [02]  58 1B
2025-10-11T14:34:12.220948,10.745,can1  110  [02]  58 1B
2025-10-11T14:34:12.222537,10.747,can1  100  [03]  70 11 01
2025-10-11T14:34:12.223959,10.748,can1  100  [03]  70 11 01
2025-10-11T14:34:14.398150,12.922,can1  110  [02]  70 17
2025-10-11T14:34:14.399519,12.924,can1  110  [02]  70 17
2025-10-11T14:34:14.400943,12.925,can1  100  [03]  60 EA 00
2025-10-11T14:34:14.402408,12.927,can1  100  [03]  60 EA 00
2025-10-11T14:34:16.611942,15.136,can1  110  [02]  88 13
2025-10-11T14:34:16.613194,15.137,can1  110  [02]  88 13
2025-10-11T14:34:16.614434,15.139,can1  100  [03]  50 C3 00
2025-10-11T14:34:16.615928,15.140,can1  100  [03]  50 C3 00
2025-10-11T14:34:18.491286,17.015,can1  110  [02]  A0 0F
2025-10-11T14:34:18.492931,17.017,can1  110  [02]  A0 0F
2025-10-11T14:34:19.133865,17.658,can1  100  [03]  40 9C 00
2025-10-11T14:34:19.135783,17.660,can1  100  [03]  40 9C 00
2025-10-11T14:34:20.898427,19.423,can1  110  [02]  B8 0B
2025-10-11T14:34:20.900144,19.424,can1  110  [02]  B8 0B
2025-10-11T14:34:20.901997,19.426,can1  100  [03]  30 75 00
2025-10-11T14:34:20.903686,19.428,can1  100  [03]  30 75 00
2025-10-11T14:34:23.094401,21.619,can1  110  [02]  D0 07
2025-10-11T14:34:23.095742,21.620,can1  110  [02]  D0 07
2025-10-11T14:34:23.097223,21.621,can1  100  [03]  20 4E 00
2025-10-11T14:34:23.098606,21.623,can1  100  [03]  20 4E 00
2025-10-11T14:34:24.975150,23.499,can1  110  [02]  E8 03
2025-10-11T14:34:24.976617,23.501,can1  110  [02]  E8 03
2025-10-11T14:34:24.978056,23.502,can1  100  [03]  10 27 00
2025-10-11T14:34:24.979625,23.504,can1  100  [03]  10 27 00
2025-10-11T14:34:27.398326,25.922,can1  110  [02]  D0 07
2025-10-11T14:34:27.399816,25.924,can1  110  [02]  D0 07
2025-10-11T14:34:27.401408,25.926,can1  100  [03]  20 4E 00
2025-10-11T14:34:27.402761,25.927,can1  100  [03]  20 4E 00
2025-10-11T14:34:29.489111,28.013,can1  110  [02]  B8 0B
2025-10-11T14:34:29.490532,28.015,can1  110  [02]  B8 0B
2025-10-11T14:34:29.491917,28.016,can1  100  [03]  30 75 00
2025-10-11T14:34:29.493458,28.018,can1  100  [03]  30 75 00
2025-10-11T14:34:31.673649,30.198,can1  110  [02]  A0 0F
2025-10-11T14:34:31.674948,30.199,can1  110  [02]  A0 0F
2025-10-11T14:34:31.676279,30.200,can1  100  [03]  40 9C 00
2025-10-11T14:34:31.677725,30.202,can1  100  [03]  40 9C 00
2025-10-11T14:34:33.856573,32.381,can1  110  [02]  88 13
2025-10-11T14:34:33.858252,32.382,can1  110  [02]  88 13
2025-10-11T14:34:33.859734,32.384,can1  100  [03]  50 C3 00
2025-10-11T14:34:33.861337,32.385,can1  100  [03]  50 C3 00
2025-10-11T14:34:36.067016,34.591,can1  110  [02]  70 17
2025-10-11T14:34:36.068450,34.593,can1  110  [02]  70 17
2025-10-11T14:34:36.069929,34.594,can1  100  [03]  60 EA 00
2025-10-11T14:34:36.071510,34.596,can1  100  [03]  60 EA 00
2025-10-11T14:34:38.385882,36.910,can1  110  [02]  58 1B
2025-10-11T14:34:38.386086,36.910,can1  110  [02]  58 1B
2025-10-11T14:34:38.386176,36.910,can1  100  [03]  70 11 01
2025-10-11T14:34:38.386239,36.910,can1  100  [03]  70 11 01
2025-10-11T14:34:40.575421,39.100,can1  110  [02]  40 1F
2025-10-11T14:34:40.576981,39.101,can1  110  [02]  40 1F
2025-10-11T14:34:40.578499,39.103,can1  100  [03]  80 38 01
2025-10-11T14:34:40.580092,39.104,can1  100  [03]  80 38 01
2025-10-11T14:34:42.756959,41.281,can1  110  [02]  28 23
2025-10-11T14:34:42.758433,41.283,can1  110  [02]  28 23
2025-10-11T14:34:42.759946,41.284,can1  100  [03]  90 5F 01
2025-10-11T14:34:42.761288,41.285,can1  100  [03]  90 5F 01
2025-10-11T14:34:44.409354,42.933,can1  110  [02]  40 1F
2025-10-11T14:34:44.410767,42.935,can1  110  [02]  40 1F
2025-10-11T14:34:44.955637,43.480,can1  100  [03]  80 38 01
2025-10-11T14:34:44.957115,43.481,can1  100  [03]  80 38 01
2025-10-11T14:34:47.022037,45.546,can1  110  [02]  58 1B
2025-10-11T14:34:47.023452,45.548,can1  110  [02]  58 1B
2025-10-11T14:34:47.025157,45.549,can1  100  [03]  70 11 01
2025-10-11T14:34:47.026817,45.551,can1  100  [03]  70 11 01
2025-10-11T14:34:49.212877,47.737,can1  110  [02]  70 17
2025-10-11T14:34:49.214254,47.738,can1  110  [02]  70 17
2025-10-11T14:34:49.215622,47.740,can1  100  [03]  60 EA 00
2025-10-11T14:34:49.217209,47.741,can1  100  [03]  60 EA 00
2025-10-11T14:34:51.186641,49.711,can1  110  [02]  88 13
2025-10-11T14:34:51.188094,49.712,can1  110  [02]  88 13
2025-10-11T14:34:51.189438,49.714,can1  100  [03]  50 C3 00
2025-10-11T14:34:51.190919,49.715,can1  100  [03]  50 C3 00
2025-10-11T14:34:53.275084,51.799,can1  110  [02]  A0 0F
2025-10-11T14:34:53.276914,51.801,can1  110  [02]  A0 0F
2025-10-11T14:34:53.278819,51.803,can1  100  [03]  40 9C 00
2025-10-11T14:34:53.280384,51.804,can1  100  [03]  40 9C 00
2025-10-11T14:34:55.373942,53.898,can1  110  [02]  B8 0B
2025-10-11T14:34:55.376418,53.901,can1  110  [02]  B8 0B
2025-10-11T14:34:55.378088,53.902,can1  100  [03]  30 75 00
2025-10-11T14:34:55.381082,53.905,can1  100  [03]  30 75 00
2025-10-11T14:34:57.908984,56.433,can1  110  [02]  D0 07
2025-10-11T14:34:57.910883,56.435,can1  110  [02]  D0 07
2025-10-11T14:34:57.912629,56.437,can1  100  [03]  20 4E 00
2025-10-11T14:34:57.914230,56.438,can1  100  [03]  20 4E 00
2025-10-11T14:35:00.098596,58.623,can1  110  [02]  E8 03
2025-10-11T14:35:00.100412,58.625,can1  110  [02]  E8 03
2025-10-11T14:35:00.102170,58.626,can1  100  [03]  10 27 00
2025-10-11T14:35:00.105001,58.629,can1  100  [03]  10 27 00
2025-10-11T14:35:02.169293,60.693,can1  110  [02]  D0 07
2025-10-11T14:35:02.170966,60.695,can1  110  [02]  D0 07
2025-10-11T14:35:02.172589,60.697,can1  100  [03]  20 4E 00
2025-10-11T14:35:02.174364,60.698,can1  100  [03]  20 4E 00
2025-10-11T14:35:04.571501,63.096,can1  110  [02]  B8 0B
2025-10-11T14:35:04.573470,63.098,can1  110  [02]  B8 0B
2025-10-11T14:35:04.575667,63.100,can1  100  [03]  30 75 00
2025-10-11T14:35:04.578845,63.103,can1  100  [03]  30 75 00
2025-10-11T14:35:06.564636,65.089,can1  110  [02]  A0 0F
2025-10-11T14:35:06.566114,65.090,can1  110  [02]  A0 0F
2025-10-11T14:35:06.567579,65.092,can1  100  [03]  40 9C 00
2025-10-11T14:35:06.568999,65.093,can1  100  [03]  40 9C 00
2025-10-11T14:35:08.541725,67.066,can1  110  [02]  88 13
2025-10-11T14:35:08.543322,67.067,can1  110  [02]  88 13
2025-10-11T14:35:08.544849,67.069,can1  100  [03]  50 C3 00
2025-10-11T14:35:08.546454,67.071,can1  100  [03]  50 C3 00
2025-10-11T14:35:10.739222,69.263,can1  110  [02]  70 17
2025-10-11T14:35:10.740639,69.265,can1  110  [02]  70 17
2025-10-11T14:35:10.742147,69.266,can1  100  [03]  60 EA 00
2025-10-11T14:35:10.743693,69.268,can1  100  [03]  60 EA 00
2025-10-11T14:35:12.709479,71.234,can1  110  [02]  58 1B
2025-10-11T14:35:12.711781,71.236,can1  110  [02]  58 1B
2025-10-11T14:35:13.242681,71.767,can1  100  [03]  70 11 01
2025-10-11T14:35:13.244249,71.768,can1  100  [03]  70 11 01
2025-10-11T14:35:15.327720,73.852,can1  110  [02]  40 1F
2025-10-11T14:35:15.329721,73.854,can1  110  [02]  40 1F
2025-10-11T14:35:15.331541,73.856,can1  100  [03]  80 38 01
2025-10-11T14:35:15.333939,73.858,can1  100  [03]  80 38 01
2025-10-11T14:35:17.510455,76.035,can1  110  [02]  28 23
2025-10-11T14:35:17.512268,76.036,can1  110  [02]  28 23
2025-10-11T14:35:17.514170,76.038,can1  100  [03]  90 5F 01
2025-10-11T14:35:17.515944,76.040,can1  100  [03]  90 5F 01
2025-10-11T14:35:19.630043,78.154,can1  110  [02]  40 1F
2025-10-11T14:35:19.631746,78.156,can1  110  [02]  40 1F
2025-10-11T14:35:19.633463,78.158,can1  100  [03]  80 38 01
2025-10-11T14:35:19.634895,78.159,can1  100  [03]  80 38 01
2025-10-11T14:35:21.829426,80.354,can1  110  [02]  58 1B
2025-10-11T14:35:21.830976,80.355,can1  110  [02]  58 1B
2025-10-11T14:35:21.832503,80.357,can1  100  [03]  70 11 01
2025-10-11T14:35:21.834151,80.358,can1  100  [03]  70 11 01
2025-10-11T14:35:23.806807,82.331,can1  110  [02]  70 17
2025-10-11T14:35:23.808538,82.333,can1  110  [02]  70 17
2025-10-11T14:35:23.810360,82.334,can1  100  [03]  60 EA 00
2025-10-11T14:35:23.813332,82.337,can1  100  [03]  60 EA 00
2025-10-11T14:35:26.099327,84.623,can1  110  [02]  88 13
2025-10-11T14:35:26.101034,84.625,can1  110  [02]  88 13
2025-10-11T14:35:26.102629,84.627,can1  100  [03]  50 C3 00
2025-10-11T14:35:26.104421,84.629,can1  100  [03]  50 C3 00
2025-10-11T14:35:28.207548,86.732,can1  110  [02]  A0 0F
2025-10-11T14:35:28.209023,86.733,can1  110  [02]  A0 0F
2025-10-11T14:35:28.210511,86.735,can1  100  [03]  40 9C 00
2025-10-11T14:35:28.211981,86.736,can1  100  [03]  40 9C 00
2025-10-11T14:35:30.390857,88.915,can1  110  [02]  B8 0B
2025-10-11T14:35:30.392222,88.916,can1  110  [02]  B8 0B
2025-10-11T14:35:30.393955,88.918,can1  100  [03]  30 75 00
2025-10-11T14:35:30.395312,88.919,can1  100  [03]  30 75 00
2025-10-11T14:35:32.375948,90.900,can1  110  [02]  D0 07
2025-10-11T14:35:32.377883,90.902,can1  110  [02]  D0 07
2025-10-11T14:35:32.922657,91.447,can1  100  [03]  20 4E 00
2025-10-11T14:35:32.924129,91.448,can1  100  [03]  20 4E 00
2025-10-11T14:35:35.211496,93.736,can1  110  [02]  E8 03
2025-10-11T14:35:35.213533,93.738,can1  110  [02]  E8 03
2025-10-11T14:35:35.215580,93.740,can1  100  [03]  10 27 00
2025-10-11T14:35:35.218036,93.742,can1  100  [03]  10 27 00
2025-10-11T14:35:36.981697,95.506,can1  110  [02]  D0 07
2025-10-11T14:35:36.984712,95.509,can1  110  [02]  D0 07
2025-10-11T14:35:36.987281,95.511,can1  100  [03]  20 4E 00
2025-10-11T14:35:36.989393,95.514,can1  100  [03]  20 4E 00
2025-10-11T14:35:39.178820,97.703,can1  110  [02]  B8 0B
2025-10-11T14:35:39.180522,97.705,can1  110  [02]  B8 0B
2025-10-11T14:35:39.182387,97.707,can1  100  [03]  30 75 00
2025-10-11T14:35:39.185030,97.709,can1  100  [03]  30 75 00
2025-10-11T14:35:41.161505,99.686,can1  110  [02]  A0 0F
2025-10-11T14:35:41.163788,99.688,can1  110  [02]  A0 0F
2025-10-11T14:35:41.165570,99.690,can1  100  [03]  40 9C 00
2025-10-11T14:35:41.167966,99.692,can1  100  [03]  40 9C 00
2025-10-11T14:35:43.776767,102.301,can1  110  [02]  88 13
2025-10-11T14:35:43.779569,102.304,can1  110  [02]  88 13
2025-10-11T14:35:43.782558,102.307,can1  100  [03]  50 C3 00
2025-10-11T14:35:43.785441,102.310,can1  100  [03]  50 C3 00
2025-10-11T14:35:45.782819,104.307,can1  110  [02]  70 17
2025-10-11T14:35:45.784527,104.309,can1  110  [02]  70 17
2025-10-11T14:35:45.786601,104.311,can1  100  [03]  60 EA 00
2025-10-11T14:35:45.789268,104.313,can1  100  [03]  60 EA 00
2025-10-11T14:35:47.644765,106.169,can1  110  [02]  58 1B
2025-10-11T14:35:47.646701,106.171,can1  110  [02]  58 1B
2025-10-11T14:35:47.648783,106.173,can1  100  [03]  70 11 01
2025-10-11T14:35:47.651617,106.176,can1  100  [03]  70 11 01
2025-10-11T14:35:50.595580,109.120,can1  110  [02]  40 1F
2025-10-11T14:35:50.597549,109.122,can1  110  [02]  40 1F
2025-10-11T14:35:50.599631,109.124,can1  100  [03]  80 38 01
2025-10-11T14:35:50.602026,109.126,can1  100  [03]  80 38 01
2025-10-11T14:35:52.246742,110.771,can1  110  [02]  28 23
2025-10-11T14:35:52.248569,110.773,can1  110  [02]  28 23
2025-10-11T14:35:52.250354,110.774,can1  100  [03]  90 5F 01
2025-10-11T14:35:52.252981,110.777,can1  100  [03]  90 5F 01
2025-10-11T14:35:54.209931,112.734,can1  110  [02]  40 1F
2025-10-11T14:35:54.211684,112.736,can1  110  [02]  40 1F
2025-10-11T14:35:54.213321,112.737,can1  100  [03]  80 38 01
2025-10-11T14:35:54.215973,112.740,can1  100  [03]  80 38 01
2025-10-11T14:35:56.289426,114.814,can1  110  [02]  58 1B
2025-10-11T14:35:56.291440,114.816,can1  110  [02]  58 1B
2025-10-11T14:35:56.293839,114.818,can1  100  [03]  70 11 01
2025-10-11T14:35:56.295973,114.820,can1  100  [03]  70 11 01
2025-10-11T14:35:58.476281,117.000,can1  110  [02]  70 17
2025-10-11T14:35:58.477966,117.002,can1  110  [02]  70 17
2025-10-11T14:35:58.479745,117.004,can1  100  [03]  60 EA 00
2025-10-11T14:35:58.481256,117.005,can1  100  [03]  60 EA 00
2025-10-11T14:36:00.673909,119.198,can1  110  [02]  88 13
2025-10-11T14:36:00.675756,119.200,can1  110  [02]  88 13
2025-10-11T14:36:00.678040,119.202,can1  100  [03]  50 C3 00
2025-10-11T14:36:00.681582,119.206,can1  100  [03]  50 C3 00
2025-10-11T14:36:02.870208,121.394,can1  110  [02]  A0 0F
2025-10-11T14:36:02.871961,121.396,can1  110  [02]  A0 0F
2025-10-11T14:36:02.873621,121.398,can1  100  [03]  40 9C 00
2025-10-11T14:36:02.875216,121.399,can1  100  [03]  40 9C 00
2025-10-11T14:36:05.074174,123.598,can1  110  [02]  B8 0B
2025-10-11T14:36:05.075973,123.600,can1  110  [02]  B8 0B
2025-10-11T14:36:05.077753,123.602,can1  100  [03]  30 75 00
2025-10-11T14:36:05.079424,123.604,can1  100  [03]  30 75 00
2025-10-11T14:36:07.380737,125.905,can1  110  [02]  D0 07
2025-10-11T14:36:07.382634,125.907,can1  110  [02]  D0 07
2025-10-11T14:36:07.384611,125.909,can1  100  [03]  20 4E 00
2025-10-11T14:36:07.387109,125.911,can1  100  [03]  20 4E 00
2025-10-11T14:36:09.570545,128.095,can1  110  [02]  E8 03
2025-10-11T14:36:09.572600,128.097,can1  110  [02]  E8 03
2025-10-11T14:36:09.574482,128.099,can1  100  [03]  10 27 00
2025-10-11T14:36:09.578606,128.103,can1  100  [03]  10 27 00
2025-10-11T14:36:11.793485,130.318,can1  110  [02]  D0 07
2025-10-11T14:36:11.797319,130.321,can1  110  [02]  D0 07
2025-10-11T14:36:11.800076,130.324,can1  100  [03]  20 4E 00
2025-10-11T14:36:11.802115,130.326,can1  100  [03]  20 4E 00
2025-10-11T14:36:14.107824,132.632,can1  110  [02]  B8 0B
2025-10-11T14:36:14.112878,132.637,can1  110  [02]  B8 0B
2025-10-11T14:36:14.116801,132.641,can1  100  [03]  30 75 00
2025-10-11T14:36:14.119318,132.643,can1  100  [03]  30 75 00
2025-10-11T14:36:15.879656,134.404,can1  110  [02]  A0 0F
2025-10-11T14:36:15.882362,134.406,can1  110  [02]  A0 0F
2025-10-11T14:36:15.884649,134.409,can1  100  [03]  40 9C 00
2025-10-11T14:36:15.890274,134.414,can1  100  [03]  40 9C 00
2025-10-11T14:36:18.063500,136.588,can1  110  [02]  88 13
2025-10-11T14:36:18.065610,136.590,can1  110  [02]  88 13
2025-10-11T14:36:18.068211,136.592,can1  100  [03]  50 C3 00
2025-10-11T14:36:18.070409,136.595,can1  100  [03]  50 C3 00
2025-10-11T14:36:20.586599,139.111,can1  110  [02]  70 17
2025-10-11T14:36:20.589775,139.114,can1  110  [02]  70 17
2025-10-11T14:36:20.593275,139.117,can1  100  [03]  60 EA 00
2025-10-11T14:36:20.597040,139.121,can1  100  [03]  60 EA 00
2025-10-11T14:36:22.669057,141.193,can1  110  [02]  58 1B
2025-10-11T14:36:22.671238,141.195,can1  110  [02]  58 1B
2025-10-11T14:36:22.673967,141.198,can1  100  [03]  70 11 01
2025-10-11T14:36:22.676458,141.201,can1  100  [03]  70 11 01
2025-10-11T14:36:24.769098,143.293,can1  110  [02]  40 1F
2025-10-11T14:36:24.771195,143.295,can1  110  [02]  40 1F
2025-10-11T14:36:24.773333,143.297,can1  100  [03]  80 38 01
2025-10-11T14:36:24.776305,143.300,can1  100  [03]  80 38 01
2025-10-11T14:36:26.744896,145.269,can1  110  [02]  28 23
2025-10-11T14:36:26.746616,145.271,can1  110  [02]  28 23
2025-10-11T14:36:26.748505,145.273,can1  100  [03]  90 5F 01
2025-10-11T14:36:26.751066,145.275,can1  100  [03]  90 5F 01
2025-10-11T14:36:29.704020,148.228,can1  110  [02]  40 1F
2025-10-11T14:36:29.705972,148.230,can1  110  [02]  40 1F
2025-10-11T14:36:29.707916,148.232,can1  100  [03]  80 38 01
2025-10-11T14:36:29.710138,148.234,can1  100  [03]  80 38 01
2025-10-11T14:36:31.886694,150.411,can1  110  [02]  58 1B
2025-10-11T14:36:31.888952,150.413,can1  110  [02]  58 1B
2025-10-11T14:36:31.891274,150.415,can1  100  [03]  70 11 01
2025-10-11T14:36:31.894362,150.418,can1  100  [03]  70 11 01
2025-10-11T14:36:33.971588,152.496,can1  110  [02]  70 17
2025-10-11T14:36:33.975561,152.500,can1  110  [02]  70 17
2025-10-11T14:36:33.980013,152.504,can1  100  [03]  60 EA 00
2025-10-11T14:36:33.984064,152.508,can1  100  [03]  60 EA 00
2025-10-11T14:36:36.049620,154.574,can1  110  [02]  88 13
2025-10-11T14:36:36.051379,154.575,can1  110  [02]  88 13
2025-10-11T14:36:36.053647,154.578,can1  100  [03]  50 C3 00
2025-10-11T14:36:36.055855,154.580,can1  100  [03]  50 C3 00
2025-10-11T14:36:38.336171,156.860,can1  110  [02]  A0 0F
2025-10-11T14:36:38.338079,156.862,can1  110  [02]  A0 0F
2025-10-11T14:36:38.340117,156.864,can1  100  [03]  40 9C 00
2025-10-11T14:36:38.343651,156.868,can1  100  [03]  40 9C 00
2025-10-11T14:36:40.318690,158.843,can1  110  [02]  B8 0B
2025-10-11T14:36:40.320893,158.845,can1  110  [02]  B8 0B
2025-10-11T14:36:40.322536,158.847,can1  100  [03]  30 75 00
2025-10-11T14:36:40.325202,158.849,can1  100  [03]  30 75 00
2025-10-11T14:36:42.323975,160.848,can1  110  [02]  D0 07
2025-10-11T14:36:42.325868,160.850,can1  110  [02]  D0 07
2025-10-11T14:36:42.328566,160.853,can1  100  [03]  20 4E 00
2025-10-11T14:36:42.331968,160.856,can1  100  [03]  20 4E 00
2025-10-11T14:36:44.295606,162.820,can1  110  [02]  E8 03
2025-10-11T14:36:44.298552,162.823,can1  110  [02]  E8 03
2025-10-11T14:36:44.302437,162.827,can1  100  [03]  10 27 00
2025-10-11T14:36:44.304431,162.829,can1  100  [03]  10 27 00
2025-10-11T14:36:46.385403,164.910,can1  110  [02]  D0 07
2025-10-11T14:36:46.387511,164.912,can1  110  [02]  D0 07
2025-10-11T14:36:46.389460,164.914,can1  100  [03]  20 4E 00
2025-10-11T14:36:46.392236,164.916,can1  100  [03]  20 4E 00
2025-10-11T14:36:48.462606,166.987,can1  110  [02]  B8 0B
2025-10-11T14:36:48.464549,166.989,can1  110  [02]  B8 0B
2025-10-11T14:36:48.466433,166.991,can1  100  [03]  30 75 00
2025-10-11T14:36:48.469173,166.993,can1  100  [03]  30 75 00
2025-10-11T14:36:51.205553,169.730,can1  110  [02]  A0 0F
2025-10-11T14:36:51.207776,169.732,can1  110  [02]  A0 0F
2025-10-11T14:36:51.209576,169.734,can1  100  [03]  40 9C 00
2025-10-11T14:36:51.212177,169.736,can1  100  [03]  40 9C 00
2025-10-11T14:36:53.169000,171.693,can1  110  [02]  88 13
2025-10-11T14:36:53.170984,171.695,can1  110  [02]  88 13
2025-10-11T14:36:53.172866,171.697,can1  100  [03]  50 C3 00
2025-10-11T14:36:53.174772,171.699,can1  100  [03]  50 C3 00
2025-10-11T14:36:55.249306,173.773,can1  110  [02]  70 17
2025-10-11T14:36:55.251706,173.776,can1  110  [02]  70 17
2025-10-11T14:36:55.253916,173.778,can1  100  [03]  60 EA 00
2025-10-11T14:36:55.257571,173.782,can1  100  [03]  60 EA 00
2025-10-11T14:36:57.335076,175.859,can1  110  [02]  58 1B
2025-10-11T14:36:57.337252,175.861,can1  110  [02]  58 1B
2025-10-11T14:36:57.339125,175.863,can1  100  [03]  70 11 01
2025-10-11T14:36:57.341976,175.866,can1  100  [03]  70 11 01
2025-10-11T14:36:59.420392,177.945,can1  110  [02]  40 1F
2025-10-11T14:36:59.422529,177.947,can1  110  [02]  40 1F
2025-10-11T14:36:59.424605,177.949,can1  100  [03]  80 38 01
2025-10-11T14:36:59.427232,177.951,can1  100  [03]  80 38 01
2025-10-11T14:37:02.154384,180.679,can1  110  [02]  28 23
2025-10-11T14:37:02.156667,180.681,can1  110  [02]  28 23
2025-10-11T14:37:02.159025,180.683,can1  100  [03]  90 5F 01
2025-10-11T14:37:02.162054,180.686,can1  100  [03]  90 5F 01
2025-10-11T14:37:04.121843,182.646,can1  110  [02]  40 1F
2025-10-11T14:37:04.124495,182.649,can1  110  [02]  40 1F
2025-10-11T14:37:04.127079,182.651,can1  100  [03]  80 38 01
2025-10-11T14:37:04.129300,182.653,can1  100  [03]  80 38 01
2025-10-11T14:37:06.112753,184.637,can1  110  [02]  58 1B
2025-10-11T14:37:06.114810,184.639,can1  110  [02]  58 1B
2025-10-11T14:37:06.117060,184.641,can1  100  [03]  70 11 01
2025-10-11T14:37:06.119552,184.644,can1  100  [03]  70 11 01
2025-10-11T14:37:08.189445,186.714,can1  110  [02]  70 17
2025-10-11T14:37:08.191373,186.715,can1  110  [02]  70 17
2025-10-11T14:37:08.193449,186.718,can1  100  [03]  60 EA 00
2025-10-11T14:37:08.196829,186.721,can1  100  [03]  60 EA 00
2025-10-11T14:37:10.044766,188.569,can1  110  [02]  88 13
2025-10-11T14:37:10.047238,188.571,can1  110  [02]  88 13
2025-10-11T14:37:10.049550,188.574,can1  100  [03]  50 C3 00
2025-10-11T14:37:10.051997,188.576,can1  100  [03]  50 C3 00
2025-10-11T14:37:12.128725,190.653,can1  110  [02]  A0 0F
2025-10-11T14:37:12.131859,190.656,can1  110  [02]  A0 0F
2025-10-11T14:37:13.218527,191.743,can1  100  [03]  40 9C 00
2025-10-11T14:37:13.220854,191.745,can1  100  [03]  40 9C 00
2025-10-11T14:37:15.193620,193.718,can1  110  [02]  B8 0B
2025-10-11T14:37:15.195640,193.720,can1  110  [02]  B8 0B
2025-10-11T14:37:15.198586,193.723,can1  100  [03]  30 75 00
2025-10-11T14:37:15.201805,193.726,can1  100  [03]  30 75 00
2025-10-11T14:37:17.059926,195.584,can1  110  [02]  D0 07
2025-10-11T14:37:17.061935,195.586,can1  110  [02]  D0 07
2025-10-11T14:37:17.064055,195.588,can1  100  [03]  20 4E 00
2025-10-11T14:37:17.066670,195.591,can1  100  [03]  20 4E 00
2025-10-11T14:37:19.027486,197.552,can1  110  [02]  E8 03
2025-10-11T14:37:19.029472,197.554,can1  110  [02]  E8 03
2025-10-11T14:37:19.031482,197.556,can1  100  [03]  10 27 00
2025-10-11T14:37:19.034093,197.558,can1  100  [03]  10 27 00
2025-10-11T14:37:20.897622,199.422,can1  110  [02]  D0 07
2025-10-11T14:37:20.899408,199.424,can1  110  [02]  D0 07
2025-10-11T14:37:20.901493,199.426,can1  100  [03]  20 4E 00
2025-10-11T14:37:20.904186,199.428,can1  100  [03]  20 4E 00
2025-10-11T14:37:23.660286,202.184,can1  110  [02]  B8 0B
2025-10-11T14:37:23.662308,202.186,can1  110  [02]  B8 0B
2025-10-11T14:37:23.664278,202.188,can1  100  [03]  30 75 00
2025-10-11T14:37:23.667271,202.191,can1  100  [03]  30 75 00
2025-10-11T14:37:25.527857,204.052,can1  110  [02]  A0 0F
2025-10-11T14:37:25.529550,204.054,can1  110  [02]  A0 0F
2025-10-11T14:37:25.531499,204.056,can1  100  [03]  40 9C 00
2025-10-11T14:37:25.534175,204.058,can1  100  [03]  40 9C 00
2025-10-11T14:37:27.396241,205.920,can1  110  [02]  88 13
2025-10-11T14:37:27.398356,205.922,can1  110  [02]  88 13
2025-10-11T14:37:28.381551,206.906,can1  100  [03]  50 C3 00
2025-10-11T14:37:28.384121,206.908,can1  100  [03]  50 C3 00
2025-10-11T14:37:30.248027,208.772,can1  110  [02]  70 17
2025-10-11T14:37:30.250576,208.775,can1  110  [02]  70 17
2025-10-11T14:37:30.252607,208.777,can1  100  [03]  60 EA 00
2025-10-11T14:37:30.255067,208.779,can1  100  [03]  60 EA 00
2025-10-11T14:37:31.997219,210.521,can1  110  [02]  58 1B
2025-10-11T14:37:31.999144,210.523,can1  110  [02]  58 1B
2025-10-11T14:37:32.001174,210.525,can1  100  [03]  70 11 01
2025-10-11T14:37:32.004476,210.529,can1  100  [03]  70 11 01
2025-10-11T14:37:34.729859,213.254,can1  110  [02]  40 1F
2025-10-11T14:37:34.732130,213.256,can1  110  [02]  40 1F
2025-10-11T14:37:34.734327,213.258,can1  100  [03]  80 38 01
2025-10-11T14:37:34.736946,213.261,can1  100  [03]  80 38 01
2025-10-11T14:37:36.719025,215.243,can1  110  [02]  28 23
2025-10-11T14:37:36.721224,215.245,can1  110  [02]  28 23
2025-10-11T14:37:36.723577,215.248,can1  100  [03]  90 5F 01
2025-10-11T14:37:36.726500,215.251,can1  100  [03]  90 5F 01
2025-10-11T14:37:38.924343,217.448,can1  110  [02]  40 1F
2025-10-11T14:37:38.926555,217.451,can1  110  [02]  40 1F
2025-10-11T14:37:38.928850,217.453,can1  100  [03]  80 38 01
2025-10-11T14:37:38.932653,217.457,can1  100  [03]  80 38 01
2025-10-11T14:37:40.895977,219.420,can1  110  [02]  58 1B
2025-10-11T14:37:40.898014,219.422,can1  110  [02]  58 1B
2025-10-11T14:37:40.900024,219.424,can1  100  [03]  70 11 01
2025-10-11T14:37:40.903031,219.427,can1  100  [03]  70 11 01
2025-10-11T14:37:42.853640,221.378,can1  110  [02]  70 17
2025-10-11T14:37:42.856077,221.380,can1  110  [02]  70 17
2025-10-11T14:37:42.858319,221.382,can1  100  [03]  60 EA 00
2025-10-11T14:37:42.861018,221.385,can1  100  [03]  60 EA 00
2025-10-11T14:37:44.711408,223.236,can1  110  [02]  88 13
2025-10-11T14:37:44.713361,223.237,can1  110  [02]  88 13
2025-10-11T14:37:44.715362,223.239,can1  100  [03]  50 C3 00
2025-10-11T14:37:44.718187,223.242,can1  100  [03]  50 C3 00
2025-10-11T14:37:47.463315,225.987,can1  110  [02]  A0 0F
2025-10-11T14:37:47.465523,225.990,can1  110  [02]  A0 0F
2025-10-11T14:37:47.467755,225.992,can1  100  [03]  40 9C 00
2025-10-11T14:37:47.470308,225.994,can1  100  [03]  40 9C 00
2025-10-11T14:37:49.318223,227.842,can1  110  [02]  B8 0B
2025-10-11T14:37:49.320373,227.844,can1  110  [02]  B8 0B
2025-10-11T14:37:49.322380,227.846,can1  100  [03]  30 75 00
2025-10-11T14:37:49.325264,227.849,can1  100  [03]  30 75 00
2025-10-11T14:37:51.197571,229.722,can1  110  [02]  D0 07
2025-10-11T14:37:51.199730,229.724,can1  110  [02]  D0 07
2025-10-11T14:37:52.188221,230.712,can1  100  [03]  20 4E 00
2025-10-11T14:37:52.190415,230.715,can1  100  [03]  20 4E 00
2025-10-11T14:37:53.941752,232.466,can1  110  [02]  E8 03
2025-10-11T14:37:53.943498,232.468,can1  110  [02]  E8 03
2025-10-11T14:37:53.945287,232.469,can1  100  [03]  10 27 00
2025-10-11T14:37:53.948684,232.473,can1  100  [03]  10 27 00
2025-10-11T14:37:55.896977,234.421,can1  110  [02]  D0 07
2025-10-11T14:37:55.898878,234.423,can1  110  [02]  D0 07
2025-10-11T14:37:55.900655,234.425,can1  100  [03]  20 4E 00
2025-10-11T14:37:55.903253,234.427,can1  100  [03]  20 4E 00
2025-10-11T14:37:57.664043,236.188,can1  110  [02]  B8 0B
2025-10-11T14:37:57.666373,236.191,can1  110  [02]  B8 0B
2025-10-11T14:37:57.668908,236.193,can1  100  [03]  30 75 00
2025-10-11T14:37:57.671919,236.196,can1  100  [03]  30 75 00
2025-10-11T14:38:00.314956,238.839,can1  110  [02]  A0 0F
2025-10-11T14:38:00.317425,238.842,can1  110  [02]  A0 0F
2025-10-11T14:38:00.319714,238.844,can1  100  [03]  40 9C 00
2025-10-11T14:38:00.322532,238.847,can1  100  [03]  40 9C 00
2025-10-11T14:38:02.175507,240.700,can1  110  [02]  88 13
2025-10-11T14:38:02.177333,240.701,can1  110  [02]  88 13
2025-10-11T14:38:02.179332,240.703,can1  100  [03]  50 C3 00
2025-10-11T14:38:02.182229,240.706,can1  100  [03]  50 C3 00
2025-10-11T14:38:04.814006,243.338,can1  110  [02]  70 17
2025-10-11T14:38:04.816526,243.341,can1  110  [02]  70 17
2025-10-11T14:38:04.820061,243.344,can1  100  [03]  60 EA 00
2025-10-11T14:38:04.822281,243.346,can1  100  [03]  60 EA 00
2025-10-11T14:38:06.783578,245.308,can1  110  [02]  58 1B
2025-10-11T14:38:06.785457,245.310,can1  110  [02]  58 1B
2025-10-11T14:38:06.787436,245.312,can1  100  [03]  70 11 01
2025-10-11T14:38:06.790336,245.314,can1  100  [03]  70 11 01
2025-10-11T14:38:08.751195,247.275,can1  110  [02]  40 1F
2025-10-11T14:38:08.753918,247.278,can1  110  [02]  40 1F
2025-10-11T14:38:08.756268,247.280,can1  100  [03]  80 38 01
2025-10-11T14:38:08.759205,247.283,can1  100  [03]  80 38 01
2025-10-11T14:38:10.940462,249.465,can1  110  [02]  28 23
2025-10-11T14:38:10.942907,249.467,can1  110  [02]  28 23
2025-10-11T14:38:10.945213,249.469,can1  100  [03]  90 5F 01
2025-10-11T14:38:10.947683,249.472,can1  100  [03]  90 5F 01
2025-10-11T14:38:12.913940,251.438,can1  110  [02]  40 1F
2025-10-11T14:38:12.916065,251.440,can1  110  [02]  40 1F
2025-10-11T14:38:13.473892,251.998,can1  100  [03]  80 38 01
2025-10-11T14:38:13.475801,252.000,can1  100  [03]  80 38 01
2025-10-11T14:38:15.233052,253.757,can1  110  [02]  58 1B
2025-10-11T14:38:15.235425,253.760,can1  110  [02]  58 1B
2025-10-11T14:38:15.237880,253.762,can1  100  [03]  70 11 01
2025-10-11T14:38:15.240104,253.764,can1  100  [03]  70 11 01
2025-10-11T14:38:17.539290,256.063,can1  110  [02]  70 17
2025-10-11T14:38:17.541477,256.066,can1  110  [02]  70 17
2025-10-11T14:38:17.543502,256.068,can1  100  [03]  60 EA 00
2025-10-11T14:38:17.546016,256.070,can1  100  [03]  60 EA 00
2025-10-11T14:38:19.513317,258.037,can1  110  [02]  88 13
2025-10-11T14:38:19.515559,258.040,can1  110  [02]  88 13
2025-10-11T14:38:19.517449,258.042,can1  100  [03]  50 C3 00
2025-10-11T14:38:19.520285,258.044,can1  100  [03]  50 C3 00
2025-10-11T14:38:21.809386,260.334,can1  110  [02]  A0 0F
2025-10-11T14:38:21.811811,260.336,can1  110  [02]  A0 0F
2025-10-11T14:38:21.814474,260.339,can1  100  [03]  40 9C 00
2025-10-11T14:38:21.817389,260.342,can1  100  [03]  40 9C 00
2025-10-11T14:38:23.992736,262.517,can1  110  [02]  B8 0B
2025-10-11T14:38:23.994886,262.519,can1  110  [02]  B8 0B
2025-10-11T14:38:23.997146,262.521,can1  100  [03]  30 75 00
2025-10-11T14:38:24.000065,262.524,can1  100  [03]  30 75 00
2025-10-11T14:38:26.191740,264.716,can1  110  [02]  D0 07
2025-10-11T14:38:26.194205,264.718,can1  110  [02]  D0 07
2025-10-11T14:38:26.196641,264.721,can1  100  [03]  20 4E 00
2025-10-11T14:38:26.199294,264.723,can1  100  [03]  20 4E 00
2025-10-11T14:38:28.388748,266.913,can1  110  [02]  E8 03
2025-10-11T14:38:28.390830,266.915,can1  110  [02]  E8 03
2025-10-11T14:38:28.392840,266.917,can1  100  [03]  10 27 00
2025-10-11T14:38:28.395703,266.920,can1  100  [03]  10 27 00
2025-10-11T14:38:30.248110,268.772,can1  110  [02]  D0 07
2025-10-11T14:38:30.250004,268.774,can1  110  [02]  D0 07
2025-10-11T14:38:30.892314,269.416,can1  100  [03]  20 4E 00
2025-10-11T14:38:30.895355,269.419,can1  100  [03]  20 4E 00
2025-10-11T14:38:32.974240,271.498,can1  110  [02]  B8 0B
2025-10-11T14:38:32.976293,271.500,can1  110  [02]  B8 0B
2025-10-11T14:38:32.979355,271.503,can1  100  [03]  30 75 00
2025-10-11T14:38:32.984514,271.509,can1  100  [03]  30 75 00
2025-10-11T14:38:35.071148,273.595,can1  110  [02]  A0 0F
2025-10-11T14:38:35.075736,273.600,can1  110  [02]  A0 0F
2025-10-11T14:38:35.078854,273.603,can1  100  [03]  40 9C 00
2025-10-11T14:38:35.081916,273.606,can1  100  [03]  40 9C 00
2025-10-11T14:38:37.617168,276.141,can1  110  [02]  88 13
2025-10-11T14:38:37.619294,276.143,can1  110  [02]  88 13
2025-10-11T14:38:37.621383,276.146,can1  100  [03]  50 C3 00
2025-10-11T14:38:37.624511,276.149,can1  100  [03]  50 C3 00
2025-10-11T14:38:39.811196,278.335,can1  110  [02]  70 17
2025-10-11T14:38:39.813392,278.338,can1  110  [02]  70 17
2025-10-11T14:38:39.817238,278.341,can1  100  [03]  60 EA 00
2025-10-11T14:38:39.819389,278.344,can1  100  [03]  60 EA 00
2025-10-11T14:38:41.992819,280.517,can1  110  [02]  58 1B
2025-10-11T14:38:41.995497,280.520,can1  110  [02]  58 1B
2025-10-11T14:38:41.998780,280.523,can1  100  [03]  70 11 01
2025-10-11T14:38:42.002057,280.526,can1  100  [03]  70 11 01
2025-10-11T14:38:44.298492,282.823,can1  110  [02]  40 1F
2025-10-11T14:38:44.300424,282.825,can1  110  [02]  40 1F
2025-10-11T14:38:44.302555,282.827,can1  100  [03]  80 38 01
2025-10-11T14:38:44.305476,282.830,can1  100  [03]  80 38 01
2025-10-11T14:38:46.385588,284.910,can1  110  [02]  28 23
2025-10-11T14:38:46.388256,284.912,can1  110  [02]  28 23
2025-10-11T14:38:46.390514,284.915,can1  100  [03]  90 5F 01
2025-10-11T14:38:46.394848,284.919,can1  100  [03]  90 5F 01
2025-10-11T14:38:51.333313,289.857,can1  120  [04]  80 C3 C9 01
2025-10-11T14:38:51.335959,289.860,can1  120  [04]  80 C3 C9 01
2025-10-11T14:38:51.338734,289.863,can1  110  [02]  B8 0B
2025-10-11T14:38:51.340969,289.865,can1  110  [02]  B8 0B
2025-10-11T14:38:52.317092,290.841,can1  100  [03]  30 75 00
2025-10-11T14:38:52.319175,290.843,can1  100  [03]  30 75 00
2025-10-11T14:38:53.402337,291.926,can1  120  [04]  00 5A 62 02
2025-10-11T14:38:53.404719,291.929,can1  120  [04]  00 5A 62 02
2025-10-11T14:38:54.053043,292.577,can1  110  [02]  A0 0F
2025-10-11T14:38:54.055158,292.579,can1  110  [02]  A0 0F
2025-10-11T14:38:54.057223,292.581,can1  100  [03]  40 9C 00
2025-10-11T14:38:54.060668,292.585,can1  100  [03]  40 9C 00
2025-10-11T14:38:56.048793,294.573,can1  120  [04]  80 F0 FA 02
2025-10-11T14:38:56.051395,294.576,can1  120  [04]  80 F0 FA 02
2025-10-11T14:38:56.053460,294.578,can1  110  [02]  88 13
2025-10-11T14:38:56.056470,294.581,can1  110  [02]  88 13
2025-10-11T14:38:56.058700,294.583,can1  100  [03]  50 C3 00
2025-10-11T14:38:56.061240,294.585,can1  100  [03]  50 C3 00
2025-10-11T14:38:58.132205,296.656,can1  120  [04]  00 87 93 03
2025-10-11T14:38:58.134244,296.658,can1  120  [04]  00 87 93 03
2025-10-11T14:38:58.136419,296.661,can1  110  [02]  70 17
2025-10-11T14:38:58.139588,296.664,can1  110  [02]  70 17
2025-10-11T14:38:58.679574,297.204,can1  100  [03]  60 EA 00
2025-10-11T14:38:58.681385,297.206,can1  100  [03]  60 EA 00
2025-10-11T14:39:00.566253,299.090,can1  120  [04]  80 1D 2C 04
2025-10-11T14:39:00.569187,299.093,can1  120  [04]  80 1D 2C 04
2025-10-11T14:39:00.571543,299.096,can1  110  [02]  58 1B
2025-10-11T14:39:00.574325,299.098,can1  110  [02]  58 1B
2025-10-11T14:39:00.576412,299.101,can1  100  [03]  70 11 01
2025-10-11T14:39:00.579364,299.103,can1  100  [03]  70 11 01
2025-10-11T14:39:02.769595,301.294,can1  120  [04]  00 B4 C4 04
2025-10-11T14:39:02.771864,301.296,can1  120  [04]  00 B4 C4 04
2025-10-11T14:39:02.774074,301.298,can1  110  [02]  40 1F
2025-10-11T14:39:02.776954,301.301,can1  110  [02]  40 1F
2025-10-11T14:39:02.779119,301.303,can1  100  [03]  80 38 01
2025-10-11T14:39:02.781751,301.306,can1  100  [03]  80 38 01
2025-10-11T14:39:05.154284,303.678,can1  120  [04]  80 4A 5D 05
2025-10-11T14:39:05.156855,303.681,can1  120  [04]  80 4A 5D 05
2025-10-11T14:39:05.159212,303.683,can1  110  [02]  28 23
2025-10-11T14:39:05.161809,303.686,can1  110  [02]  28 23
2025-10-11T14:39:05.164187,303.688,can1  100  [03]  90 5F 01
2025-10-11T14:39:05.167961,303.692,can1  100  [03]  90 5F 01
2025-10-11T14:39:07.133091,305.657,can1  120  [04]  00 B4 C4 04
2025-10-11T14:39:07.135570,305.660,can1  120  [04]  00 B4 C4 04
2025-10-11T14:39:07.138208,305.662,can1  110  [02]  40 1F
2025-10-11T14:39:07.140767,305.665,can1  110  [02]  40 1F
2025-10-11T14:39:07.684296,306.208,can1  100  [03]  80 38 01
2025-10-11T14:39:07.686389,306.211,can1  100  [03]  80 38 01
2025-10-11T14:39:09.875460,308.400,can1  120  [04]  80 1D 2C 04
2025-10-11T14:39:09.877772,308.402,can1  120  [04]  80 1D 2C 04
2025-10-11T14:39:09.880332,308.404,can1  110  [02]  58 1B
2025-10-11T14:39:09.883255,308.407,can1  110  [02]  58 1B
2025-10-11T14:39:09.886104,308.410,can1  100  [03]  70 11 01
2025-10-11T14:39:09.888604,308.413,can1  100  [03]  70 11 01
2025-10-11T14:39:11.850115,310.374,can1  120  [04]  00 87 93 03
2025-10-11T14:39:11.852458,310.377,can1  120  [04]  00 87 93 03
2025-10-11T14:39:12.421247,310.945,can1  110  [02]  70 17
2025-10-11T14:39:12.423154,310.947,can1  110  [02]  70 17
2025-10-11T14:39:12.424919,310.949,can1  100  [03]  60 EA 00
2025-10-11T14:39:12.426874,310.951,can1  100  [03]  60 EA 00
2025-10-11T14:39:14.499648,313.024,can1  120  [04]  80 F0 FA 02
2025-10-11T14:39:14.502061,313.026,can1  120  [04]  80 F0 FA 02
2025-10-11T14:39:14.504294,313.028,can1  110  [02]  88 13
2025-10-11T14:39:14.507074,313.031,can1  110  [02]  88 13
2025-10-11T14:39:14.509497,313.034,can1  100  [03]  50 C3 00
2025-10-11T14:39:14.512741,313.037,can1  100  [03]  50 C3 00
2025-10-11T14:39:16.603218,315.127,can1  120  [04]  00 5A 62 02
2025-10-11T14:39:16.605567,315.130,can1  120  [04]  00 5A 62 02
2025-10-11T14:39:16.608164,315.132,can1  110  [02]  A0 0F
2025-10-11T14:39:16.610829,315.135,can1  110  [02]  A0 0F
2025-10-11T14:39:16.613244,315.137,can1  100  [03]  40 9C 00
2025-10-11T14:39:16.615989,315.140,can1  100  [03]  40 9C 00
2025-10-11T14:39:19.234945,317.759,can1  120  [04]  80 C3 C9 01
2025-10-11T14:39:19.237627,317.762,can1  120  [04]  80 C3 C9 01
2025-10-11T14:39:19.241573,317.766,can1  110  [02]  B8 0B
2025-10-11T14:39:19.244104,317.768,can1  110  [02]  B8 0B
2025-10-11T14:39:19.247158,317.771,can1  100  [03]  30 75 00
2025-10-11T14:39:19.249630,317.774,can1  100  [03]  30 75 00
2025-10-11T14:39:21.439643,319.964,can1  120  [04]  00 2D 31 01
2025-10-11T14:39:21.441812,319.966,can1  120  [04]  00 2D 31 01
2025-10-11T14:39:21.443978,319.968,can1  110  [02]  D0 07
2025-10-11T14:39:21.447107,319.971,can1  110  [02]  D0 07
2025-10-11T14:39:21.449579,319.974,can1  100  [03]  20 4E 00
2025-10-11T14:39:21.452341,319.976,can1  100  [03]  20 4E 00
2025-10-11T14:39:23.630554,322.155,can1  120  [04]  80 96 98 00
2025-10-11T14:39:23.633004,322.157,can1  120  [04]  80 96 98 00
2025-10-11T14:39:23.635352,322.159,can1  110  [02]  E8 03
2025-10-11T14:39:23.638888,322.163,can1  110  [02]  E8 03
2025-10-11T14:39:23.642023,322.166,can1  100  [03]  10 27 00
2025-10-11T14:39:23.644435,322.169,can1  100  [03]  10 27 00
2025-10-11T14:39:25.721316,324.245,can1  120  [04]  00 2D 31 01
2025-10-11T14:39:25.724114,324.248,can1  120  [04]  00 2D 31 01
2025-10-11T14:39:25.727057,324.251,can1  110  [02]  D0 07
2025-10-11T14:39:25.729943,324.254,can1  110  [02]  D0 07
2025-10-11T14:39:26.260749,324.785,can1  100  [03]  20 4E 00
2025-10-11T14:39:26.263197,324.787,can1  100  [03]  20 4E 00
2025-10-11T14:39:27.803562,326.328,can1  120  [04]  80 C3 C9 01
2025-10-11T14:39:27.805515,326.330,can1  120  [04]  80 C3 C9 01
2025-10-11T14:39:28.355241,326.879,can1  110  [02]  B8 0B
2025-10-11T14:39:28.357884,326.882,can1  110  [02]  B8 0B
2025-10-11T14:39:28.360213,326.884,can1  100  [03]  30 75 00
2025-10-11T14:39:28.363167,326.887,can1  100  [03]  30 75 00
2025-10-11T14:39:30.548549,329.073,can1  120  [04]  00 5A 62 02
2025-10-11T14:39:30.551755,329.076,can1  120  [04]  00 5A 62 02
2025-10-11T14:39:30.555075,329.079,can1  110  [02]  A0 0F
2025-10-11T14:39:30.558176,329.082,can1  110  [02]  A0 0F
2025-10-11T14:39:30.560960,329.085,can1  100  [03]  40 9C 00
2025-10-11T14:39:30.563422,329.088,can1  100  [03]  40 9C 00
2025-10-11T14:39:32.518383,331.042,can1  120  [04]  80 F0 FA 02
2025-10-11T14:39:32.520761,331.045,can1  120  [04]  80 F0 FA 02
2025-10-11T14:39:33.055306,331.579,can1  110  [02]  88 13
2025-10-11T14:39:33.057512,331.582,can1  110  [02]  88 13
2025-10-11T14:39:33.059396,331.584,can1  100  [03]  50 C3 00
2025-10-11T14:39:33.062311,331.586,can1  100  [03]  50 C3 00
2025-10-11T14:39:34.920742,333.445,can1  120  [04]  00 87 93 03
2025-10-11T14:39:34.922734,333.447,can1  120  [04]  00 87 93 03
2025-10-11T14:39:34.926226,333.450,can1  110  [02]  70 17
2025-10-11T14:39:34.929053,333.453,can1  110  [02]  70 17
2025-10-11T14:39:35.917288,334.441,can1  100  [03]  60 EA 00
2025-10-11T14:39:35.921189,334.445,can1  100  [03]  60 EA 00
2025-10-11T14:39:37.553555,336.078,can1  120  [04]  80 1D 2C 04
2025-10-11T14:39:37.555625,336.080,can1  120  [04]  80 1D 2C 04
2025-10-11T14:39:37.557730,336.082,can1  110  [02]  58 1B
2025-10-11T14:39:37.560267,336.084,can1  110  [02]  58 1B
2025-10-11T14:39:37.562510,336.087,can1  100  [03]  70 11 01
2025-10-11T14:39:37.565488,336.090,can1  100  [03]  70 11 01
2025-10-11T14:39:39.631185,338.155,can1  120  [04]  00 B4 C4 04
2025-10-11T14:39:39.633699,338.158,can1  120  [04]  00 B4 C4 04
2025-10-11T14:39:39.636809,338.161,can1  110  [02]  40 1F
2025-10-11T14:39:39.639662,338.164,can1  110  [02]  40 1F
2025-10-11T14:39:39.642230,338.166,can1  100  [03]  80 38 01
2025-10-11T14:39:39.645234,338.169,can1  100  [03]  80 38 01
2025-10-11T14:39:42.592840,341.117,can1  120  [04]  80 4A 5D 05
2025-10-11T14:39:42.595361,341.119,can1  120  [04]  80 4A 5D 05
2025-10-11T14:39:42.598290,341.122,can1  110  [02]  28 23
2025-10-11T14:39:42.601494,341.126,can1  110  [02]  28 23
2025-10-11T14:39:42.605145,341.129,can1  100  [03]  90 5F 01
2025-10-11T14:39:42.607809,341.132,can1  100  [03]  90 5F 01
2025-10-11T14:39:44.561179,343.085,can1  120  [04]  00 B4 C4 04
2025-10-11T14:39:44.563844,343.088,can1  120  [04]  00 B4 C4 04
2025-10-11T14:39:44.568342,343.092,can1  110  [02]  40 1F
2025-10-11T14:39:44.571352,343.095,can1  110  [02]  40 1F
2025-10-11T14:39:44.574181,343.098,can1  100  [03]  80 38 01
2025-10-11T14:39:44.576814,343.101,can1  100  [03]  80 38 01
2025-10-11T14:39:46.631529,345.156,can1  120  [04]  80 1D 2C 04
2025-10-11T14:39:46.633952,345.158,can1  120  [04]  80 1D 2C 04
2025-10-11T14:39:46.636590,345.161,can1  110  [02]  58 1B
2025-10-11T14:39:46.640089,345.164,can1  110  [02]  58 1B
2025-10-11T14:39:46.642706,345.167,can1  100  [03]  70 11 01
2025-10-11T14:39:46.645666,345.170,can1  100  [03]  70 11 01
2025-10-11T14:39:48.819964,347.344,can1  120  [04]  00 87 93 03
2025-10-11T14:39:48.822075,347.346,can1  120  [04]  00 87 93 03
2025-10-11T14:39:48.825785,347.350,can1  110  [02]  70 17
2025-10-11T14:39:48.828870,347.353,can1  110  [02]  70 17
2025-10-11T14:39:48.832256,347.356,can1  100  [03]  60 EA 00
2025-10-11T14:39:48.836377,347.360,can1  100  [03]  60 EA 00
2025-10-11T14:39:50.900236,349.424,can1  120  [04]  80 F0 FA 02
2025-10-11T14:39:50.903138,349.427,can1  120  [04]  80 F0 FA 02
2025-10-11T14:39:51.883497,350.408,can1  110  [02]  88 13
2025-10-11T14:39:51.886755,350.411,can1  110  [02]  88 13
2025-10-11T14:39:51.890318,350.414,can1  100  [03]  50 C3 00
2025-10-11T14:39:51.894260,350.418,can1  100  [03]  50 C3 00
2025-10-11T14:39:53.969311,352.493,can1  120  [04]  00 5A 62 02
2025-10-11T14:39:53.972017,352.496,can1  120  [04]  00 5A 62 02
2025-10-11T14:39:53.974750,352.499,can1  110  [02]  A0 0F
2025-10-11T14:39:53.979541,352.504,can1  110  [02]  A0 0F
2025-10-11T14:39:53.982838,352.507,can1  100  [03]  40 9C 00
2025-10-11T14:39:53.986696,352.511,can1  100  [03]  40 9C 00
2025-10-11T14:39:55.827271,354.351,can1  120  [04]  80 C3 C9 01
2025-10-11T14:39:55.830212,354.354,can1  120  [04]  80 C3 C9 01
2025-10-11T14:39:55.832604,354.357,can1  110  [02]  B8 0B
2025-10-11T14:39:55.835796,354.360,can1  110  [02]  B8 0B
2025-10-11T14:39:55.838823,354.363,can1  100  [03]  30 75 00
2025-10-11T14:39:55.842156,354.366,can1  100  [03]  30 75 00
2025-10-11T14:39:57.803870,356.328,can1  120  [04]  00 2D 31 01
2025-10-11T14:39:57.806366,356.330,can1  120  [04]  00 2D 31 01
2025-10-11T14:39:57.809030,356.333,can1  110  [02]  D0 07
2025-10-11T14:39:57.812287,356.336,can1  110  [02]  D0 07
2025-10-11T14:39:58.790309,357.314,can1  100  [03]  20 4E 00
2025-10-11T14:39:58.794128,357.318,can1  100  [03]  20 4E 00
2025-10-11T14:40:00.763862,359.288,can1  120  [04]  80 96 98 00
2025-10-11T14:40:00.766059,359.290,can1  120  [04]  80 96 98 00
2025-10-11T14:40:00.768572,359.293,can1  110  [02]  E8 03
2025-10-11T14:40:00.771647,359.296,can1  110  [02]  E8 03
2025-10-11T14:40:00.774182,359.298,can1  100  [03]  10 27 00
2025-10-11T14:40:00.777510,359.302,can1  100  [03]  10 27 00
2025-10-11T14:40:02.731049,361.255,can1  120  [04]  00 2D 31 01
2025-10-11T14:40:02.733874,361.258,can1  120  [04]  00 2D 31 01
2025-10-11T14:40:02.738866,361.263,can1  110  [02]  D0 07
2025-10-11T14:40:02.744249,361.268,can1  110  [02]  D0 07
2025-10-11T14:40:02.748144,361.272,can1  100  [03]  20 4E 00
2025-10-11T14:40:02.754375,361.278,can1  100  [03]  20 4E 00
2025-10-11T14:40:04.914257,363.438,can1  120  [04]  80 C3 C9 01
2025-10-11T14:40:04.918444,363.443,can1  120  [04]  80 C3 C9 01
2025-10-11T14:40:04.923296,363.447,can1  110  [02]  B8 0B
2025-10-11T14:40:04.928076,363.452,can1  110  [02]  B8 0B
2025-10-11T14:40:04.931099,363.455,can1  100  [03]  30 75 00
2025-10-11T14:40:04.934424,363.459,can1  100  [03]  30 75 00
2025-10-11T14:40:07.012703,365.537,can1  120  [04]  00 5A 62 02
2025-10-11T14:40:07.015164,365.539,can1  120  [04]  00 5A 62 02
2025-10-11T14:40:07.017719,365.542,can1  110  [02]  A0 0F
2025-10-11T14:40:07.022271,365.546,can1  110  [02]  A0 0F
2025-10-11T14:40:08.003551,366.528,can1  100  [03]  40 9C 00
2025-10-11T14:40:08.006238,366.530,can1  100  [03]  40 9C 00
2025-10-11T14:40:09.959512,368.484,can1  120  [04]  80 F0 FA 02
2025-10-11T14:40:09.962234,368.486,can1  120  [04]  80 F0 FA 02
2025-10-11T14:40:09.964897,368.489,can1  110  [02]  88 13
2025-10-11T14:40:09.968160,368.492,can1  110  [02]  88 13
2025-10-11T14:40:09.971279,368.495,can1  100  [03]  50 C3 00
2025-10-11T14:40:09.974053,368.498,can1  100  [03]  50 C3 00
2025-10-11T14:40:11.949646,370.474,can1  120  [04]  00 87 93 03
2025-10-11T14:40:11.953118,370.477,can1  120  [04]  00 87 93 03
2025-10-11T14:40:11.955986,370.480,can1  110  [02]  70 17
2025-10-11T14:40:11.959193,370.483,can1  110  [02]  70 17
2025-10-11T14:40:11.962644,370.487,can1  100  [03]  60 EA 00
2025-10-11T14:40:11.966708,370.491,can1  100  [03]  60 EA 00
2025-10-11T14:40:14.805429,373.330,can1  120  [04]  80 1D 2C 04
2025-10-11T14:40:14.808710,373.333,can1  120  [04]  80 1D 2C 04
2025-10-11T14:40:14.811549,373.336,can1  110  [02]  58 1B
2025-10-11T14:40:14.823441,373.348,can1  110  [02]  58 1B
2025-10-11T14:40:14.881212,373.405,can1  100  [03]  70 11 01
2025-10-11T14:40:14.884477,373.409,can1  100  [03]  70 11 01
2025-10-11T14:40:16.885196,375.409,can1  120  [04]  00 B4 C4 04
2025-10-11T14:40:16.887841,375.412,can1  120  [04]  00 B4 C4 04
2025-10-11T14:40:16.890815,375.415,can1  110  [02]  40 1F
2025-10-11T14:40:16.894798,375.419,can1  110  [02]  40 1F
2025-10-11T14:40:16.898317,375.422,can1  100  [03]  80 38 01
2025-10-11T14:40:16.903318,375.427,can1  100  [03]  80 38 01
2025-10-11T14:40:19.069731,377.594,can1  120  [04]  80 4A 5D 05
2025-10-11T14:40:19.072544,377.597,can1  120  [04]  80 4A 5D 05
2025-10-11T14:40:19.076437,377.601,can1  110  [02]  28 23
2025-10-11T14:40:19.079565,377.604,can1  110  [02]  28 23
2025-10-11T14:40:19.083200,377.607,can1  100  [03]  90 5F 01
2025-10-11T14:40:19.086478,377.611,can1  100  [03]  90 5F 01
2025-10-11T14:40:21.051937,379.576,can1  120  [04]  00 B4 C4 04
2025-10-11T14:40:21.054627,379.579,can1  120  [04]  00 B4 C4 04
2025-10-11T14:40:21.057986,379.582,can1  110  [02]  40 1F
2025-10-11T14:40:21.060765,379.585,can1  110  [02]  40 1F
2025-10-11T14:40:22.035783,380.560,can1  100  [03]  80 38 01
2025-10-11T14:40:22.038370,380.562,can1  100  [03]  80 38 01
2025-10-11T14:40:23.339486,381.864,can1  120  [04]  80 1D 2C 04
2025-10-11T14:40:23.342996,381.867,can1  120  [04]  80 1D 2C 04
2025-10-11T14:40:24.319031,382.843,can1  110  [02]  58 1B
2025-10-11T14:40:24.322408,382.847,can1  110  [02]  58 1B
2025-10-11T14:40:24.325634,382.850,can1  100  [03]  70 11 01
2025-10-11T14:40:24.328792,382.853,can1  100  [03]  70 11 01
2025-10-11T14:40:25.785267,384.309,can1  120  [04]  00 87 93 03
2025-10-11T14:40:25.787838,384.312,can1  120  [04]  00 87 93 03
2025-10-11T14:40:25.790102,384.314,can1  110  [02]  70 17
2025-10-11T14:40:25.792825,384.317,can1  110  [02]  70 17
2025-10-11T14:40:25.795139,384.319,can1  100  [03]  60 EA 00
2025-10-11T14:40:25.798151,384.322,can1  100  [03]  60 EA 00
2025-10-11T14:40:27.985093,386.509,can1  120  [04]  80 F0 FA 02
2025-10-11T14:40:27.988288,386.512,can1  120  [04]  80 F0 FA 02
2025-10-11T14:40:27.990672,386.515,can1  110  [02]  88 13
2025-10-11T14:40:27.993942,386.518,can1  110  [02]  88 13
2025-10-11T14:40:28.538477,387.063,can1  100  [03]  50 C3 00
2025-10-11T14:40:28.540980,387.065,can1  100  [03]  50 C3 00
2025-10-11T14:40:30.188562,388.713,can1  120  [04]  00 5A 62 02
2025-10-11T14:40:30.191180,388.715,can1  120  [04]  00 5A 62 02
2025-10-11T14:40:31.179182,389.703,can1  110  [02]  A0 0F
2025-10-11T14:40:31.181766,389.706,can1  110  [02]  A0 0F
2025-10-11T14:40:31.185436,389.710,can1  100  [03]  40 9C 00
2025-10-11T14:40:31.188211,389.712,can1  100  [03]  40 9C 00
2025-10-11T14:40:33.265364,391.789,can1  120  [04]  80 C3 C9 01
2025-10-11T14:40:33.267883,391.792,can1  120  [04]  80 C3 C9 01
2025-10-11T14:40:33.271066,391.795,can1  110  [02]  B8 0B
2025-10-11T14:40:33.274332,391.798,can1  110  [02]  B8 0B
2025-10-11T14:40:33.277380,391.801,can1  100  [03]  30 75 00
2025-10-11T14:40:33.279847,391.804,can1  100  [03]  30 75 00
2025-10-11T14:40:35.778083,394.302,can1  120  [04]  00 2D 31 01
2025-10-11T14:40:35.780672,394.305,can1  120  [04]  00 2D 31 01
2025-10-11T14:40:35.783763,394.308,can1  110  [02]  D0 07
2025-10-11T14:40:35.788143,394.312,can1  110  [02]  D0 07
2025-10-11T14:40:35.792347,394.316,can1  100  [03]  20 4E 00
2025-10-11T14:40:35.795538,394.320,can1  100  [03]  20 4E 00
2025-10-11T14:40:38.002197,396.526,can1  120  [04]  80 96 98 00
2025-10-11T14:40:38.004617,396.529,can1  120  [04]  80 96 98 00
2025-10-11T14:40:38.007026,396.531,can1  110  [02]  E8 03
2025-10-11T14:40:38.010538,396.535,can1  110  [02]  E8 03
2025-10-11T14:40:38.012915,396.537,can1  100  [03]  10 27 00
2025-10-11T14:40:38.016235,396.540,can1  100  [03]  10 27 00
2025-10-11T14:40:40.071589,398.596,can1  120  [04]  00 2D 31 01
2025-10-11T14:40:40.074204,398.598,can1  120  [04]  00 2D 31 01
2025-10-11T14:40:40.076928,398.601,can1  110  [02]  D0 07
2025-10-11T14:40:40.080788,398.605,can1  110  [02]  D0 07
2025-10-11T14:40:40.084673,398.609,can1  100  [03]  20 4E 00
2025-10-11T14:40:40.089509,398.614,can1  100  [03]  20 4E 00
2025-10-11T14:40:45.004226,403.528,can1  110  [02]  B8 0B
2025-10-11T14:40:45.007619,403.532,can1  110  [02]  B8 0B
2025-10-11T14:40:45.010650,403.535,can1  100  [03]  30 75 00
2025-10-11T14:40:45.013862,403.538,can1  100  [03]  30 75 00
2025-10-11T14:40:45.650558,404.175,can1  120  [04]  80 C3 C9 01
2025-10-11T14:40:45.653332,404.177,can1  120  [04]  80 C3 C9 01
2025-10-11T14:40:47.185342,405.709,can1  110  [02]  A0 0F
2025-10-11T14:40:47.188188,405.712,can1  110  [02]  A0 0F
2025-10-11T14:40:47.190542,405.715,can1  100  [03]  40 9C 00
2025-10-11T14:40:47.194318,405.718,can1  100  [03]  40 9C 00
2025-10-11T14:40:47.732613,406.257,can1  120  [04]  00 5A 62 02
2025-10-11T14:40:47.735271,406.259,can1  120  [04]  00 5A 62 02
2025-10-11T14:40:49.586508,408.111,can1  110  [02]  88 13
2025-10-11T14:40:49.589377,408.113,can1  110  [02]  88 13
2025-10-11T14:40:49.591915,408.116,can1  100  [03]  50 C3 00
2025-10-11T14:40:49.595281,408.119,can1  100  [03]  50 C3 00
2025-10-11T14:40:49.598158,408.122,can1  120  [04]  80 F0 FA 02
2025-10-11T14:40:49.601227,408.125,can1  120  [04]  80 F0 FA 02
2025-10-11T14:40:51.803536,410.328,can1  110  [02]  70 17
2025-10-11T14:40:51.805823,410.330,can1  110  [02]  70 17
2025-10-11T14:40:51.807969,410.332,can1  100  [03]  60 EA 00
2025-10-11T14:40:51.811010,410.335,can1  100  [03]  60 EA 00
2025-10-11T14:40:52.350363,410.874,can1  120  [04]  00 87 93 03
2025-10-11T14:40:52.353042,410.877,can1  120  [04]  00 87 93 03
2025-10-11T14:40:54.219852,412.744,can1  110  [02]  58 1B
2025-10-11T14:40:54.223032,412.747,can1  110  [02]  58 1B
2025-10-11T14:40:54.226486,412.751,can1  100  [03]  70 11 01
