Timestamp,Elapsed_Time_s,CAN_Message
2025-11-07T22:16:59.218038,0.818,can0  204  [16]  6E 23 50 46 50 46 50 46 28 23 00 00 00 00 00 00
2025-11-07T22:16:59.218556,0.818,can0  204  [16]  6E 23 50 46 50 46 50 46 28 23 00 00 00 00 00 00
2025-11-07T22:16:59.218893,0.819,can0  206  [16]  AF 0C C9 07 AB 0C C5 E1 DE 07 DB 0C B7 0C 00 00
2025-11-07T22:16:59.730892,1.331,can0  204  [16]  6E 23 50 46 50 46 50 46 28 23 00 00 00 00 00 00
2025-11-07T22:16:59.731468,1.331,can0  204  [16]  6E 23 50 46 50 46 50 46 28 23 00 00 00 00 00 00
2025-11-07T22:16:59.731891,1.332,can0  204  [16]  6E 23 50 46 50 46 50 46 28 23 00 00 00 00 00 00
2025-11-07T22:16:59.732319,1.332,can0  206  [16]  AF 0C C9 07 AF 0C B1 E0 DE 07 CF 0C BB 0C 00 00
2025-11-07T22:16:59.732703,1.333,can0  204  [16]  6E 23 50 46 50 46 50 46 28 23 00 00 00 00 00 00
2025-11-07T22:16:59.733062,1.333,can0  204  [16]  6E 23 50 46 50 46 50 46 28 23 00 00 00 00 00 00
2025-11-07T22:16:59.733451,1.333,can0  204  [16]  6E 23 50 46 50 46 50 46 28 23 00 00 00 00 00 00
2025-11-07T22:16:59.733864,1.334,can0  206  [16]  BF 0C D1 07 AB 0C DA DC E3 07 D3 0C AF 0C 00 00
2025-11-07T22:16:59.734253,1.334,can0  204  [16]  6E 23 50 46 50 46 50 46 28 23 00 00 00 00 00 00
2025-11-07T22:16:59.735607,1.335,can0  204  [16]  6E 23 50 46 50 46 50 46 28 23 00 00 00 00 00 00
2025-11-07T22:16:59.735999,1.336,can0  204  [16]  6E 23 50 46 50 46 50 46 28 23 00 00 00 00 00 00
2025-11-07T22:16:59.737158,1.337,can0  206  [16]  C7 0C CD 07 A7 0C 99 C6 DE 07 D3 0C AB 0C 00 00
2025-11-07T22:16:59.737212,1.337,can0  204  [16]  6E 23 50 46 50 46 50 46 28 23 00 00 00 00 00 00
2025-11-07T22:16:59.737350,1.337,can0  204  [16]  6E 23 50 46 50 46 50 46 28 23 00 00 00 00 00 00
2025-11-07T22:17:00.179817,1.780,can0  204  [16]  6E 23 50 46 50 46 50 46 28 23 00 00 00 00 00 00
2025-11-07T22:17:00.180615,1.780,can0  206  [16]  B7 0C C9 07 B3 0C A0 E2 E0 07 CF 0C B3 0C 00 00
2025-11-07T22:17:00.181017,1.781,can0  204  [16]  6E 23 50 46 50 46 50 46 28 23 00 00 00 00 00 00
2025-11-07T22:17:00.181367,1.781,can0  204  [16]  6E 23 50 46 50 46 50 46 28 23 00 00 00 00 00 00
2025-11-07T22:17:00.181741,1.782,can0  204  [16]  6E 23 50 46 50 46 50 46 28 23 00 00 00 00 00 00
2025-11-07T22:17:00.182119,1.782,can0  206  [16]  B7 0C CB 07 AF 0C DA DC DE 07 EC 0C B3 0C 00 00
2025-11-07T22:17:00.182489,1.782,can0  204  [16]  6E 23 50 46 50 46 50 46 28 23 00 00 00 00 00 00
2025-11-07T22:17:00.182842,1.783,can0  204  [16]  6E 23 50 46 50 46 50 46 28 23 00 00 00 00 00 00
2025-11-07T22:17:00.183197,1.783,can0  204  [16]  6E 23 50 46 50 46 50 46 28 23 00 00 00 00 00 00
2025-11-07T22:17:00.665117,2.265,can0  206  [16]  AB 0C CD 07 AF 0C 99 C6 DE 07 CF 0C BF 0C 00 00
2025-11-07T22:17:00.665631,2.265,can0  204  [16]  6E 23 50 46 50 46 50 46 28 23 00 00 00 00 00 00
2025-11-07T22:17:00.666737,2.267,can0  204  [16]  6E 23 50 46 50 46 50 46 28 23 00 00 00 00 00 00
2025-11-07T22:17:00.666807,2.267,can0  204  [16]  6E 23 50 46 50 46 50 46 28 23 00 00 00 00 00 00
2025-11-07T22:17:00.666838,2.267,can0  206  [16]  B3 0C C9 07 AF 0C B1 E0 DC 07 C7 0C B7 0C 00 00
2025-11-07T22:17:00.667170,2.267,can0  204  [16]  6E 23 50 46 50 46 50 46 28 23 00 00 00 00 00 00
2025-11-07T22:17:00.667795,2.268,can0  204  [16]  6E 23 50 46 50 46 50 46 28 23 00 00 00 00 00 00
2025-11-07T22:17:00.668242,2.268,can0  204  [16]  6E 23 50 46 50 46 50 46 28 23 00 00 00 00 00 00
2025-11-07T22:17:00.668758,2.269,can0  206  [16]  B3 0C CB 07 AF 0C 99 C6 E0 07 CF 0C BB 0C 00 00
2025-11-07T22:17:00.669193,2.269,can0  204  [16]  6E 23 50 46 50 46 50 46 28 23 00 00 00 00 00 00
2025-11-07T22:17:00.669618,2.269,can0  204  [16]  6E 23 50 46 50 46 50 46 28 23 00 00 00 00 00 00
2025-11-07T22:17:00.670257,2.270,can0  206  [16]  BB 0C C9 07 AB 0C DA DC E5 07 DB 0C B3 0C 00 00
2025-11-07T22:17:00.676840,2.277,can0  204  [16]  6E 23 50 46 50 46 50 46 28 23 00 00 00 00 00 00
2025-11-07T22:17:01.133573,2.733,can0  204  [16]  6E 23 50 46 50 46 50 46 28 23 00 00 00 00 00 00
2025-11-07T22:17:01.134241,2.734,can0  204  [16]  6E 23 50 46 50 46 50 46 28 23 00 00 00 00 00 00
2025-11-07T22:17:01.142257,2.742,can0  206  [16]  B3 0C CB 07 AF 0C DA DC E3 07 D3 0C B7 0C 00 00
2025-11-07T22:17:01.143719,2.744,can0  204  [16]  6E 23 50 46 50 46 50 46 28 23 00 00 00 00 00 00
2025-11-07T22:17:01.143769,2.744,can0  204  [16]  6E 23 50 46 50 46 50 46 28 23 00 00 00 00 00 00
2025-11-07T22:17:01.144366,2.744,can0  204  [16]  6E 23 50 46 50 46 50 46 28 23 00 00 00 00 00 00
2025-11-07T22:17:01.144898,2.745,can0  206  [16]  AB 0C CD 07 AF 0C DA DC E0 07 D3 0C BF 0C 00 00
2025-11-07T22:17:01.145579,2.745,can0  204  [16]  6E 23 50 46 50 46 50 46 28 23 00 00 00 00 00 00
2025-11-07T22:17:01.146928,2.747,can0  204  [16]  6E 23 50 46 50 46 50 46 28 23 00 00 00 00 00 00
2025-11-07T22:17:01.147686,2.748,can0  204  [16]  6E 23 50 46 50 46 50 46 28 23 00 00 00 00 00 00
2025-11-07T22:17:01.148511,2.748,can0  206  [16]  BB 0C CD 07 B3 0C DA DC E5 07 D7 0C AF 0C 00 00
2025-11-07T22:17:01.148946,2.749,can0  204  [16]  6E 23 50 46 50 46 50 46 28 23 00 00 00 00 00 00
2025-11-07T22:17:01.680929,3.281,can0  204  [16]  6E 23 50 46 50 46 50 46 28 23 00 00 00 00 00 00
2025-11-07T22:17:01.681474,3.281,can0  204  [16]  6E 23 50 46 50 46 50 46 28 23 00 00 00 00 00 00
2025-11-07T22:17:01.681979,3.282,can0  206  [16]  BB 0C CB 07 AF 0C 3A DF E0 07 B7 0C B3 0C 00 00
2025-11-07T22:17:01.682342,3.282,can0  204  [16]  6E 23 50 46 50 46 50 46 28 23 00 00 00 00 00 00
2025-11-07T22:17:01.682695,3.283,can0  204  [16]  6E 23 50 46 50 46 50 46 28 23 00 00 00 00 00 00
2025-11-07T22:17:01.683411,3.283,can0  204  [16]  6E 23 50 46 50 46 50 46 28 23 00 00 00 00 00 00
2025-11-07T22:17:01.683443,3.283,can0  206  [16]  C7 0C CB 07 A3 0C 3A DF E0 07 D7 0C AF 0C 00 00
2025-11-07T22:17:01.683784,3.284,can0  204  [16]  6E 23 50 46 50 46 50 46 28 23 00 00 00 00 00 00
2025-11-07T22:17:01.684150,3.284,can0  204  [16]  6E 23 50 46 50 46 50 46 28 23 00 00 00 00 00 00
2025-11-07T22:17:01.684520,3.284,can0  204  [16]  6E 23 50 46 50 46 50 46 28 23 00 00 00 00 00 00
2025-11-07T22:17:01.684902,3.285,can0  206  [16]  B7 0C CB 07 A7 0C DA DC E0 07 D7 0C BB 0C 00 00
2025-11-07T22:17:02.083853,3.684,can0  204  [16]  6E 23 50 46 50 46 50 46 28 23 00 00 00 00 00 00
2025-11-07T22:17:02.084479,3.684,can0  204  [16]  6E 23 50 46 50 46 50 46 28 23 00 00 00 00 00 00
2025-11-07T22:17:02.085065,3.685,can0  204  [16]  6E 23 50 46 50 46 50 46 28 23 00 00 00 00 00 00
2025-11-07T22:17:02.085539,3.685,can0  206  [16]  B3 0C CD 07 B3 0C 3A DF E0 07 CF 0C B7 0C 00 00
2025-11-07T22:17:02.085931,3.686,can0  204  [16]  6E 23 50 46 50 46 50 46 28 23 00 00 00 00 00 00
2025-11-07T22:17:02.086294,3.686,can0  204  [16]  6E 23 50 46 50 46 50 46 28 23 00 00 00 00 00 00
2025-11-07T22:17:02.086663,3.687,can0  204  [16]  6E 23 50 46 50 46 50 46 28 23 00 00 00 00 00 00
2025-11-07T22:17:02.087034,3.687,can0  206  [16]  BF 0C C9 07 A7 0C 99 C6 DC 07 E8 0C B3 0C 00 00
2025-11-07T22:17:02.087478,3.687,can0  204  [16]  6E 23 50 46 50 46 50 46 28 23 00 00 00 00 00 00
2025-11-07T22:17:02.088088,3.688,can0  204  [16]  6E 23 50 46 50 46 50 46 28 23 00 00 00 00 00 00
2025-11-07T22:17:02.518348,4.118,can0  204  [16]  6E 23 50 46 50 46 50 46 28 23 00 00 00 00 00 00
2025-11-07T22:17:02.518943,4.119,can0  206  [16]  BB 0C C9 07 B3 0C DA DC E0 07 DB 0C AF 0C 00 00
2025-11-07T22:17:02.519350,4.119,can0  204  [16]  6E 23 50 46 50 46 50 46 28 23 00 00 00 00 00 00
2025-11-07T22:17:02.519710,4.120,can0  204  [16]  6E 23 50 46 50 46 50 46 28 23 00 00 00 00 00 00
2025-11-07T22:17:02.520076,4.120,can0  204  [16]  6E 23 50 46 50 46 50 46 28 23 00 00 00 00 00 00
2025-11-07T22:17:02.520511,4.120,can0  206  [16]  BB 0C CD 07 AB 0C C5 E1 E3 07 D7 0C B3 0C 00 00
2025-11-07T22:17:02.520913,4.121,can0  204  [16]  6E 23 50 46 50 46 50 46 28 23 00 00 00 00 00 00
2025-11-07T22:17:02.521342,4.121,can0  204  [16]  6E 23 50 46 50 46 50 46 28 23 00 00 00 00 00 00
2025-11-07T22:17:02.521785,4.122,can0  204  [16]  6E 23 50 46 50 46 50 46 28 23 00 00 00 00 00 00
2025-11-07T22:17:02.522218,4.122,can0  206  [16]  BB 0C CB 07 B3 0C B1 E0 DE 07 D3 0C AB 0C 00 00
2025-11-07T22:17:02.936057,4.536,can0  204  [16]  6E 23 50 46 50 46 50 46 28 23 00 00 00 00 00 00
2025-11-07T22:17:02.936123,4.536,can0  204  [16]  6E 23 50 46 50 46 50 46 28 23 00 00 00 00 00 00
2025-11-07T22:17:02.936631,4.536,can0  204  [16]  6E 23 50 46 50 46 50 46 28 23 00 00 00 00 00 00
2025-11-07T22:17:02.937149,4.537,can0  206  [16]  BF 0C CB 07 AB 0C B1 E0 E0 07 D7 0C AF 0C 00 00
2025-11-07T22:17:02.937575,4.537,can0  204  [16]  6E 23 50 46 50 46 50 46 28 23 00 00 00 00 00 00
2025-11-07T22:17:02.937991,4.538,can0  204  [16]  6E 23 50 46 50 46 50 46 28 23 00 00 00 00 00 00
2025-11-07T22:17:02.938356,4.538,can0  204  [16]  6E 23 50 46 50 46 50 46 28 23 00 00 00 00 00 00
2025-11-07T22:17:02.938754,4.539,can0  206  [16]  8B 0C CB 07 A7 0C DA DC E3 07 D3 0C E8 0C 00 00
2025-11-07T22:17:02.939135,4.539,can0  204  [16]  6E 23 50 46 50 46 50 46 28 23 00 00 00 00 00 00
2025-11-07T22:17:02.940461,4.540,can0  204  [16]  6E 23 50 46 50 46 50 46 28 23 00 00 00 00 00 00
2025-11-07T22:17:02.940513,4.540,can0  206  [16]  B7 0C CD 07 AB 0C DA DC E3 07 D3 0C BB 0C 00 00
2025-11-07T22:17:02.940540,4.540,can0  204  [16]  6E 23 50 46 50 46 50 46 28 23 00 00 00 00 00 00
2025-11-07T22:17:03.357577,4.957,can0  204  [16]  6E 23 50 46 50 46 50 46 28 23 00 00 00 00 00 00
2025-11-07T22:17:03.358043,4.958,can0  204  [16]  6E 23 50 46 50 46 50 46 28 23 00 00 00 00 00 00
2025-11-07T22:17:03.358435,4.958,can0  206  [16]  A7 0C CB 07 B3 0C B1 E0 E0 07 CF 0C C3 0C 00 00
2025-11-07T22:17:03.358768,4.959,can0  204  [16]  6E 23 50 46 50 46 50 46 28 23 00 00 00 00 00 00
2025-11-07T22:17:03.359053,4.959,can0  204  [16]  6E 23 50 46 50 46 50 46 28 23 00 00 00 00 00 00
2025-11-07T22:17:03.359322,4.959,can0  204  [16]  6E 23 50 46 50 46 50 46 28 23 00 00 00 00 00 00
2025-11-07T22:17:03.359631,4.959,can0  206  [16]  B3 0C CD 07 AB 0C C5 E1 E0 07 D3 0C BB 0C 00 00
2025-11-07T22:17:03.359955,4.960,can0  204  [16]  6E 23 50 46 50 46 50 46 28 23 00 00 00 00 00 00
2025-11-07T22:17:03.360272,4.960,can0  204  [16]  6E 23 50 46 50 46 50 46 28 23 00 00 00 00 00 00
2025-11-07T22:17:03.785350,5.385,can0  204  [16]  6E 23 50 46 50 46 50 46 28 23 00 00 00 00 00 00
2025-11-07T22:17:03.785837,5.386,can0  206  [16]  BB 0C C9 07 A7 0C 99 C6 E0 07 C7 0C BB 0C 00 00
2025-11-07T22:17:03.786180,5.386,can0  204  [16]  6E 23 50 46 50 46 50 46 28 23 00 00 00 00 00 00
2025-11-07T22:17:03.786479,5.386,can0  204  [16]  6E 23 50 46 50 46 50 46 28 23 00 00 00 00 00 00
2025-11-07T22:17:03.786770,5.387,can0  204  [16]  6E 23 50 46 50 46 50 46 28 23 00 00 00 00 00 00
2025-11-07T22:17:03.787085,5.387,can0  206  [16]  B7 0C CB 07 A7 0C 99 C6 DE 07 D7 0C B7 0C 00 00
2025-11-07T22:17:03.787387,5.387,can0  204  [16]  6E 23 50 46 50 46 50 46 28 23 00 00 00 00 00 00
2025-11-07T22:17:03.787683,5.388,can0  204  [16]  6E 23 50 46 50 46 50 46 28 23 00 00 00 00 00 00
2025-11-07T22:17:03.787991,5.388,can0  204  [16]  6E 23 50 46 50 46 50 46 28 23 00 00 00 00 00 00
2025-11-07T22:17:03.788347,5.388,can0  206  [16]  AB 0C CB 07 AF 0C DA DC DE 07 D3 0C BF 0C 00 00
2025-11-07T22:17:04.207285,5.807,can0  204  [16]  6E 23 50 46 50 46 50 46 28 23 00 00 00 00 00 00
2025-11-07T22:17:04.207775,5.808,can0  204  [16]  6E 23 50 46 50 46 50 46 28 23 00 00 00 00 00 00
2025-11-07T22:17:04.208116,5.808,can0  204  [16]  6E 23 50 46 50 46 50 46 28 23 00 00 00 00 00 00
2025-11-07T22:17:04.208465,5.808,can0  206  [16]  AF 0C CB 07 A7 0C DA DC DC 07 DB 0C BF 0C 00 00
2025-11-07T22:17:04.208773,5.809,can0  204  [16]  6E 23 50 46 50 46 50 46 28 23 00 00 00 00 00 00
2025-11-07T22:17:04.209086,5.809,can0  204  [16]  6E 23 50 46 50 46 50 46 28 23 00 00 00 00 00 00
2025-11-07T22:17:04.209398,5.809,can0  204  [16]  6E 23 50 46 50 46 50 46 28 23 00 00 00 00 00 00
2025-11-07T22:17:04.209731,5.810,can0  206  [16]  BF 0C CB 07 A7 0C DA DC E0 07 D7 0C B3 0C 00 00
2025-11-07T22:17:04.210047,5.810,can0  204  [16]  6E 23 50 46 50 46 50 46 28 23 00 00 00 00 00 00
2025-11-07T22:17:04.649138,6.249,can0  204  [16]  6E 23 50 46 50 46 50 46 28 23 00 00 00 00 00 00
2025-11-07T22:17:04.649210,6.249,can0  204  [16]  6E 23 50 46 50 46 50 46 28 23 00 00 00 00 00 00
2025-11-07T22:17:04.649713,6.250,can0  206  [16]  AF 0C CD 07 AF 0C DA DC E0 07 CF 0C BB 0C 00 00
2025-11-07T22:17:04.650224,6.250,can0  204  [16]  6E 23 50 46 50 46 50 46 28 23 00 00 00 00 00 00
2025-11-07T22:17:04.650730,6.251,can0  204  [16]  6E 23 50 46 50 46 50 46 28 23 00 00 00 00 00 00
2025-11-07T22:17:04.651186,6.251,can0  204  [16]  6E 23 50 46 50 46 50 46 28 23 00 00 00 00 00 00
2025-11-07T22:17:04.651638,6.252,can0  206  [16]  C7 0C CD 07 9F 0C 3A DF DC 07 D7 0C B3 0C 00 00
2025-11-07T22:17:04.652035,6.252,can0  204  [16]  6E 23 50 46 50 46 50 46 28 23 00 00 00 00 00 00
2025-11-07T22:17:04.652350,6.252,can0  204  [16]  6E 23 50 46 50 46 50 46 28 23 00 00 00 00 00 00
2025-11-07T22:17:04.652997,6.253,can0  204  [16]  6E 23 50 46 50 46 50 46 28 23 00 00 00 00 00 00
2025-11-07T22:17:04.653542,6.253,can0  206  [16]  A7 0C AD 07 B3 0C DA DC E0 07 D3 0C BF 0C 00 00
2025-11-07T22:17:04.653731,6.254,can0  204  [16]  6E 23 50 46 50 46 50 46 28 23 00 00 00 00 00 00
2025-11-07T22:17:05.093463,6.693,can0  204  [16]  6E 23 50 46 50 46 50 46 28 23 00 00 00 00 00 00
2025-11-07T22:17:05.093705,6.694,can0  204  [16]  6E 23 50 46 50 46 50 46 28 23 00 00 00 00 00 00
2025-11-07T22:17:05.094362,6.694,can0  206  [16]  B3 0C CD 07 AB 0C DA DC E0 07 D7 0C B7 0C 00 00
2025-11-07T22:17:05.095778,6.696,can0  204  [16]  6E 23 50 46 50 46 50 46 28 23 00 00 00 00 00 00
2025-11-07T22:17:05.095827,6.696,can0  204  [16]  6E 23 50 46 50 46 50 46 28 23 00 00 00 00 00 00
2025-11-07T22:17:05.095880,6.696,can0  204  [16]  6E 23 50 46 50 46 50 46 28 23 00 00 00 00 00 00
2025-11-07T22:17:05.096413,6.696,can0  206  [16]  AB 0C CB 07 B3 0C B1 E0 E0 07 C3 0C C3 0C 00 00
2025-11-07T22:17:05.096886,6.697,can0  204  [16]  6E 23 50 46 50 46 50 46 28 23 00 00 00 00 00 00
2025-11-07T22:17:05.097392,6.697,can0  204  [16]  6E 23 50 46 50 46 50 46 28 23 00 00 00 00 00 00
2025-11-07T22:17:05.748480,7.348,can0  204  [16]  6E 23 50 46 50 46 50 46 28 23 00 00 00 00 00 00
2025-11-07T22:17:05.748553,7.348,can0  206  [16]  AF 0C C9 07 A7 0C B1 E0 DE 07 D7 0C BF 0C 00 00
2025-11-07T22:17:05.748587,7.348,can0  204  [16]  6E 23 50 46 50 46 50 46 28 23 00 00 00 00 00 00
2025-11-07T22:17:05.748900,7.349,can0  204  [16]  6E 23 50 46 50 46 50 46 28 23 00 00 00 00 00 00
2025-11-07T22:17:05.749280,7.349,can0  204  [16]  6E 23 50 46 50 46 50 46 28 23 00 00 00 00 00 00
2025-11-07T22:17:05.749573,7.349,can0  206  [16]  BB 0C CB 07 AB 0C A0 E2 DE 07 D3 0C B3 0C 00 00
2025-11-07T22:17:05.749848,7.350,can0  204  [16]  6E 23 50 46 50 46 50 46 28 23 00 00 00 00 00 00
2025-11-07T22:17:05.750188,7.350,can0  204  [16]  6E 23 50 46 50 46 50 46 28 23 00 00 00 00 00 00
2025-11-07T22:17:05.750525,7.350,can0  204  [16]  6E 23 50 46 50 46 50 46 28 23 00 00 00 00 00 00
2025-11-07T22:17:05.750878,7.351,can0  206  [16]  B3 0C CB 07 A7 0C B1 E0 DC 07 DF 0C BB 0C 00 00
2025-11-07T22:17:05.751302,7.351,can0  204  [16]  6E 23 50 46 50 46 50 46 28 23 00 00 00 00 00 00
2025-11-07T22:17:05.751694,7.352,can0  204  [16]  6E 23 50 46 50 46 50 46 28 23 00 00 00 00 00 00
2025-11-07T22:17:05.752078,7.352,can0  206  [16]  B7 0C D1 07 AB 0C C5 E1 E0 07 CF 0C BB 0C 00 00
2025-11-07T22:17:05.752447,7.352,can0  204  [16]  6E 23 50 46 50 46 50 46 28 23 00 00 00 00 00 00
2025-11-07T22:17:05.752807,7.353,can0  204  [16]  6E 23 50 46 50 46 50 46 28 23 00 00 00 00 00 00
2025-11-07T22:17:05.753517,7.353,can0  204  [16]  6E 23 50 46 50 46 50 46 28 23 00 00 00 00 00 00
2025-11-07T22:17:05.753689,7.354,can0  206  [16]  BB 0C CB 07 AF 0C B1 E0 E0 07 CF 0C AF 0C 00 00
2025-11-07T22:17:05.754069,7.354,can0  204  [16]  6E 23 50 46 50 46 50 46 28 23 00 00 00 00 00 00
2025-11-07T22:17:06.519268,8.119,can0  204  [16]  6E 23 50 46 50 46 50 46 28 23 00 00 00 00 00 00
2025-11-07T22:17:06.519327,8.119,can0  204  [16]  6E 23 50 46 50 46 50 46 28 23 00 00 00 00 00 00
2025-11-07T22:17:06.519706,8.120,can0  206  [16]  AF 0C CD 07 A7 0C 99 C6 DE 07 D7 0C BB 0C 00 00
2025-11-07T22:17:06.520121,8.120,can0  204  [16]  6E 23 50 46 50 46 50 46 28 23 00 00 00 00 00 00
2025-11-07T22:17:06.520408,8.120,can0  204  [16]  6E 23 50 46 50 46 50 46 28 23 00 00 00 00 00 00
2025-11-07T22:17:06.520681,8.121,can0  204  [16]  6E 23 50 46 50 46 50 46 28 23 00 00 00 00 00 00
2025-11-07T22:17:06.521006,8.121,can0  206  [16]  B7 0C CB 07 AB 0C B1 E0 DE 07 D7 0C B3 0C 00 00
2025-11-07T22:17:06.521339,8.121,can0  204  [16]  6E 23 50 46 50 46 50 46 28 23 00 00 00 00 00 00
2025-11-07T22:17:06.521677,8.122,can0  204  [16]  6E 23 50 46 50 46 50 46 28 23 00 00 00 00 00 00
2025-11-07T22:17:06.521992,8.122,can0  204  [16]  6E 23 50 46 50 46 50 46 28 23 00 00 00 00 00 00
2025-11-07T22:17:06.522312,8.122,can0  206  [16]  B3 0C D1 07 AB 0C 99 C6 E3 07 CF 0C BB 0C 00 00
2025-11-07T22:17:06.522627,8.122,can0  204  [16]  6E 23 50 46 50 46 50 46 28 23 00 00 00 00 00 00
2025-11-07T22:17:06.522923,8.123,can0  204  [16]  6E 23 50 46 50 46 50 46 28 23 00 00 00 00 00 00
2025-11-07T22:17:06.523219,8.123,can0  204  [16]  6E 23 50 46 50 46 50 46 28 23 00 00 00 00 00 00
2025-11-07T22:17:06.523551,8.123,can0  206  [16]  B3 0C CB 07 A7 0C C5 E1 DE 07 CB 0C BF 0C 00 00
2025-11-07T22:17:06.523856,8.124,can0  204  [16]  6E 23 50 46 50 46 50 46 28 23 00 00 00 00 00 00
2025-11-07T22:17:06.936768,8.537,can0  204  [16]  6E 23 50 46 50 46 50 46 28 23 00 00 00 00 00 00
2025-11-07T22:17:06.937249,8.537,can0  204  [16]  6E 23 50 46 50 46 50 46 28 23 00 00 00 00 00 00
2025-11-07T22:17:06.937622,8.537,can0  206  [16]  AF 0C CB 07 B3 0C DA DC E0 07 D7 0C B7 0C 00 00
2025-11-07T22:17:06.938009,8.538,can0  204  [16]  6E 23 50 46 50 46 50 46 28 23 00 00 00 00 00 00
2025-11-07T22:17:06.938627,8.538,can0  204  [16]  6E 23 50 46 50 46 50 46 28 23 00 00 00 00 00 00
2025-11-07T22:17:06.939110,8.539,can0  204  [16]  6E 23 50 46 50 46 50 46 28 23 00 00 00 00 00 00
2025-11-07T22:17:06.939615,8.539,can0  206  [16]  B7 0C CD 07 AF 0C DA DC E0 07 CF 0C B3 0C 00 00
2025-11-07T22:17:06.940070,8.540,can0  204  [16]  6E 23 50 46 50 46 50 46 28 23 00 00 00 00 00 00
2025-11-07T22:17:06.940513,8.540,can0  204  [16]  6E 23 50 46 50 46 50 46 28 23 00 00 00 00 00 00
2025-11-07T22:17:06.940950,8.541,can0  204  [16]  6E 23 50 46 50 46 50 46 28 23 00 00 00 00 00 00
2025-11-07T22:17:06.941428,8.541,can0  206  [16]  B3 0C CD 07 B7 0C 99 C6 DE 07 C7 0C B7 0C 00 00
2025-11-07T22:17:06.941881,8.542,can0  204  [16]  6E 23 50 46 50 46 50 46 28 23 00 00 00 00 00 00
2025-11-07T22:17:07.402891,9.003,can0  204  [16]  6E 23 50 46 50 46 50 46 28 23 00 00 00 00 00 00
2025-11-07T22:17:07.404602,9.004,can0  204  [16]  6E 23 50 46 50 46 50 46 28 23 00 00 00 00 00 00
2025-11-07T22:17:07.404678,9.005,can0  206  [16]  DF 0C CB 07 A7 0C B1 E0 DE 07 D7 0C 8F 0C 00 00
2025-11-07T22:17:07.406442,9.006,can0  204  [16]  6E 23 50 46 50 46 50 46 28 23 00 00 00 00 00 00
2025-11-07T22:17:07.407195,9.007,can0  204  [16]  6E 23 50 46 50 46 50 46 28 23 00 00 00 00 00 00
2025-11-07T22:17:07.407629,9.007,can0  204  [16]  6E 23 50 46 50 46 50 46 28 23 00 00 00 00 00 00
2025-11-07T22:17:07.408212,9.008,can0  206  [16]  C3 0C CB 07 9F 0C B1 E0 DE 07 DB 0C B3 0C 00 00
2025-11-07T22:17:07.408824,9.009,can0  204  [16]  6E 23 50 46 50 46 50 46 28 23 00 00 00 00 00 00
2025-11-07T22:17:07.409323,9.009,can0  204  [16]  6E 23 50 46 50 46 50 46 28 23 00 00 00 00 00 00
2025-11-07T22:17:07.855164,9.455,can0  204  [16]  6E 23 50 46 50 46 50 46 28 23 00 00 00 00 00 00
2025-11-07T22:17:07.855605,9.455,can0  206  [16]  AF 0C CD 07 AB 0C 99 C6 E0 07 CF 0C BF 0C 00 00
2025-11-07T22:17:07.855987,9.456,can0  204  [16]  6E 23 50 46 50 46 50 46 28 23 00 00 00 00 00 00
2025-11-07T22:17:07.856338,9.456,can0  204  [16]  6E 23 50 46 50 46 50 46 28 23 00 00 00 00 00 00
2025-11-07T22:17:07.856669,9.457,can0  204  [16]  6E 23 50 46 50 46 50 46 28 23 00 00 00 00 00 00
2025-11-07T22:17:07.857029,9.457,can0  206  [16]  D3 0C C9 07 9F 0C B1 E0 DC 07 CF 0C AB 0C 00 00
2025-11-07T22:17:07.857382,9.457,can0  204  [16]  6E 23 50 46 50 46 50 46 28 23 00 00 00 00 00 00
2025-11-07T22:17:07.857731,9.458,can0  204  [16]  6E 23 50 46 50 46 50 46 28 23 00 00 00 00 00 00
2025-11-07T22:17:07.858508,9.458,can0  204  [16]  6E 23 50 46 50 46 50 46 28 23 00 00 00 00 00 00
2025-11-07T22:17:07.858685,9.459,can0  206  [16]  B7 0C CB 07 AF 0C DA DC DE 07 D3 0C B3 0C 00 00
2025-11-07T22:17:07.859024,9.459,can0  204  [16]  6E 23 50 46 50 46 50 46 28 23 00 00 00 00 00 00
2025-11-07T22:17:07.859331,9.459,can0  204  [16]  6E 23 50 46 50 46 50 46 28 23 00 00 00 00 00 00
2025-11-07T22:17:08.279551,9.879,can0  204  [16]  6E 23 50 46 50 46 50 46 28 23 00 00 00 00 00 00
2025-11-07T22:17:08.280062,9.880,can0  206  [16]  C7 0C CD 07 AB 0C DA DC E0 07 DB 0C A3 0C 00 00
2025-11-07T22:17:08.280477,9.880,can0  204  [16]  6E 23 50 46 50 46 50 46 28 23 00 00 00 00 00 00
2025-11-07T22:17:08.280873,9.881,can0  204  [16]  6E 23 50 46 50 46 50 46 28 23 00 00 00 00 00 00
2025-11-07T22:17:08.281270,9.881,can0  204  [16]  6E 23 50 46 50 46 50 46 28 23 00 00 00 00 00 00
2025-11-07T22:17:08.281692,9.882,can0  206  [16]  B7 0C CD 07 B3 0C DA DC DE 07 CB 0C B3 0C 00 00
2025-11-07T22:17:08.282071,9.882,can0  204  [16]  6E 23 50 46 50 46 50 46 28 23 00 00 00 00 00 00
2025-11-07T22:17:08.282446,9.882,can0  204  [16]  6E 23 50 46 50 46 50 46 28 23 00 00 00 00 00 00
2025-11-07T22:17:08.282813,9.883,can0  204  [16]  6E 23 50 46 50 46 50 46 28 23 00 00 00 00 00 00
2025-11-07T22:17:08.283209,9.883,can0  206  [16]  BB 0C C9 07 AB 0C DA DC DE 07 DB 0C AF 0C 00 00
2025-11-07T22:17:08.283600,9.883,can0  204  [16]  6E 23 50 46 50 46 50 46 28 23 00 00 00 00 00 00
2025-11-07T22:17:08.704717,10.305,can0  204  [16]  6E 23 50 46 50 46 50 46 28 23 00 00 00 00 00 00
2025-11-07T22:17:08.705495,10.305,can0  204  [16]  6E 23 50 46 50 46 50 46 28 23 00 00 00 00 00 00
2025-11-07T22:17:08.706016,10.306,can0  206  [16]  B7 0C CB 07 B3 0C DA DC DE 07 D7 0C AB 0C 00 00
2025-11-07T22:17:08.706478,10.306,can0  204  [16]  6E 23 50 46 50 46 50 46 28 23 00 00 00 00 00 00
2025-11-07T22:17:08.706879,10.307,can0  204  [16]  6E 23 50 46 50 46 50 46 28 23 00 00 00 00 00 00
2025-11-07T22:17:08.707242,10.307,can0  204  [16]  6E 23 50 46 50 46 50 46 28 23 00 00 00 00 00 00
2025-11-07T22:17:08.707662,10.308,can0  206  [16]  B7 0C C9 07 B3 0C DA DC E0 07 CF 0C B3 0C 00 00
2025-11-07T22:17:08.708048,10.308,can0  204  [16]  6E 23 50 46 50 46 50 46 28 23 00 00 00 00 00 00
2025-11-07T22:17:08.708459,10.308,can0  204  [16]  6E 23 50 46 50 46 50 46 28 23 00 00 00 00 00 00
2025-11-07T22:17:09.161357,10.761,can0  206  [16]  BB 0C C9 07 AB 0C 3A DF DE 07 D3 0C B3 0C 00 00
2025-11-07T22:17:09.161886,10.762,can0  204  [16]  6E 23 50 46 50 46 50 46 28 23 00 00 00 00 00 00
2025-11-07T22:17:09.162267,10.762,can0  204  [16]  6E 23 50 46 50 46 50 46 28 23 00 00 00 00 00 00
2025-11-07T22:17:09.162653,10.763,can0  204  [16]  6E 23 50 46 50 46 50 46 28 23 00 00 00 00 00 00
2025-11-07T22:17:09.163096,10.763,can0  206  [16]  BB 0C CD 07 AF 0C 3A DF E0 07 D7 0C B3 0C 00 00
2025-11-07T22:17:09.163575,10.763,can0  204  [16]  6E 23 50 46 50 46 50 46 28 23 00 00 00 00 00 00
2025-11-07T22:17:09.163993,10.764,can0  204  [16]  6E 23 50 46 50 46 50 46 28 23 00 00 00 00 00 00
2025-11-07T22:17:09.164411,10.764,can0  204  [16]  6E 23 50 46 50 46 50 46 28 23 00 00 00 00 00 00
2025-11-07T22:17:09.164861,10.765,can0  206  [16]  BB 0C CB 07 A7 0C DA DC DE 07 D7 0C B3 0C 00 00
2025-11-07T22:17:09.165225,10.765,can0  204  [16]  6E 23 50 46 50 46 50 46 28 23 00 00 00 00 00 00
2025-11-07T22:17:09.171258,10.771,can0  204  [16]  6E 23 50 46 50 46 50 46 28 23 00 00 00 00 00 00
2025-11-07T22:17:09.596010,11.196,can0  204  [16]  6E 23 50 46 50 46 50 46 28 23 00 00 00 00 00 00
2025-11-07T22:17:09.596283,11.196,can0  206  [16]  BB 0C CF 07 BF 0C DA DC DE 07 C7 0C AB 0C 00 00
2025-11-07T22:17:09.597104,11.197,can0  204  [16]  6E 23 50 46 50 46 50 46 28 23 00 00 00 00 00 00
2025-11-07T22:17:09.597712,11.198,can0  204  [16]  6E 23 50 46 50 46 50 46 28 23 00 00 00 00 00 00
2025-11-07T22:17:09.598197,11.198,can0  204  [16]  6E 23 50 46 50 46 50 46 28 23 00 00 00 00 00 00
2025-11-07T22:17:09.598688,11.199,can0  206  [16]  B3 0C D1 07 A7 0C 3A DF E0 07 DF 0C BB 0C 00 00
2025-11-07T22:17:09.599098,11.199,can0  204  [16]  6E 23 50 46 50 46 50 46 28 23 00 00 00 00 00 00
2025-11-07T22:17:09.599471,11.199,can0  204  [16]  6E 23 50 46 50 46 50 46 28 23 00 00 00 00 00 00
2025-11-07T22:17:09.599856,11.200,can0  204  [16]  6E 23 50 46 50 46 50 46 28 23 00 00 00 00 00 00
2025-11-07T22:17:09.600270,11.200,can0  206  [16]  B3 0C CD 07 B3 0C B1 E0 E0 07 D3 0C B7 0C 00 00
2025-11-07T22:17:09.600695,11.201,can0  204  [16]  6E 23 50 46 50 46 50 46 28 23 00 00 00 00 00 00
2025-11-07T22:17:10.028927,11.629,can0  204  [16]  6E 23 50 46 50 46 50 46 28 23 00 00 00 00 00 00
2025-11-07T22:17:10.029562,11.629,can0  204  [16]  6E 23 50 46 50 46 50 46 28 23 00 00 00 00 00 00
2025-11-07T22:17:10.030187,11.630,can0  206  [16]  AB 0C CD 07 B3 0C 99 C6 E0 07 D3 0C BF 0C 00 00
2025-11-07T22:17:10.030695,11.631,can0  204  [16]  6E 23 50 46 50 46 50 46 28 23 00 00 00 00 00 00
2025-11-07T22:17:10.030988,11.631,can0  204  [16]  6E 23 50 46 50 46 50 46 28 23 00 00 00 00 00 00
2025-11-07T22:17:10.031281,11.631,can0  204  [16]  6E 23 50 46 50 46 50 46 28 23 00 00 00 00 00 00
2025-11-07T22:17:10.031608,11.631,can0  206  [16]  BB 0C CB 07 AB 0C 99 C6 E0 07 CF 0C B3 0C 00 00
2025-11-07T22:17:10.031936,11.632,can0  204  [16]  6E 23 50 46 50 46 50 46 28 23 00 00 00 00 00 00
2025-11-07T22:17:10.032274,11.632,can0  204  [16]  6E 23 50 46 50 46 50 46 28 23 00 00 00 00 00 00
2025-11-07T22:17:10.490159,12.090,can0  204  [16]  6E 23 50 46 50 46 50 46 28 23 00 00 00 00 00 00
2025-11-07T22:17:10.490693,12.091,can0  206  [16]  AF 0C CB 07 AF 0C DA DC DE 07 D3 0C BB 0C 00 00
2025-11-07T22:17:10.491084,12.091,can0  204  [16]  6E 23 50 46 50 46 50 46 28 23 00 00 00 00 00 00
2025-11-07T22:17:10.491529,12.091,can0  204  [16]  6E 23 50 46 50 46 50 46 28 23 00 00 00 00 00 00
2025-11-07T22:17:10.491965,12.092,can0  204  [16]  6E 23 50 46 50 46 50 46 28 23 00 00 00 00 00 00
2025-11-07T22:17:10.492348,12.092,can0  206  [16]  B3 0C CB 07 A3 0C DA DC DE 07 DF 0C B7 0C 00 00
2025-11-07T22:17:10.492726,12.093,can0  204  [16]  6E 23 50 46 50 46 50 46 28 23 00 00 00 00 00 00
2025-11-07T22:17:10.493118,12.093,can0  204  [16]  6E 23 50 46 50 46 50 46 28 23 00 00 00 00 00 00
2025-11-07T22:17:10.493476,12.093,can0  204  [16]  6E 23 50 46 50 46 50 46 28 23 00 00 00 00 00 00
2025-11-07T22:17:10.493882,12.094,can0  206  [16]  BB 0C C9 07 AB 0C 3A DF E0 07 D7 0C B3 0C 00 00
2025-11-07T22:17:10.494248,12.094,can0  204  [16]  6E 23 50 46 50 46 50 46 28 23 00 00 00 00 00 00
2025-11-07T22:17:10.494665,12.095,can0  204  [16]  6E 23 50 46 50 46 50 46 28 23 00 00 00 00 00 00
2025-11-07T22:17:11.027954,12.628,can0  204  [16]  6E 23 50 46 50 46 50 46 28 23 00 00 00 00 00 00
2025-11-07T22:17:11.028263,12.628,can0  206  [16]  AB 0C C9 07 B3 0C 99 C6 E3 07 C3 0C BF 0C 00 00
2025-11-07T22:17:11.028879,12.629,can0  204  [16]  6E 23 50 46 50 46 50 46 28 23 00 00 00 00 00 00
2025-11-07T22:17:11.029392,12.629,can0  204  [16]  6E 23 50 46 50 46 50 46 28 23 00 00 00 00 00 00
2025-11-07T22:17:11.029919,12.630,can0  204  [16]  6E 23 50 46 50 46 50 46 28 23 00 00 00 00 00 00
2025-11-07T22:17:11.030398,12.630,can0  206  [16]  AF 0C CB 07 AB 0C 7E E4 E0 07 D3 0C BF 0C 00 00
2025-11-07T22:17:11.030891,12.631,can0  204  [16]  6E 23 50 46 50 46 50 46 28 23 00 00 00 00 00 00
2025-11-07T22:17:11.031318,12.631,can0  204  [16]  6E 23 50 46 50 46 50 46 28 23 00 00 00 00 00 00
2025-11-07T22:17:11.031764,12.632,can0  204  [16]  6E 23 50 46 50 46 50 46 28 23 00 00 00 00 00 00
2025-11-07T22:17:11.033272,12.633,can0  206  [16]  B7 0C CB 07 AF 0C DA DC E0 07 D7 0C B7 0C 00 00
2025-11-07T22:17:11.033306,12.633,can0  204  [16]  6E 23 50 46 50 46 50 46 28 23 00 00 00 00 00 00
2025-11-07T22:17:11.033325,12.633,can0  204  [16]  6E 23 50 46 50 46 50 46 28 23 00 00 00 00 00 00
2025-11-07T22:17:11.533081,13.133,can0  204  [16]  6E 23 50 46 50 46 50 46 28 23 00 00 00 00 00 00
2025-11-07T22:17:11.540583,13.140,can0  206  [16]  AF 0C CB 07 AB 0C 3A DF D3 07 DB 0C BF 0C 00 00
2025-11-07T22:17:11.542221,13.142,can0  204  [16]  6E 23 50 46 50 46 50 46 28 23 00 00 00 00 00 00
2025-11-07T22:17:11.542853,13.143,can0  204  [16]  6E 23 50 46 50 46 50 46 28 23 00 00 00 00 00 00
2025-11-07T22:17:11.544786,13.145,can0  204  [16]  6E 23 50 46 50 46 50 46 28 23 00 00 00 00 00 00
2025-11-07T22:17:11.544835,13.145,can0  206  [16]  AF 0C CB 07 AF 0C C5 E1 DC 07 D7 0C BB 0C 00 00
2025-11-07T22:17:11.545098,13.145,can0  204  [16]  6E 23 50 46 50 46 50 46 28 23 00 00 00 00 00 00
2025-11-07T22:17:11.545402,13.145,can0  204  [16]  6E 23 50 46 50 46 50 46 28 23 00 00 00 00 00 00
2025-11-07T22:17:11.545768,13.146,can0  204  [16]  6E 23 50 46 50 46 50 46 28 23 00 00 00 00 00 00
2025-11-07T22:17:11.546265,13.146,can0  206  [16]  A7 0C CD 07 B3 0C B1 E0 DC 07 D3 0C BF 0C 00 00
2025-11-07T22:17:11.546795,13.147,can0  204  [16]  6E 23 50 46 50 46 50 46 28 23 00 00 00 00 00 00
2025-11-07T22:17:11.547181,13.147,can0  204  [16]  6E 23 50 46 50 46 50 46 28 23 00 00 00 00 00 00
2025-11-07T22:17:11.547563,13.147,can0  204  [16]  6E 23 50 46 50 46 50 46 28 23 00 00 00 00 00 00
2025-11-07T22:17:11.567946,13.168,can0  206  [16]  B7 0C CB 07 A7 0C B1 E0 E5 07 D3 0C B3 0C 00 00
2025-11-07T22:17:12.042011,13.642,can0  204  [16]  6E 23 50 46 50 46 50 46 28 23 00 00 00 00 00 00
2025-11-07T22:17:12.042172,13.642,can0  204  [16]  6E 23 50 46 50 46 50 46 28 23 00 00 00 00 00 00
2025-11-07T22:17:12.042645,13.643,can0  206  [16]  B3 0C CD 07 AF 0C DA DC E3 07 D7 0C B7 0C 00 00
2025-11-07T22:17:12.042994,13.643,can0  204  [16]  6E 23 50 46 50 46 50 46 28 23 00 00 00 00 00 00
2025-11-07T22:17:12.043308,13.643,can0  204  [16]  6E 23 50 46 50 46 50 46 28 23 00 00 00 00 00 00
2025-11-07T22:17:12.067064,13.667,can0  204  [16]  6E 23 50 46 50 46 50 46 28 23 00 00 00 00 00 00
2025-11-07T22:17:12.067126,13.667,can0  206  [16]  B3 0C CB 07 AF 0C DA DC DC 07 D3 0C B7 0C 00 00
2025-11-07T22:17:12.067148,13.667,can0  204  [16]  6E 23 50 46 50 46 50 46 28 23 00 00 00 00 00 00
2025-11-07T22:17:12.067167,13.667,can0  204  [16]  6E 23 50 46 50 46 50 46 28 23 00 00 00 00 00 00
2025-11-07T22:17:12.067184,13.667,can0  204  [16]  6E 23 50 46 50 46 50 46 28 23 00 00 00 00 00 00
2025-11-07T22:17:12.067200,13.667,can0  206  [16]  BB 0C C9 07 AB 0C B1 E0 DE 07 D3 0C B3 0C 00 00
2025-11-07T22:17:12.067217,13.667,can0  204  [16]  6E 23 50 46 50 46 50 46 28 23 00 00 00 00 00 00
2025-11-07T22:17:12.561369,14.161,can0  204  [16]  6E 23 50 46 50 46 50 46 28 23 00 00 00 00 00 00
2025-11-07T22:17:12.561912,14.162,can0  204  [16]  6E 23 50 46 50 46 50 46 28 23 00 00 00 00 00 00
2025-11-07T22:17:12.562340,14.162,can0  206  [16]  B3 0C CD 07 AB 0C 99 C6 DC 07 D3 0C BB 0C 00 00
2025-11-07T22:17:12.562759,14.163,can0  204  [16]  6E 23 50 46 50 46 50 46 28 23 00 00 00 00 00 00
2025-11-07T22:17:12.563142,14.163,can0  204  [16]  6E 23 50 46 50 46 50 46 28 23 00 00 00 00 00 00
2025-11-07T22:17:12.563540,14.163,can0  204  [16]  6E 23 50 46 50 46 50 46 28 23 00 00 00 00 00 00
2025-11-07T22:17:12.563977,14.164,can0  206  [16]  B3 0C CB 07 A7 0C B1 E0 E0 07 D3 0C BB 0C 00 00
2025-11-07T22:17:12.564391,14.164,can0  204  [16]  6E 23 50 46 50 46 50 46 28 23 00 00 00 00 00 00
2025-11-07T22:17:12.564787,14.165,can0  204  [16]  6E 23 50 46 50 46 50 46 28 23 00 00 00 00 00 00
2025-11-07T22:17:12.565177,14.165,can0  204  [16]  6E 23 50 46 50 46 50 46 28 23 00 00 00 00 00 00
2025-11-07T22:17:12.565597,14.165,can0  206  [16]  9B 0C CB 07 BF 0C C5 E1 E0 07 D7 0C BF 0C 00 00
2025-11-07T22:17:12.566029,14.166,can0  204  [16]  6E 23 50 46 50 46 50 46 28 23 00 00 00 00 00 00
2025-11-07T22:17:13.111010,14.711,can0  204  [16]  6E 23 50 46 50 46 50 46 28 23 00 00 00 00 00 00
2025-11-07T22:17:13.111600,14.711,can0  204  [16]  6E 23 50 46 50 46 50 46 28 23 00 00 00 00 00 00
2025-11-07T22:17:13.112141,14.712,can0  206  [16]  AB 0C C7 07 B3 0C 3A DF E3 07 CF 0C BF 0C 00 00
2025-11-07T22:17:13.112648,14.713,can0  204  [16]  6E 23 50 46 50 46 50 46 28 23 00 00 00 00 00 00
2025-11-07T22:17:13.113124,14.713,can0  204  [16]  6E 23 50 46 50 46 50 46 28 23 00 00 00 00 00 00
2025-11-07T22:17:13.113602,14.713,can0  204  [16]  6E 23 50 46 50 46 50 46 28 23 00 00 00 00 00 00
2025-11-07T22:17:13.114108,14.714,can0  206  [16]  B7 0C C9 07 AB 0C B1 E0 E0 07 CF 0C B7 0C 00 00
2025-11-07T22:17:13.114590,14.714,can0  204  [16]  6E 23 50 46 50 46 50 46 28 23 00 00 00 00 00 00
2025-11-07T22:17:13.115055,14.715,can0  204  [16]  6E 23 50 46 50 46 50 46 28 23 00 00 00 00 00 00
2025-11-07T22:17:13.115545,14.715,can0  204  [16]  6E 23 50 46 50 46 50 46 28 23 00 00 00 00 00 00
2025-11-07T22:17:13.116352,14.716,can0  206  [16]  AB 0C C9 07 AB 0C DA DC E0 07 D3 0C BF 0C 00 00
2025-11-07T22:17:13.136259,14.736,can0  204  [16]  6E 23 50 46 50 46 50 46 28 23 00 00 00 00 00 00
2025-11-07T22:17:13.679768,15.280,can0  204  [16]  6E 23 50 46 50 46 50 46 28 23 00 00 00 00 00 00
2025-11-07T22:17:13.680619,15.280,can0  204  [16]  6E 23 50 46 50 46 50 46 28 23 00 00 00 00 00 00
2025-11-07T22:17:13.681315,15.281,can0  206  [16]  B3 0C C9 07 B3 0C DA DC DC 07 DB 0C B7 0C 00 00
2025-11-07T22:17:13.681968,15.282,can0  204  [16]  6E 23 50 46 50 46 50 46 28 23 00 00 00 00 00 00
2025-11-07T22:17:13.682684,15.283,can0  204  [16]  6E 23 50 46 50 46 50 46 28 23 00 00 00 00 00 00
2025-11-07T22:17:13.683309,15.283,can0  204  [16]  6E 23 50 46 50 46 50 46 28 23 00 00 00 00 00 00
2025-11-07T22:17:13.683921,15.284,can0  206  [16]  BB 0C CB 07 A7 0C DA DC DE 07 D7 0C B7 0C 00 00
2025-11-07T22:17:13.684488,15.284,can0  204  [16]  6E 23 50 46 50 46 50 46 28 23 00 00 00 00 00 00
2025-11-07T22:17:13.685283,15.285,can0  204  [16]  6E 23 50 46 50 46 50 46 28 23 00 00 00 00 00 00
2025-11-07T22:17:13.686192,15.286,can0  204  [16]  6E 23 50 46 50 46 50 46 28 23 00 00 00 00 00 00
2025-11-07T22:17:13.686240,15.286,can0  206  [16]  BF 0C C9 07 B3 0C 99 C6 E0 07 C3 0C B3 0C 00 00
2025-11-07T22:17:13.686832,15.287,can0  204  [16]  6E 23 50 46 50 46 50 46 28 23 00 00 00 00 00 00
2025-11-07T22:17:13.710157,15.310,can0  204  [16]  6E 23 50 46 50 46 50 46 28 23 00 00 00 00 00 00
2025-11-07T22:17:13.710256,15.310,can0  204  [16]  6E 23 50 46 50 46 50 46 28 23 00 00 00 00 00 00
2025-11-07T22:17:14.244050,15.844,can0  206  [16]  B7 0C CB 07 A3 0C 99 C6 E0 07 D7 0C BB 0C 00 00
2025-11-07T22:17:14.244143,15.844,can0  204  [16]  6E 23 50 46 50 46 50 46 28 23 00 00 00 00 00 00
2025-11-07T22:17:14.244866,15.845,can0  204  [16]  6E 23 50 46 50 46 50 46 28 23 00 00 00 00 00 00
2025-11-07T22:17:14.245479,15.845,can0  204  [16]  6E 23 50 46 50 46 50 46 28 23 00 00 00 00 00 00
2025-11-07T22:17:14.245939,15.846,can0  206  [16]  B7 0C CD 07 AB 0C 99 C6 E3 07 D7 0C B7 0C 00 00
2025-11-07T22:17:14.246416,15.846,can0  204  [16]  6E 23 50 46 50 46 50 46 28 23 00 00 00 00 00 00
2025-11-07T22:17:14.247351,15.847,can0  204  [16]  6E 23 50 46 50 46 50 46 28 23 00 00 00 00 00 00
2025-11-07T22:17:14.247396,15.847,can0  204  [16]  6E 23 50 46 50 46 50 46 28 23 00 00 00 00 00 00
2025-11-07T22:17:14.247912,15.848,can0  206  [16]  A7 0C CB 07 B7 0C 57 E3 DC 07 CF 0C BB 0C 00 00
2025-11-07T22:17:14.248603,15.848,can0  204  [16]  6E 23 50 46 50 46 50 46 28 23 00 00 00 00 00 00
2025-11-07T22:17:14.249282,15.849,can0  204  [16]  6E 23 50 46 50 46 50 46 28 23 00 00 00 00 00 00
2025-11-07T22:17:14.249832,15.850,can0  204  [16]  6E 23 50 46 50 46 50 46 28 23 00 00 00 00 00 00
2025-11-07T22:17:14.251217,15.851,can0  206  [16]  B3 0C CB 07 AB 0C 3A DF DC 07 D7 0C BB 0C 00 00
2025-11-07T22:17:14.251275,15.851,can0  204  [16]  6E 23 50 46 50 46 50 46 28 23 00 00 00 00 00 00
2025-11-07T22:17:14.252015,15.852,can0  204  [16]  6E 23 50 46 50 46 50 46 28 23 00 00 00 00 00 00
2025-11-07T22:17:14.770326,16.370,can0  204  [16]  6E 23 50 46 50 46 50 46 28 23 00 00 00 00 00 00
2025-11-07T22:17:14.771180,16.371,can0  206  [16]  AB 0C CB 07 AF 0C DA DC E0 07 D3 0C BF 0C 00 00
2025-11-07T22:17:14.771805,16.372,can0  204  [16]  6E 23 50 46 50 46 50 46 28 23 00 00 00 00 00 00
2025-11-07T22:17:14.772294,16.372,can0  204  [16]  6E 23 50 46 50 46 50 46 28 23 00 00 00 00 00 00
2025-11-07T22:17:14.772765,16.373,can0  204  [16]  6E 23 50 46 50 46 50 46 28 23 00 00 00 00 00 00
2025-11-07T22:17:14.773258,16.373,can0  206  [16]  BB 0C CB 07 AB 0C DA DC DE 07 D3 0C B3 0C 00 00
2025-11-07T22:17:14.773780,16.374,can0  204  [16]  6E 23 50 46 50 46 50 46 28 23 00 00 00 00 00 00
2025-11-07T22:17:14.774169,16.374,can0  204  [16]  6E 23 50 46 50 46 50 46 28 23 00 00 00 00 00 00
2025-11-07T22:17:14.774547,16.374,can0  204  [16]  6E 23 50 46 50 46 50 46 28 23 00 00 00 00 00 00
2025-11-07T22:17:14.775111,16.375,can0  206  [16]  B7 0C D3 07 A7 0C B1 E0 DE 07 D7 0C B7 0C 00 00
2025-11-07T22:17:14.811829,16.412,can0  204  [16]  6E 23 50 46 50 46 50 46 28 23 00 00 00 00 00 00
2025-11-07T22:17:15.301355,16.901,can0  204  [16]  6E 23 50 46 50 46 50 46 28 23 00 00 00 00 00 00
2025-11-07T22:17:15.302006,16.902,can0  204  [16]  6E 23 50 46 50 46 50 46 28 23 00 00 00 00 00 00
2025-11-07T22:17:15.302580,16.902,can0  206  [16]  BB 0C CB 07 A7 0C 99 C6 DE 07 D7 0C B7 0C 00 00
2025-11-07T22:17:15.303092,16.903,can0  204  [16]  6E 23 50 46 50 46 50 46 28 23 00 00 00 00 00 00
2025-11-07T22:17:15.303597,16.903,can0  204  [16]  6E 23 50 46 50 46 50 46 28 23 00 00 00 00 00 00
2025-11-07T22:17:15.304876,16.905,can0  204  [16]  6E 23 50 46 50 46 50 46 28 23 00 00 00 00 00 00
2025-11-07T22:17:15.305551,16.905,can0  206  [16]  B3 0C CB 07 AF 0C 99 C6 E0 07 CB 0C B7 0C 00 00
2025-11-07T22:17:15.307624,16.907,can0  204  [16]  6E 23 50 46 50 46 50 46 28 23 00 00 00 00 00 00
2025-11-07T22:17:15.307678,16.908,can0  204  [16]  6E 23 50 46 50 46 50 46 28 23 00 00 00 00 00 00
2025-11-07T22:17:15.308286,16.908,can0  204  [16]  6E 23 50 46 50 46 50 46 28 23 00 00 00 00 00 00
2025-11-07T22:17:15.308901,16.909,can0  206  [16]  AB 0C CB 07 AF 0C DA DC DE 07 DF 0C BF 0C 00 00
2025-11-07T22:17:15.316563,16.916,can0  204  [16]  6E 23 50 46 50 46 50 46 28 23 00 00 00 00 00 00
2025-11-07T22:17:15.880640,17.481,can0  204  [16]  6E 23 50 46 50 46 50 46 28 23 00 00 00 00 00 00
2025-11-07T22:17:15.881658,17.482,can0  204  [16]  6E 23 50 46 50 46 50 46 28 23 00 00 00 00 00 00
2025-11-07T22:17:15.882292,17.482,can0  206  [16]  BB 0C CB 07 A7 0C DA DC E3 07 D7 0C B3 0C 00 00
2025-11-07T22:17:15.882325,17.482,can0  204  [16]  6E 23 50 46 50 46 50 46 28 23 00 00 00 00 00 00
2025-11-07T22:17:15.883157,17.483,can0  204  [16]  6E 23 50 46 50 46 50 46 28 23 00 00 00 00 00 00
2025-11-07T22:17:15.884086,17.484,can0  204  [16]  6E 23 50 46 50 46 50 46 28 23 00 00 00 00 00 00
2025-11-07T22:17:15.884723,17.485,can0  206  [16]  BB 0C CD 07 AB 0C DA DC CF 07 DB 0C AF 0C 00 00
2025-11-07T22:17:15.885103,17.485,can0  204  [16]  6E 23 50 46 50 46 50 46 28 23 00 00 00 00 00 00
2025-11-07T22:17:15.885466,17.485,can0  204  [16]  6E 23 50 46 50 46 50 46 28 23 00 00 00 00 00 00
2025-11-07T22:17:15.885818,17.486,can0  204  [16]  6E 23 50 46 50 46 50 46 28 23 00 00 00 00 00 00
2025-11-07T22:17:15.886630,17.486,can0  206  [16]  B3 0C CB 07 A3 0C B1 E0 E0 07 D7 0C BF 0C 00 00
2025-11-07T22:17:15.886844,17.487,can0  204  [16]  6E 23 50 46 50 46 50 46 28 23 00 00 00 00 00 00
2025-11-07T22:17:15.887419,17.487,can0  204  [16]  6E 23 50 46 50 46 50 46 28 23 00 00 00 00 00 00
2025-11-07T22:17:15.888010,17.488,can0  204  [16]  6E 23 50 46 50 46 50 46 28 23 00 00 00 00 00 00
2025-11-07T22:17:15.909641,17.510,can0  206  [16]  B7 0C CB 07 AB 0C B1 E0 E3 07 D3 0C B3 0C 00 00
2025-11-07T22:17:16.419764,18.020,can0  204  [16]  6E 23 50 46 50 46 50 46 28 23 00 00 00 00 00 00
2025-11-07T22:17:16.420287,18.020,can0  204  [16]  6E 23 50 46 50 46 50 46 28 23 00 00 00 00 00 00
2025-11-07T22:17:16.420767,18.021,can0  204  [16]  6E 23 50 46 50 46 50 46 28 23 00 00 00 00 00 00
2025-11-07T22:17:16.421210,18.021,can0  206  [16]  9B 0C D6 07 B3 0C 99 C6 E0 07 CF 0C CB 0C 00 00
2025-11-07T22:17:16.421677,18.022,can0  204  [16]  6E 23 50 46 50 46 50 46 28 23 00 00 00 00 00 00
2025-11-07T22:17:16.422723,18.023,can0  204  [16]  6E 23 50 46 50 46 50 46 28 23 00 00 00 00 00 00
2025-11-07T22:17:16.422765,18.023,can0  204  [16]  6E 23 50 46 50 46 50 46 28 23 00 00 00 00 00 00
2025-11-07T22:17:16.423187,18.023,can0  206  [16]  B3 0C CB 07 AF 0C DA DC DE 07 DF 0C AF 0C 00 00
2025-11-07T22:17:16.423631,18.023,can0  204  [16]  6E 23 50 46 50 46 50 46 28 23 00 00 00 00 00 00
2025-11-07T22:17:16.424047,18.024,can0  204  [16]  6E 23 50 46 50 46 50 46 28 23 00 00 00 00 00 00
2025-11-07T22:17:16.441691,18.042,can0  204  [16]  6E 23 50 46 50 46 50 46 28 23 00 00 00 00 00 00
2025-11-07T22:17:16.441782,18.042,can0  206  [16]  10 0D CB 07 A3 0C 3A DF E0 07 D7 0C 67 0C 00 00
2025-11-07T22:17:16.964451,18.564,can0  204  [16]  6E 23 50 46 50 46 50 46 28 23 00 00 00 00 00 00
2025-11-07T22:17:16.965335,18.565,can0  204  [16]  6E 23 50 46 50 46 50 46 28 23 00 00 00 00 00 00
2025-11-07T22:17:16.965992,18.566,can0  204  [16]  6E 23 50 46 50 46 50 46 28 23 00 00 00 00 00 00
2025-11-07T22:17:16.966628,18.566,can0  206  [16]  B3 0C CD 07 B3 0C A0 E2 DE 07 BF 0C B7 0C 00 00
2025-11-07T22:17:16.967150,18.567,can0  204  [16]  6E 23 50 46 50 46 50 46 28 23 00 00 00 00 00 00
2025-11-07T22:17:16.967566,18.567,can0  204  [16]  6E 23 50 46 50 46 50 46 28 23 00 00 00 00 00 00
2025-11-07T22:17:16.967999,18.568,can0  206  [16]  B7 0C C9 07 B3 0C C5 E1 E0 07 CB 0C B3 0C 00 00
2025-11-07T22:17:16.968421,18.568,can0  204  [16]  6E 23 50 46 50 46 50 46 28 23 00 00 00 00 00 00
2025-11-07T22:17:16.968854,18.569,can0  204  [16]  6E 23 50 46 50 46 50 46 28 23 00 00 00 00 00 00
2025-11-07T22:17:16.969266,18.569,can0  204  [16]  6E 23 50 46 50 46 50 46 28 23 00 00 00 00 00 00
2025-11-07T22:17:16.969699,18.570,can0  206  [16]  9B 0C CB 07 AF 0C 69 E5 DE 07 D3 0C CB 0C 00 00
2025-11-07T22:17:16.970876,18.571,can0  204  [16]  6E 23 50 46 50 46 50 46 28 23 00 00 00 00 00 00
2025-11-07T22:17:16.970930,18.571,can0  204  [16]  6E 23 50 46 50 46 50 46 28 23 00 00 00 00 00 00
2025-11-07T22:17:16.971386,18.571,can0  204  [16]  6E 23 50 46 50 46 50 46 28 23 00 00 00 00 00 00
2025-11-07T22:17:17.475763,19.076,can0  206  [16]  AF 0C C9 07 B7 0C B1 E0 E5 07 D7 0C B3 0C 00 00
2025-11-07T22:17:17.476455,19.076,can0  204  [16]  6E 23 50 46 50 46 50 46 28 23 00 00 00 00 00 00
2025-11-07T22:17:17.476905,19.077,can0  204  [16]  6E 23 50 46 50 46 50 46 28 23 00 00 00 00 00 00
2025-11-07T22:17:17.477328,19.077,can0  204  [16]  6E 23 50 46 50 46 50 46 28 23 00 00 00 00 00 00
2025-11-07T22:17:17.477794,19.078,can0  206  [16]  A7 0C C9 07 B7 0C B1 E0 DE 07 C7 0C BF 0C 00 00
2025-11-07T22:17:17.478217,19.078,can0  204  [16]  6E 23 50 46 50 46 50 46 28 23 00 00 00 00 00 00
2025-11-07T22:17:17.478687,19.079,can0  204  [16]  6E 23 50 46 50 46 50 46 28 23 00 00 00 00 00 00
2025-11-07T22:17:17.479101,19.079,can0  204  [16]  6E 23 50 46 50 46 50 46 28 23 00 00 00 00 00 00
2025-11-07T22:17:17.479660,19.080,can0  206  [16]  C3 0C CD 07 9F 0C A0 E2 E7 07 DB 0C B3 0C 00 00
2025-11-07T22:17:17.480087,19.080,can0  204  [16]  6E 23 50 46 50 46 50 46 28 23 00 00 00 00 00 00
2025-11-07T22:17:17.480511,19.080,can0  204  [16]  6E 23 50 46 50 46 50 46 28 23 00 00 00 00 00 00
2025-11-07T22:17:17.480996,19.081,can0  204  [16]  6E 23 50 46 50 46 50 46 28 23 00 00 00 00 00 00
2025-11-07T22:17:17.988952,19.589,can0  206  [16]  B7 0C CB 07 AF 0C 3A DF E0 07 D3 0C B3 0C 00 00
2025-11-07T22:17:17.990217,19.590,can0  204  [16]  6E 23 50 46 50 46 50 46 28 23 00 00 00 00 00 00
2025-11-07T22:17:17.990778,19.591,can0  204  [16]  6E 23 50 46 50 46 50 46 28 23 00 00 00 00 00 00
2025-11-07T22:17:17.991581,19.591,can0  204  [16]  6E 23 50 46 50 46 50 46 28 23 00 00 00 00 00 00
2025-11-07T22:17:17.992005,19.592,can0  206  [16]  C7 0C C9 07 AB 0C 3A DF DC 07 D7 0C A3 0C 00 00
2025-11-07T22:17:17.992452,19.592,can0  204  [16]  6E 23 50 46 50 46 50 46 28 23 00 00 00 00 00 00
2025-11-07T22:17:17.992893,19.593,can0  204  [16]  6E 23 50 46 50 46 50 46 28 23 00 00 00 00 00 00
2025-11-07T22:17:17.993317,19.593,can0  204  [16]  6E 23 50 46 50 46 50 46 28 23 00 00 00 00 00 00
2025-11-07T22:17:17.994686,19.595,can0  206  [16]  9F 0C D1 07 AF 0C 99 C6 E0 07 C7 0C CB 0C 00 00
2025-11-07T22:17:17.994741,19.595,can0  204  [16]  6E 23 50 46 50 46 50 46 28 23 00 00 00 00 00 00
2025-11-07T22:17:17.995085,19.595,can0  204  [16]  6E 23 50 46 50 46 50 46 28 23 00 00 00 00 00 00
2025-11-07T22:17:17.995364,19.595,can0  204  [16]  6E 23 50 46 50 46 50 46 28 23 00 00 00 00 00 00
2025-11-07T22:17:18.502821,20.103,can0  206  [16]  AF 0C CB 07 AF 0C B1 E0 ED 07 D3 0C BB 0C 00 00
2025-11-07T22:17:18.503654,20.104,can0  204  [16]  6E 23 50 46 50 46 50 46 28 23 00 00 00 00 00 00
2025-11-07T22:17:18.504223,20.104,can0  204  [16]  6E 23 50 46 50 46 50 46 28 23 00 00 00 00 00 00
2025-11-07T22:17:18.504743,20.105,can0  204  [16]  6E 23 50 46 50 46 50 46 28 23 00 00 00 00 00 00
2025-11-07T22:17:18.505158,20.105,can0  206  [16]  B7 0C CB 07 AB 0C 3A DF DE 07 DB 0C B3 0C 00 00
2025-11-07T22:17:18.505569,20.105,can0  204  [16]  6E 23 50 46 50 46 50 46 28 23 00 00 00 00 00 00
2025-11-07T22:17:18.506020,20.106,can0  204  [16]  6E 23 50 46 50 46 50 46 28 23 00 00 00 00 00 00
2025-11-07T22:17:18.506412,20.106,can0  204  [16]  6E 23 50 46 50 46 50 46 28 23 00 00 00 00 00 00
2025-11-07T22:17:18.506811,20.107,can0  206  [16]  B7 0C C7 07 AF 0C 3A DF E0 07 CF 0C B3 0C 00 00
2025-11-07T22:17:18.507202,20.107,can0  204  [16]  6E 23 50 46 50 46 50 46 28 23 00 00 00 00 00 00
2025-11-07T22:17:18.507609,20.107,can0  204  [16]  6E 23 50 46 50 46 50 46 28 23 00 00 00 00 00 00
2025-11-07T22:17:18.508143,20.108,can0  204  [16]  6E 23 50 46 50 46 50 46 28 23 00 00 00 00 00 00
2025-11-07T22:17:19.016898,20.617,can0  206  [16]  A7 0C CB 07 B3 0C DA DC E3 07 D3 0C BB 0C 00 00
2025-11-07T22:17:19.017576,20.617,can0  204  [16]  6E 23 50 46 50 46 50 46 28 23 00 00 00 00 00 00
2025-11-07T22:17:19.018053,20.618,can0  204  [16]  6E 23 50 46 50 46 50 46 28 23 00 00 00 00 00 00
2025-11-07T22:17:19.018510,20.618,can0  204  [16]  6E 23 50 46 50 46 50 46 28 23 00 00 00 00 00 00
2025-11-07T22:17:19.019019,20.619,can0  206  [16]  B3 0C C9 07 AB 0C 3A DF E0 07 D3 0C BB 0C 00 00
2025-11-07T22:17:19.019474,20.619,can0  204  [16]  6E 23 50 46 50 46 50 46 28 23 00 00 00 00 00 00
2025-11-07T22:17:19.019882,20.620,can0  204  [16]  6E 23 50 46 50 46 50 46 28 23 00 00 00 00 00 00
2025-11-07T22:17:19.020280,20.620,can0  204  [16]  6E 23 50 46 50 46 50 46 28 23 00 00 00 00 00 00
2025-11-07T22:17:19.020709,20.621,can0  206  [16]  B7 0C CF 07 B3 0C 3A DF DE 07 CF 0C B3 0C 00 00
2025-11-07T22:17:19.021118,20.621,can0  204  [16]  6E 23 50 46 50 46 50 46 28 23 00 00 00 00 00 00
2025-11-07T22:17:19.021520,20.621,can0  204  [16]  6E 23 50 46 50 46 50 46 28 23 00 00 00 00 00 00
2025-11-07T22:17:19.532292,21.132,can0  204  [16]  6E 23 50 46 50 46 50 46 28 23 00 00 00 00 00 00
2025-11-07T22:17:19.532850,21.133,can0  206  [16]  B7 0C CB 07 AF 0C C5 E1 DE 07 CF 0C B3 0C 00 00
2025-11-07T22:17:19.533303,21.133,can0  204  [16]  6E 23 50 46 50 46 50 46 28 23 00 00 00 00 00 00
2025-11-07T22:17:19.533749,21.134,can0  204  [16]  6E 23 50 46 50 46 50 46 28 23 00 00 00 00 00 00
2025-11-07T22:17:19.534159,21.134,can0  204  [16]  6E 23 50 46 50 46 50 46 28 23 00 00 00 00 00 00
2025-11-07T22:17:19.534600,21.134,can0  206  [16]  AF 0C C9 07 AF 0C 3A DF F8 07 D3 0C B7 0C 00 00
2025-11-07T22:17:19.535094,21.135,can0  204  [16]  6E 23 50 46 50 46 50 46 28 23 00 00 00 00 00 00
2025-11-07T22:17:19.535571,21.135,can0  204  [16]  6E 23 50 46 50 46 50 46 28 23 00 00 00 00 00 00
2025-11-07T22:17:19.536042,21.136,can0  204  [16]  6E 23 50 46 50 46 50 46 28 23 00 00 00 00 00 00
2025-11-07T22:17:19.537179,21.137,can0  206  [16]  AF 0C CD 07 AF 0C F4 E3 DE 07 D3 0C BB 0C 00 00
2025-11-07T22:17:19.537231,21.137,can0  204  [16]  6E 23 50 46 50 46 50 46 28 23 00 00 00 00 00 00
2025-11-07T22:17:19.538315,21.138,can0  204  [16]  6E 23 50 46 50 46 50 46 28 23 00 00 00 00 00 00
2025-11-07T22:17:19.538365,21.138,can0  204  [16]  6E 23 50 46 50 46 50 46 28 23 00 00 00 00 00 00
2025-11-07T22:17:19.991423,21.591,can0  206  [16]  B3 0C C9 07 AF 0C DA DC E0 07 CF 0C B7 0C 00 00
2025-11-07T22:17:19.991500,21.591,can0  204  [16]  6E 23 50 46 50 46 50 46 28 23 00 00 00 00 00 00
2025-11-07T22:17:19.991666,21.592,can0  204  [16]  6E 23 50 46 50 46 50 46 28 23 00 00 00 00 00 00
2025-11-07T22:17:19.992671,21.593,can0  204  [16]  6E 23 50 46 50 46 50 46 28 23 00 00 00 00 00 00
2025-11-07T22:17:19.992694,21.593,can0  206  [16]  AB 0C C7 07 BB 0C DA DC E0 07 CB 0C B3 0C 00 00
2025-11-07T22:17:19.993216,21.593,can0  204  [16]  6E 23 50 46 50 46 50 46 28 23 00 00 00 00 00 00
2025-11-07T22:17:19.993717,21.594,can0  204  [16]  6E 23 50 46 50 46 50 46 28 23 00 00 00 00 00 00
2025-11-07T22:17:19.994119,21.594,can0  204  [16]  6E 23 50 46 50 46 50 46 28 23 00 00 00 00 00 00
2025-11-07T22:17:19.994578,21.594,can0  206  [16]  B7 0C CD 07 A7 0C C5 E1 E0 07 DF 0C B7 0C 00 00
2025-11-07T22:17:19.995166,21.595,can0  204  [16]  6E 23 50 46 50 46 50 46 28 23 00 00 00 00 00 00
2025-11-07T22:17:20.010193,21.610,can0  204  [16]  6E 23 50 46 50 46 50 46 28 23 00 00 00 00 00 00
2025-11-07T22:17:20.461824,22.062,can0  204  [16]  6E 23 50 46 50 46 50 46 28 23 00 00 00 00 00 00
2025-11-07T22:17:20.462419,22.062,can0  206  [16]  B7 0C CD 07 AB 0C 3A DF DE 07 D7 0C B7 0C 00 00
2025-11-07T22:17:20.462914,22.063,can0  204  [16]  6E 23 50 46 50 46 50 46 28 23 00 00 00 00 00 00
2025-11-07T22:17:20.463342,22.063,can0  204  [16]  6E 23 50 46 50 46 50 46 28 23 00 00 00 00 00 00
2025-11-07T22:17:20.463772,22.064,can0  204  [16]  6E 23 50 46 50 46 50 46 28 23 00 00 00 00 00 00
2025-11-07T22:17:20.464173,22.064,can0  206  [16]  BF 0C CB 07 A7 0C DA DC DC 07 DB 0C B3 0C 00 00
2025-11-07T22:17:20.464584,22.064,can0  204  [16]  6E 23 50 46 50 46 50 46 28 23 00 00 00 00 00 00
2025-11-07T22:17:20.464971,22.065,can0  204  [16]  6E 23 50 46 50 46 50 46 28 23 00 00 00 00 00 00
2025-11-07T22:17:20.465352,22.065,can0  204  [16]  6E 23 50 46 50 46 50 46 28 23 00 00 00 00 00 00
2025-11-07T22:17:20.465987,22.066,can0  206  [16]  BB 0C CB 07 A7 0C DA DC DE 07 DB 0C B3 0C 00 00
2025-11-07T22:17:20.466272,22.066,can0  204  [16]  6E 23 50 46 50 46 50 46 28 23 00 00 00 00 00 00
2025-11-07T22:17:20.466774,22.067,can0  204  [16]  6E 23 50 46 50 46 50 46 28 23 00 00 00 00 00 00
2025-11-07T22:17:20.932838,22.533,can0  204  [16]  6E 23 50 46 50 46 50 46 28 23 00 00 00 00 00 00
2025-11-07T22:17:20.933570,22.533,can0  206  [16]  B7 0C CD 07 9F 0C DA DC E0 07 D3 0C C3 0C 00 00
2025-11-07T22:17:20.934073,22.534,can0  204  [16]  6E 23 50 46 50 46 50 46 28 23 00 00 00 00 00 00
2025-11-07T22:17:20.935151,22.535,can0  204  [16]  6E 23 50 46 50 46 50 46 28 23 00 00 00 00 00 00
2025-11-07T22:17:20.935185,22.535,can0  204  [16]  6E 23 50 46 50 46 50 46 28 23 00 00 00 00 00 00
2025-11-07T22:17:20.935860,22.536,can0  206  [16]  AB 0C C7 07 AF 0C 3A DF D6 07 BF 0C BF 0C 00 00
2025-11-07T22:17:20.936346,22.536,can0  204  [16]  6E 23 50 46 50 46 50 46 28 23 00 00 00 00 00 00
2025-11-07T22:17:20.936822,22.537,can0  204  [16]  6E 23 50 46 50 46 50 46 28 23 00 00 00 00 00 00
2025-11-07T22:17:20.937284,22.537,can0  204  [16]  6E 23 50 46 50 46 50 46 28 23 00 00 00 00 00 00
2025-11-07T22:17:20.937828,22.538,can0  206  [16]  B3 0C CB 07 B3 0C 99 C6 E0 07 D7 0C B3 0C 00 00
2025-11-07T22:17:21.387119,22.987,can0  204  [16]  6E 23 50 46 50 46 50 46 28 23 00 00 00 00 00 00
2025-11-07T22:17:21.387666,22.988,can0  204  [16]  6E 23 50 46 50 46 50 46 28 23 00 00 00 00 00 00
2025-11-07T22:17:21.388137,22.988,can0  204  [16]  6E 23 50 46 50 46 50 46 28 23 00 00 00 00 00 00
2025-11-07T22:17:21.388654,22.989,can0  206  [16]  B7 0C CD 07 AF 0C 3A DF E0 07 D7 0C B3 0C 00 00
2025-11-07T22:17:21.389116,22.989,can0  204  [16]  6E 23 50 46 50 46 50 46 28 23 00 00 00 00 00 00
2025-11-07T22:17:21.389557,22.989,can0  204  [16]  6E 23 50 46 50 46 50 46 28 23 00 00 00 00 00 00
2025-11-07T22:17:21.389998,22.990,can0  204  [16]  6E 23 50 46 50 46 50 46 28 23 00 00 00 00 00 00
2025-11-07T22:17:21.390478,22.990,can0  206  [16]  AF 0C CB 07 AF 0C 3A DF D6 07 CF 0C BB 0C 00 00
2025-11-07T22:17:21.390924,22.991,can0  204  [16]  6E 23 50 46 50 46 50 46 28 23 00 00 00 00 00 00
2025-11-07T22:17:21.391352,22.991,can0  204  [16]  6E 23 50 46 50 46 50 46 28 23 00 00 00 00 00 00
2025-11-07T22:17:21.391807,22.992,can0  204  [16]  6E 23 50 46 50 46 50 46 28 23 00 00 00 00 00 00
2025-11-07T22:17:21.411077,23.011,can0  206  [16]  A3 0C CB 07 AF 0C A0 E2 D6 07 D7 0C C3 0C 00 00
2025-11-07T22:17:21.867141,23.467,can0  204  [16]  6E 23 50 46 50 46 50 46 28 23 00 00 00 00 00 00
2025-11-07T22:17:21.868243,23.468,can0  204  [16]  6E 23 50 46 50 46 50 46 28 23 00 00 00 00 00 00
2025-11-07T22:17:21.868797,23.469,can0  204  [16]  6E 23 50 46 50 46 50 46 28 23 00 00 00 00 00 00
2025-11-07T22:17:21.869308,23.469,can0  206  [16]  BB 0C CB 07 A7 0C B1 E0 DC 07 D3 0C B7 0C 00 00
2025-11-07T22:17:21.869793,23.470,can0  204  [16]  6E 23 50 46 50 46 50 46 28 23 00 00 00 00 00 00
2025-11-07T22:17:21.870257,23.470,can0  204  [16]  6E 23 50 46 50 46 50 46 28 23 00 00 00 00 00 00
2025-11-07T22:17:21.870732,23.471,can0  204  [16]  6E 23 50 46 50 46 50 46 28 23 00 00 00 00 00 00
2025-11-07T22:17:21.871206,23.471,can0  206  [16]  B3 0C C9 07 B3 0C DA DC E0 07 CF 0C B7 0C 00 00
2025-11-07T22:17:21.871722,23.472,can0  204  [16]  6E 23 50 46 50 46 50 46 28 23 00 00 00 00 00 00
2025-11-07T22:17:21.872532,23.472,can0  204  [16]  6E 23 50 46 50 46 50 46 28 23 00 00 00 00 00 00
2025-11-07T22:17:21.873144,23.473,can0  204  [16]  6E 23 50 46 50 46 50 46 28 23 00 00 00 00 00 00
2025-11-07T22:17:21.893474,23.493,can0  206  [16]  BF 0C CD 07 AB 0C B1 E0 E0 07 CF 0C B3 0C 00 00
2025-11-07T22:17:22.381806,23.982,can0  204  [16]  6E 23 50 46 50 46 50 46 28 23 00 00 00 00 00 00
2025-11-07T22:17:22.382597,23.982,can0  204  [16]  6E 23 50 46 50 46 50 46 28 23 00 00 00 00 00 00
2025-11-07T22:17:22.383118,23.983,can0  204  [16]  6E 23 50 46 50 46 50 46 28 23 00 00 00 00 00 00
2025-11-07T22:17:22.383628,23.983,can0  206  [16]  C7 0C CB 07 AB 0C 99 C6 DE 07 D7 0C A7 0C 00 00
2025-11-07T22:17:22.384117,23.984,can0  204  [16]  6E 23 50 46 50 46 50 46 28 23 00 00 00 00 00 00
2025-11-07T22:17:22.384643,23.985,can0  204  [16]  6E 23 50 46 50 46 50 46 28 23 00 00 00 00 00 00
2025-11-07T22:17:22.385110,23.985,can0  204  [16]  6E 23 50 46 50 46 50 46 28 23 00 00 00 00 00 00
2025-11-07T22:17:22.385606,23.985,can0  206  [16]  C3 0C CB 07 AF 0C 99 C6 E0 07 CB 0C B7 0C 00 00
2025-11-07T22:17:22.386092,23.986,can0  204  [16]  6E 23 50 46 50 46 50 46 28 23 00 00 00 00 00 00
2025-11-07T22:17:22.386697,23.987,can0  204  [16]  6E 23 50 46 50 46 50 46 28 23 00 00 00 00 00 00
2025-11-07T22:17:22.387463,23.987,can0  204  [16]  6E 23 50 46 50 46 50 46 28 23 00 00 00 00 00 00
2025-11-07T22:17:22.388164,23.988,can0  206  [16]  AF 0C C9 07 AF 0C DA DC E0 07 CF 0C BF 0C 00 00
2025-11-07T22:17:22.862462,24.462,can0  204  [16]  6E 23 50 46 50 46 50 46 28 23 00 00 00 00 00 00
2025-11-07T22:17:22.862719,24.463,can0  204  [16]  6E 23 50 46 50 46 50 46 28 23 00 00 00 00 00 00
2025-11-07T22:17:22.863310,24.463,can0  204  [16]  6E 23 50 46 50 46 50 46 28 23 00 00 00 00 00 00
2025-11-07T22:17:22.863899,24.464,can0  206  [16]  B3 0C CD 07 A7 0C B1 E0 E3 07 DB 0C BB 0C 00 00
2025-11-07T22:17:22.864455,24.464,can0  204  [16]  6E 23 50 46 50 46 50 46 28 23 00 00 00 00 00 00
2025-11-07T22:17:22.864991,24.465,can0  204  [16]  6E 23 50 46 50 46 50 46 28 23 00 00 00 00 00 00
2025-11-07T22:17:22.865549,24.465,can0  206  [16]  B3 0C C9 07 AF 0C B1 E0 E3 07 CF 0C BB 0C 00 00
2025-11-07T22:17:22.866087,24.466,can0  204  [16]  6E 23 50 46 50 46 50 46 28 23 00 00 00 00 00 00
2025-11-07T22:17:22.866635,24.466,can0  204  [16]  6E 23 50 46 50 46 50 46 28 23 00 00 00 00 00 00
2025-11-07T22:17:22.867270,24.467,can0  204  [16]  6E 23 50 46 50 46 50 46 28 23 00 00 00 00 00 00
2025-11-07T22:17:22.868094,24.468,can0  206  [16]  BB 0C CF 07 A3 0C DA DC DE 07 DB 0C B7 0C 00 00
2025-11-07T22:17:22.868757,24.469,can0  204  [16]  6E 23 50 46 50 46 50 46 28 23 00 00 00 00 00 00
2025-11-07T22:17:23.336216,24.936,can0  204  [16]  6E 23 50 46 50 46 50 46 28 23 00 00 00 00 00 00
2025-11-07T22:17:23.336739,24.937,can0  204  [16]  6E 23 50 46 50 46 50 46 28 23 00 00 00 00 00 00
2025-11-07T22:17:23.337203,24.937,can0  206  [16]  BF 0C CB 07 BF 0C C5 E1 E0 07 C3 0C AB 0C 00 00
2025-11-07T22:17:23.337661,24.938,can0  204  [16]  6E 23 50 46 50 46 50 46 28 23 00 00 00 00 00 00
2025-11-07T22:17:23.338094,24.938,can0  204  [16]  6E 23 50 46 50 46 50 46 28 23 00 00 00 00 00 00
2025-11-07T22:17:23.338526,24.938,can0  204  [16]  6E 23 50 46 50 46 50 46 28 23 00 00 00 00 00 00
2025-11-07T22:17:23.338987,24.939,can0  206  [16]  AF 0C CB 07 A7 0C DA DC DE 07 DF 0C BF 0C 00 00
2025-11-07T22:17:23.339413,24.939,can0  204  [16]  6E 23 50 46 50 46 50 46 28 23 00 00 00 00 00 00
2025-11-07T22:17:23.339870,24.940,can0  204  [16]  6E 23 50 46 50 46 50 46 28 23 00 00 00 00 00 00
2025-11-07T22:17:23.811585,25.411,can0  204  [16]  6E 23 50 46 50 46 50 46 28 23 00 00 00 00 00 00
2025-11-07T22:17:23.812322,25.412,can0  206  [16]  AF 0C CD 07 A7 0C 3A DF E0 07 D7 0C BB 0C 00 00
2025-11-07T22:17:23.812921,25.413,can0  204  [16]  6E 23 50 46 50 46 50 46 28 23 00 00 00 00 00 00
2025-11-07T22:17:23.813460,25.413,can0  204  [16]  6E 23 50 46 50 46 50 46 28 23 00 00 00 00 00 00
2025-11-07T22:17:23.813984,25.414,can0  204  [16]  6E 23 50 46 50 46 50 46 28 23 00 00 00 00 00 00
2025-11-07T22:17:23.814535,25.414,can0  206  [16]  BB 0C CB 07 AB 0C DA DC DE 07 D3 0C AF 0C 00 00
2025-11-07T22:17:23.815051,25.415,can0  204  [16]  6E 23 50 46 50 46 50 46 28 23 00 00 00 00 00 00
2025-11-07T22:17:23.815551,25.415,can0  204  [16]  6E 23 50 46 50 46 50 46 28 23 00 00 00 00 00 00
2025-11-07T22:17:23.816260,25.416,can0  204  [16]  6E 23 50 46 50 46 50 46 28 23 00 00 00 00 00 00
2025-11-07T22:17:23.816960,25.417,can0  206  [16]  CF 0C CD 07 AF 0C 99 C6 DE 07 D7 0C 9B 0C 00 00
2025-11-07T22:17:23.817595,25.417,can0  204  [16]  6E 23 50 46 50 46 50 46 28 23 00 00 00 00 00 00
2025-11-07T22:17:23.818202,25.418,can0  204  [16]  6E 23 50 46 50 46 50 46 28 23 00 00 00 00 00 00
2025-11-07T22:17:24.284183,25.884,can0  204  [16]  6E 23 50 46 50 46 50 46 28 23 00 00 00 00 00 00
2025-11-07T22:17:24.284726,25.885,can0  206  [16]  B3 0C CD 07 AB 0C B1 E0 E0 07 D3 0C BB 0C 00 00
2025-11-07T22:17:24.285219,25.885,can0  204  [16]  6E 23 50 46 50 46 50 46 28 23 00 00 00 00 00 00
2025-11-07T22:17:24.285676,25.886,can0  204  [16]  6E 23 50 46 50 46 50 46 28 23 00 00 00 00 00 00
2025-11-07T22:17:24.286115,25.886,can0  204  [16]  6E 23 50 46 50 46 50 46 28 23 00 00 00 00 00 00
2025-11-07T22:17:24.287080,25.887,can0  206  [16]  AF 0C CB 07 AF 0C DA DC E0 07 DB 0C BB 0C 00 00
2025-11-07T22:17:24.287120,25.887,can0  204  [16]  6E 23 50 46 50 46 50 46 28 23 00 00 00 00 00 00
2025-11-07T22:17:24.287534,25.887,can0  204  [16]  6E 23 50 46 50 46 50 46 28 23 00 00 00 00 00 00
2025-11-07T22:17:24.287980,25.888,can0  204  [16]  6E 23 50 46 50 46 50 46 28 23 00 00 00 00 00 00
2025-11-07T22:17:24.288439,25.888,can0  206  [16]  B3 0C C9 07 A7 0C DA DC DE 07 DB 0C BB 0C 00 00
2025-11-07T22:17:24.289484,25.889,can0  204  [16]  6E 23 50 46 50 46 50 46 28 23 00 00 00 00 00 00
2025-11-07T22:17:24.289535,25.889,can0  204  [16]  6E 23 50 46 50 46 50 46 28 23 00 00 00 00 00 00
2025-11-07T22:17:24.764151,26.364,can0  204  [16]  6E 23 50 46 50 46 50 46 28 23 00 00 00 00 00 00
2025-11-07T22:17:24.764714,26.365,can0  206  [16]  AF 0C D6 07 AF 0C B1 E0 E3 07 CB 0C BB 0C 00 00
2025-11-07T22:17:24.765191,26.365,can0  204  [16]  6E 23 50 46 50 46 50 46 28 23 00 00 00 00 00 00
2025-11-07T22:17:24.765619,26.365,can0  204  [16]  6E 23 50 46 50 46 50 46 28 23 00 00 00 00 00 00
2025-11-07T22:17:24.766038,26.366,can0  204  [16]  6E 23 50 46 50 46 50 46 28 23 00 00 00 00 00 00
2025-11-07T22:17:24.766471,26.366,can0  206  [16]  BF 0C CB 07 A3 0C DA DC DE 07 D3 0C B7 0C 00 00
2025-11-07T22:17:24.766888,26.367,can0  204  [16]  6E 23 50 46 50 46 50 46 28 23 00 00 00 00 00 00
2025-11-07T22:17:24.767304,26.367,can0  204  [16]  6E 23 50 46 50 46 50 46 28 23 00 00 00 00 00 00
2025-11-07T22:17:24.767728,26.368,can0  204  [16]  6E 23 50 46 50 46 50 46 28 23 00 00 00 00 00 00
2025-11-07T22:17:24.768156,26.368,can0  206  [16]  B3 0C CB 07 B3 0C F4 E3 E0 07 D3 0C B3 0C 00 00
2025-11-07T22:17:24.768573,26.368,can0  204  [16]  6E 23 50 46 50 46 50 46 28 23 00 00 00 00 00 00
2025-11-07T22:17:24.789613,26.389,can0  204  [16]  6E 23 50 46 50 46 50 46 28 23 00 00 00 00 00 00
2025-11-07T22:17:25.241966,26.842,can0  204  [16]  6E 23 50 46 50 46 50 46 28 23 00 00 00 00 00 00
2025-11-07T22:17:25.242774,26.843,can0  206  [16]  AF 0C D1 07 AF 0C DA DC DE 07 DB 0C BB 0C 00 00
2025-11-07T22:17:25.243400,26.843,can0  204  [16]  6E 23 50 46 50 46 50 46 28 23 00 00 00 00 00 00
2025-11-07T22:17:25.243851,26.844,can0  204  [16]  6E 23 50 46 50 46 50 46 28 23 00 00 00 00 00 00
2025-11-07T22:17:25.244260,26.844,can0  204  [16]  6E 23 50 46 50 46 50 46 28 23 00 00 00 00 00 00
2025-11-07T22:17:25.244710,26.845,can0  206  [16]  B7 0C CD 07 AB 0C DA DC E0 07 E4 0C B3 0C 00 00
2025-11-07T22:17:25.245126,26.845,can0  204  [16]  6E 23 50 46 50 46 50 46 28 23 00 00 00 00 00 00
2025-11-07T22:17:25.245566,26.845,can0  204  [16]  6E 23 50 46 50 46 50 46 28 23 00 00 00 00 00 00
2025-11-07T22:17:25.245949,26.846,can0  204  [16]  6E 23 50 46 50 46 50 46 28 23 00 00 00 00 00 00
2025-11-07T22:17:25.246389,26.846,can0  206  [16]  AB 0C CB 07 B7 0C B1 E0 D3 07 CF 0C BB 0C 00 00
2025-11-07T22:17:25.721708,27.322,can0  204  [16]  6E 23 50 46 50 46 50 46 28 23 00 00 00 00 00 00
2025-11-07T22:17:25.729358,27.329,can0  204  [16]  6E 23 50 46 50 46 50 46 28 23 00 00 00 00 00 00
2025-11-07T22:17:25.730100,27.330,can0  204  [16]  6E 23 50 46 50 46 50 46 28 23 00 00 00 00 00 00
2025-11-07T22:17:25.730893,27.331,can0  206  [16]  B7 0C CB 07 B3 0C DA DC DC 07 D3 0C AF 0C 00 00
2025-11-07T22:17:25.731771,27.332,can0  204  [16]  6E 23 50 46 50 46 50 46 28 23 00 00 00 00 00 00
2025-11-07T22:17:25.732365,27.332,can0  204  [16]  6E 23 50 46 50 46 50 46 28 23 00 00 00 00 00 00
2025-11-07T22:17:25.733861,27.334,can0  204  [16]  6E 23 50 46 50 46 50 46 28 23 00 00 00 00 00 00
2025-11-07T22:17:25.733925,27.334,can0  206  [16]  AB 0C C9 07 B3 0C DA DC DE 07 D3 0C BB 0C 00 00
2025-11-07T22:17:25.768139,27.368,can0  204  [16]  6E 23 50 46 50 46 50 46 28 23 00 00 00 00 00 00
2025-11-07T22:17:25.768260,27.368,can0  204  [16]  6E 23 50 46 50 46 50 46 28 23 00 00 00 00 00 00
2025-11-07T22:17:25.768297,27.368,can0  204  [16]  6E 23 50 46 50 46 50 46 28 23 00 00 00 00 00 00
2025-11-07T22:17:25.768331,27.368,can0  206  [16]  B3 0C CD 07 B7 0C A0 E2 E0 07 CF 0C B7 0C 00 00
2025-11-07T22:17:26.231169,27.831,can0  204  [16]  6E 23 50 46 50 46 50 46 28 23 00 00 00 00 00 00
2025-11-07T22:17:26.233595,27.833,can0  204  [16]  6E 23 50 46 50 46 50 46 28 23 00 00 00 00 00 00
2025-11-07T22:17:26.233781,27.834,can0  204  [16]  6E 23 50 46 50 46 50 46 28 23 00 00 00 00 00 00
2025-11-07T22:17:26.234096,27.834,can0  206  [16]  BB 0C CD 07 B3 0C DA DC DE 07 D3 0C AF 0C 00 00
2025-11-07T22:17:26.234798,27.835,can0  204  [16]  6E 23 50 46 50 46 50 46 28 23 00 00 00 00 00 00
2025-11-07T22:17:26.235442,27.835,can0  204  [16]  6E 23 50 46 50 46 50 46 28 23 00 00 00 00 00 00
2025-11-07T22:17:26.236105,27.836,can0  204  [16]  6E 23 50 46 50 46 50 46 28 23 00 00 00 00 00 00
2025-11-07T22:17:26.236740,27.837,can0  206  [16]  AB 0C CB 07 AF 0C 3A DF E0 07 CB 0C BF 0C 00 00
2025-11-07T22:17:26.237415,27.837,can0  204  [16]  6E 23 50 46 50 46 50 46 28 23 00 00 00 00 00 00
2025-11-07T22:17:26.237978,27.838,can0  204  [16]  6E 23 50 46 50 46 50 46 28 23 00 00 00 00 00 00
2025-11-07T22:17:26.238820,27.839,can0  204  [16]  6E 23 50 46 50 46 50 46 28 23 00 00 00 00 00 00
2025-11-07T22:17:26.239653,27.840,can0  206  [16]  AF 0C CD 07 AF 0C 99 C6 E0 07 DB 0C B7 0C 00 00
2025-11-07T22:17:26.783522,28.383,can0  204  [16]  6E 23 50 46 50 46 50 46 28 23 00 00 00 00 00 00
2025-11-07T22:17:26.784056,28.384,can0  204  [16]  6E 23 50 46 50 46 50 46 28 23 00 00 00 00 00 00
2025-11-07T22:17:26.784578,28.384,can0  204  [16]  6E 23 50 46 50 46 50 46 28 23 00 00 00 00 00 00
2025-11-07T22:17:26.785092,28.385,can0  206  [16]  B7 0C CB 07 AF 0C B1 E0 DC 07 D3 0C B3 0C 00 00
2025-11-07T22:17:26.785591,28.385,can0  204  [16]  6E 23 50 46 50 46 50 46 28 23 00 00 00 00 00 00
2025-11-07T22:17:26.786070,28.386,can0  204  [16]  6E 23 50 46 50 46 50 46 28 23 00 00 00 00 00 00
2025-11-07T22:17:26.786544,28.386,can0  204  [16]  6E 23 50 46 50 46 50 46 28 23 00 00 00 00 00 00
2025-11-07T22:17:26.787020,28.387,can0  206  [16]  C7 0C D1 07 9B 0C B1 E0 DE 07 D7 0C B7 0C 00 00
2025-11-07T22:17:26.788480,28.388,can0  204  [16]  6E 23 50 46 50 46 50 46 28 23 00 00 00 00 00 00
2025-11-07T22:17:26.788533,28.388,can0  204  [16]  6E 23 50 46 50 46 50 46 28 23 00 00 00 00 00 00
2025-11-07T22:17:26.788736,28.389,can0  206  [16]  AF 0C CB 07 AF 0C DA DC DC 07 D3 0C BB 0C 00 00
2025-11-07T22:17:26.789294,28.389,can0  204  [16]  6E 23 50 46 50 46 50 46 28 23 00 00 00 00 00 00
2025-11-07T22:17:26.790541,28.390,can0  204  [16]  6E 23 50 46 50 46 50 46 28 23 00 00 00 00 00 00
2025-11-07T22:17:26.790587,28.390,can0  204  [16]  6E 23 50 46 50 46 50 46 28 23 00 00 00 00 00 00
2025-11-07T22:17:27.340553,28.940,can0  206  [16]  AF 0C CB 07 AB 0C DA DC DE 07 D7 0C BF 0C 00 00
2025-11-07T22:17:27.341229,28.941,can0  204  [16]  6E 23 50 46 50 46 50 46 28 23 00 00 00 00 00 00
2025-11-07T22:17:27.341838,28.942,can0  204  [16]  6E 23 50 46 50 46 50 46 28 23 00 00 00 00 00 00
2025-11-07T22:17:27.342284,28.942,can0  204  [16]  6E 23 50 46 50 46 50 46 28 23 00 00 00 00 00 00
2025-11-07T22:17:27.342756,28.943,can0  206  [16]  AB 0C CB 07 B3 0C 3A DF E0 07 CF 0C BB 0C 00 00
2025-11-07T22:17:27.343204,28.943,can0  204  [16]  6E 23 50 46 50 46 50 46 28 23 00 00 00 00 00 00
2025-11-07T22:17:27.343721,28.944,can0  204  [16]  6E 23 50 46 50 46 50 46 28 23 00 00 00 00 00 00
2025-11-07T22:17:27.344218,28.944,can0  204  [16]  6E 23 50 46 50 46 50 46 28 23 00 00 00 00 00 00
2025-11-07T22:17:27.344739,28.945,can0  206  [16]  C7 0C C9 07 9F 0C DA DC DE 07 D7 0C B3 0C 00 00
2025-11-07T22:17:27.345237,28.945,can0  204  [16]  6E 23 50 46 50 46 50 46 28 23 00 00 00 00 00 00
2025-11-07T22:17:27.345732,28.946,can0  204  [16]  6E 23 50 46 50 46 50 46 28 23 00 00 00 00 00 00
2025-11-07T22:17:27.346273,28.946,can0  204  [16]  6E 23 50 46 50 46 50 46 28 23 00 00 00 00 00 00
2025-11-07T22:17:27.831794,29.432,can0  206  [16]  B7 0C CB 07 AF 0C 3A DF E0 07 D7 0C B3 0C 00 00
2025-11-07T22:17:27.832476,29.432,can0  204  [16]  6E 23 50 46 50 46 50 46 28 23 00 00 00 00 00 00
2025-11-07T22:17:27.833132,29.433,can0  204  [16]  6E 23 50 46 50 46 50 46 28 23 00 00 00 00 00 00
2025-11-07T22:17:27.833584,29.433,can0  204  [16]  6E 23 50 46 50 46 50 46 28 23 00 00 00 00 00 00
2025-11-07T22:17:27.834056,29.434,can0  206  [16]  AB 0C CB 07 AF 0C 3A DF DC 07 D3 0C BF 0C 00 00
2025-11-07T22:17:27.834502,29.434,can0  204  [16]  6E 23 50 46 50 46 50 46 28 23 00 00 00 00 00 00
2025-11-07T22:17:27.834926,29.435,can0  204  [16]  6E 23 50 46 50 46 50 46 28 23 00 00 00 00 00 00
2025-11-07T22:17:27.835350,29.435,can0  204  [16]  6E 23 50 46 50 46 50 46 28 23 00 00 00 00 00 00
2025-11-07T22:17:27.835767,29.436,can0  206  [16]  B7 0C BC 07 A7 0C 99 C6 E0 07 D3 0C B7 0C 00 00
2025-11-07T22:17:27.836161,29.436,can0  204  [16]  6E 23 50 46 50 46 50 46 28 23 00 00 00 00 00 00
2025-11-07T22:17:27.836559,29.436,can0  204  [16]  6E 23 50 46 50 46 50 46 28 23 00 00 00 00 00 00
2025-11-07T22:17:27.836948,29.437,can0  204  [16]  6E 23 50 46 50 46 50 46 28 23 00 00 00 00 00 00
2025-11-07T22:17:28.315207,29.915,can0  206  [16]  B7 0C C9 07 AB 0C 3A DF DE 07 DB 0C B3 0C 00 00
2025-11-07T22:17:28.315757,29.916,can0  204  [16]  6E 23 50 46 50 46 50 46 28 23 00 00 00 00 00 00
2025-11-07T22:17:28.316175,29.916,can0  204  [16]  6E 23 50 46 50 46 50 46 28 23 00 00 00 00 00 00
2025-11-07T22:17:28.316600,29.916,can0  204  [16]  6E 23 50 46 50 46 50 46 28 23 00 00 00 00 00 00
2025-11-07T22:17:28.317007,29.917,can0  206  [16]  AF 0C CF 07 AB 0C B1 E0 E0 07 DB 0C BB 0C 00 00
2025-11-07T22:17:28.317428,29.917,can0  204  [16]  6E 23 50 46 50 46 50 46 28 23 00 00 00 00 00 00
2025-11-07T22:17:28.317923,29.918,can0  204  [16]  6E 23 50 46 50 46 50 46 28 23 00 00 00 00 00 00
2025-11-07T22:17:28.318314,29.918,can0  204  [16]  6E 23 50 46 50 46 50 46 28 23 00 00 00 00 00 00
2025-11-07T22:17:28.318713,29.919,can0  206  [16]  CB 0C CD 07 AB 0C DA DC DC 07 D7 0C 9F 0C 00 00
2025-11-07T22:17:28.319118,29.919,can0  204  [16]  6E 23 50 46 50 46 50 46 28 23 00 00 00 00 00 00
2025-11-07T22:17:28.319529,29.919,can0  204  [16]  6E 23 50 46 50 46 50 46 28 23 00 00 00 00 00 00
2025-11-07T22:17:28.320187,29.920,can0  204  [16]  6E 23 50 46 50 46 50 46 28 23 00 00 00 00 00 00
2025-11-07T22:17:28.325829,29.926,can0  206  [16]  B3 0C C9 07 AF 0C B1 E0 DE 07 D7 0C B7 0C 00 00
2025-11-07T22:17:28.804967,30.405,can0  204  [16]  6E 23 50 46 50 46 50 46 28 23 00 00 00 00 00 00
2025-11-07T22:17:28.805648,30.406,can0  204  [16]  6E 23 50 46 50 46 50 46 28 23 00 00 00 00 00 00
2025-11-07T22:17:28.806164,30.406,can0  204  [16]  6E 23 50 46 50 46 50 46 28 23 00 00 00 00 00 00
2025-11-07T22:17:28.806673,30.407,can0  206  [16]  B3 0C CB 07 AB 0C DA DC E0 07 D3 0C BB 0C 00 00
2025-11-07T22:17:28.807165,30.407,can0  204  [16]  6E 23 50 46 50 46 50 46 28 23 00 00 00 00 00 00
2025-11-07T22:17:28.807658,30.408,can0  204  [16]  6E 23 50 46 50 46 50 46 28 23 00 00 00 00 00 00
2025-11-07T22:17:28.808196,30.408,can0  206  [16]  A3 0C CD 07 AF 0C B1 E0 DC 07 D3 0C C7 0C 00 00
2025-11-07T22:17:28.808697,30.409,can0  204  [16]  6E 23 50 46 50 46 50 46 28 23 00 00 00 00 00 00
2025-11-07T22:17:28.809188,30.409,can0  204  [16]  6E 23 50 46 50 46 50 46 28 23 00 00 00 00 00 00
2025-11-07T22:17:28.810259,30.410,can0  204  [16]  6E 23 50 46 50 46 50 46 28 23 00 00 00 00 00 00
2025-11-07T22:17:28.810311,30.410,can0  206  [16]  BB 0C CB 07 AF 0C 99 C6 D8 07 CF 0C AF 0C 00 00
2025-11-07T22:17:28.813100,30.413,can0  204  [16]  6E 23 50 46 50 46 50 46 28 23 00 00 00 00 00 00
2025-11-07T22:17:29.287364,30.887,can0  204  [16]  6E 23 50 46 50 46 50 46 28 23 00 00 00 00 00 00
2025-11-07T22:17:29.288232,30.888,can0  204  [16]  6E 23 50 46 50 46 50 46 28 23 00 00 00 00 00 00
2025-11-07T22:17:29.288804,30.889,can0  206  [16]  AB 0C CB 07 AF 0C C5 E1 DE 07 DB 0C BB 0C 00 00
2025-11-07T22:17:29.289341,30.889,can0  204  [16]  6E 23 50 46 50 46 50 46 28 23 00 00 00 00 00 00
2025-11-07T22:17:29.289878,30.890,can0  204  [16]  6E 23 50 46 50 46 50 46 28 23 00 00 00 00 00 00
2025-11-07T22:17:29.290395,30.890,can0  204  [16]  6E 23 50 46 50 46 50 46 28 23 00 00 00 00 00 00
2025-11-07T22:17:29.290934,30.891,can0  206  [16]  B7 0C C9 07 A7 0C 99 C6 E0 07 DB 0C BB 0C 00 00
2025-11-07T22:17:29.291464,30.891,can0  204  [16]  6E 23 50 46 50 46 50 46 28 23 00 00 00 00 00 00
2025-11-07T22:17:29.292697,30.893,can0  204  [16]  6E 23 50 46 50 46 50 46 28 23 00 00 00 00 00 00
2025-11-07T22:17:29.292750,30.893,can0  204  [16]  6E 23 50 46 50 46 50 46 28 23 00 00 00 00 00 00
2025-11-07T22:17:29.776286,31.376,can0  206  [16]  BF 0C D1 07 A3 0C DA DC E3 07 CF 0C B7 0C 00 00
2025-11-07T22:17:29.776948,31.377,can0  204  [16]  6E 23 50 46 50 46 50 46 28 23 00 00 00 00 00 00
2025-11-07T22:17:29.777494,31.377,can0  204  [16]  6E 23 50 46 50 46 50 46 28 23 00 00 00 00 00 00
2025-11-07T22:17:29.778012,31.378,can0  204  [16]  6E 23 50 46 50 46 50 46 28 23 00 00 00 00 00 00
2025-11-07T22:17:29.778580,31.378,can0  206  [16]  B3 0C CD 07 BB 0C DA DC E0 07 CB 0C B7 0C 00 00
2025-11-07T22:17:29.779106,31.379,can0  204  [16]  6E 23 50 46 50 46 50 46 28 23 00 00 00 00 00 00
2025-11-07T22:17:29.779621,31.379,can0  204  [16]  6E 23 50 46 50 46 50 46 28 23 00 00 00 00 00 00
2025-11-07T22:17:29.780126,31.380,can0  204  [16]  6E 23 50 46 50 46 50 46 28 23 00 00 00 00 00 00
2025-11-07T22:17:29.780883,31.381,can0  206  [16]  B7 0C CB 07 AF 0C DA DC E9 07 D3 0C B3 0C 00 00
2025-11-07T22:17:29.781559,31.381,can0  204  [16]  6E 23 50 46 50 46 50 46 28 23 00 00 00 00 00 00
2025-11-07T22:17:29.782182,31.382,can0  204  [16]  6E 23 50 46 50 46 50 46 28 23 00 00 00 00 00 00
2025-11-07T22:17:29.782719,31.383,can0  204  [16]  6E 23 50 46 50 46 50 46 28 23 00 00 00 00 00 00
2025-11-07T22:17:29.783264,31.383,can0  206  [16]  BF 0C CB 07 AB 0C 3A DF DE 07 D3 0C AF 0C 00 00
2025-11-07T22:17:30.257883,31.858,can0  204  [16]  6E 23 50 46 50 46 50 46 28 23 00 00 00 00 00 00
2025-11-07T22:17:30.258563,31.858,can0  204  [16]  6E 23 50 46 50 46 50 46 28 23 00 00 00 00 00 00
2025-11-07T22:17:30.259117,31.859,can0  204  [16]  6E 23 50 46 50 46 50 46 28 23 00 00 00 00 00 00
2025-11-07T22:17:30.259775,31.860,can0  206  [16]  BF 0C CD 07 A7 0C DA DC DC 07 D7 0C AF 0C 00 00
2025-11-07T22:17:30.260064,31.860,can0  204  [16]  6E 23 50 46 50 46 50 46 28 23 00 00 00 00 00 00
2025-11-07T22:17:30.260486,31.860,can0  204  [16]  6E 23 50 46 50 46 50 46 28 23 00 00 00 00 00 00
2025-11-07T22:17:30.260909,31.861,can0  204  [16]  6E 23 50 46 50 46 50 46 28 23 00 00 00 00 00 00
2025-11-07T22:17:30.261315,31.861,can0  206  [16]  AB 0C CB 07 AF 0C DA DC E3 07 D7 0C BF 0C 00 00
2025-11-07T22:17:30.261748,31.862,can0  204  [16]  6E 23 50 46 50 46 50 46 28 23 00 00 00 00 00 00
2025-11-07T22:17:30.262152,31.862,can0  204  [16]  6E 23 50 46 50 46 50 46 28 23 00 00 00 00 00 00
2025-11-07T22:17:30.736614,32.336,can0  204  [16]  6E 23 50 46 50 46 50 46 28 23 00 00 00 00 00 00
2025-11-07T22:17:30.744064,32.344,can0  206  [16]  AB 0C D3 07 AB 0C B1 E0 E0 07 D7 0C BF 0C 00 00
2025-11-07T22:17:30.745327,32.345,can0  204  [16]  6E 23 50 46 50 46 50 46 28 23 00 00 00 00 00 00
2025-11-07T22:17:30.745997,32.346,can0  204  [16]  6E 23 50 46 50 46 50 46 28 23 00 00 00 00 00 00
2025-11-07T22:17:30.746727,32.347,can0  204  [16]  6E 23 50 46 50 46 50 46 28 23 00 00 00 00 00 00
2025-11-07T22:17:30.747795,32.348,can0  206  [16]  14 0D CD 07 AF 0C B1 E0 DE 07 CB 0C 52 0C 00 00
2025-11-07T22:17:30.748220,32.348,can0  204  [16]  6E 23 50 46 50 46 50 46 28 23 00 00 00 00 00 00
2025-11-07T22:17:30.748924,32.349,can0  204  [16]  6E 23 50 46 50 46 50 46 28 23 00 00 00 00 00 00
2025-11-07T22:17:30.749895,32.350,can0  204  [16]  6E 23 50 46 50 46 50 46 28 23 00 00 00 00 00 00
2025-11-07T22:17:30.750297,32.350,can0  206  [16]  AF 0C C9 07 AB 0C DA DC E0 07 DB 0C BB 0C 00 00
2025-11-07T22:17:30.750984,32.351,can0  204  [16]  6E 23 50 46 50 46 50 46 28 23 00 00 00 00 00 00
2025-11-07T22:17:30.751656,32.352,can0  204  [16]  6E 23 50 46 50 46 50 46 28 23 00 00 00 00 00 00
2025-11-07T22:17:31.250354,32.850,can0  204  [16]  6E 23 50 46 50 46 50 46 28 23 00 00 00 00 00 00
2025-11-07T22:17:31.251017,32.851,can0  206  [16]  AB 0C CB 07 AF 0C 3A DF E5 07 D7 0C BF 0C 00 00
2025-11-07T22:17:31.251603,32.851,can0  204  [16]  6E 23 50 46 50 46 50 46 28 23 00 00 00 00 00 00
2025-11-07T22:17:31.252079,32.852,can0  204  [16]  6E 23 50 46 50 46 50 46 28 23 00 00 00 00 00 00
2025-11-07T22:17:31.252549,32.852,can0  204  [16]  6E 23 50 46 50 46 50 46 28 23 00 00 00 00 00 00
2025-11-07T22:17:31.253035,32.853,can0  206  [16]  AF 0C CD 07 AB 0C C5 E1 E0 07 CF 0C BB 0C 00 00
2025-11-07T22:17:31.253520,32.853,can0  204  [16]  6E 23 50 46 50 46 50 46 28 23 00 00 00 00 00 00
2025-11-07T22:17:31.253977,32.854,can0  204  [16]  6E 23 50 46 50 46 50 46 28 23 00 00 00 00 00 00
2025-11-07T22:17:31.254443,32.854,can0  204  [16]  6E 23 50 46 50 46 50 46 28 23 00 00 00 00 00 00
2025-11-07T22:17:31.254950,32.855,can0  206  [16]  B7 0C CB 07 AB 0C 3A DF E3 07 D3 0C B7 0C 00 00
2025-11-07T22:17:31.256259,32.856,can0  204  [16]  6E 23 50 46 50 46 50 46 28 23 00 00 00 00 00 00
2025-11-07T22:17:31.256310,32.856,can0  204  [16]  6E 23 50 46 50 46 50 46 28 23 00 00 00 00 00 00
2025-11-07T22:17:31.738234,33.338,can0  204  [16]  6E 23 50 46 50 46 50 46 28 23 00 00 00 00 00 00
2025-11-07T22:17:31.738867,33.339,can0  206  [16]  BB 0C CD 07 AB 0C B1 E0 E3 07 D7 0C B3 0C 00 00
2025-11-07T22:17:31.739430,33.339,can0  204  [16]  6E 23 50 46 50 46 50 46 28 23 00 00 00 00 00 00
2025-11-07T22:17:31.739914,33.340,can0  204  [16]  6E 23 50 46 50 46 50 46 28 23 00 00 00 00 00 00
2025-11-07T22:17:31.740397,33.340,can0  204  [16]  6E 23 50 46 50 46 50 46 28 23 00 00 00 00 00 00
2025-11-07T22:17:31.740898,33.341,can0  206  [16]  BF 0C CB 07 A7 0C DA DC E0 07 DB 0C AF 0C 00 00
2025-11-07T22:17:31.741384,33.341,can0  204  [16]  6E 23 50 46 50 46 50 46 28 23 00 00 00 00 00 00
2025-11-07T22:17:31.741865,33.342,can0  204  [16]  6E 23 50 46 50 46 50 46 28 23 00 00 00 00 00 00
2025-11-07T22:17:31.742334,33.342,can0  204  [16]  6E 23 50 46 50 46 50 46 28 23 00 00 00 00 00 00
2025-11-07T22:17:31.742882,33.343,can0  206  [16]  B7 0C CD 07 AB 0C 99 C6 E5 07 DB 0C B3 0C 00 00
2025-11-07T22:17:31.764599,33.364,can0  204  [16]  6E 23 50 46 50 46 50 46 28 23 00 00 00 00 00 00
2025-11-07T22:17:32.227080,33.827,can0  204  [16]  6E 23 50 46 50 46 50 46 28 23 00 00 00 00 00 00
2025-11-07T22:17:32.227663,33.828,can0  204  [16]  6E 23 50 46 50 46 50 46 28 23 00 00 00 00 00 00
2025-11-07T22:17:32.228226,33.828,can0  206  [16]  AB 0C CB 07 AB 0C DA DC E0 07 DF 0C BF 0C 00 00
2025-11-07T22:17:32.228749,33.829,can0  204  [16]  6E 23 50 46 50 46 50 46 28 23 00 00 00 00 00 00
2025-11-07T22:17:32.229235,33.829,can0  204  [16]  6E 23 50 46 50 46 50 46 28 23 00 00 00 00 00 00
2025-11-07T22:17:32.229722,33.830,can0  206  [16]  C7 0C C9 07 A3 0C DA DC DE 07 D3 0C AB 0C 00 00
2025-11-07T22:17:32.230209,33.830,can0  204  [16]  6E 23 50 46 50 46 50 46 28 23 00 00 00 00 00 00
2025-11-07T22:17:32.230735,33.831,can0  204  [16]  6E 23 50 46 50 46 50 46 28 23 00 00 00 00 00 00
2025-11-07T22:17:32.231311,33.831,can0  204  [16]  6E 23 50 46 50 46 50 46 28 23 00 00 00 00 00 00
2025-11-07T22:17:32.231799,33.832,can0  206  [16]  AF 0C CD 07 AF 0C DA DC DC 07 D3 0C BB 0C 00 00
2025-11-07T22:17:32.232466,33.832,can0  204  [16]  6E 23 50 46 50 46 50 46 28 23 00 00 00 00 00 00
2025-11-07T22:17:32.233126,33.833,can0  204  [16]  6E 23 50 46 50 46 50 46 28 23 00 00 00 00 00 00
2025-11-07T22:17:32.733087,34.333,can0  204  [16]  6E 23 50 46 50 46 50 46 28 23 00 00 00 00 00 00
2025-11-07T22:17:32.733908,34.334,can0  206  [16]  BB 0C CB 07 A7 0C 3A DF DE 07 D7 0C B3 0C 00 00
2025-11-07T22:17:32.734519,34.334,can0  204  [16]  6E 23 50 46 50 46 50 46 28 23 00 00 00 00 00 00
2025-11-07T22:17:32.735042,34.335,can0  204  [16]  6E 23 50 46 50 46 50 46 28 23 00 00 00 00 00 00
2025-11-07T22:17:32.735571,34.335,can0  204  [16]  6E 23 50 46 50 46 50 46 28 23 00 00 00 00 00 00
2025-11-07T22:17:32.736080,34.336,can0  206  [16]  B7 0C C9 07 AF 0C FA E4 DE 07 CF 0C B3 0C 00 00
2025-11-07T22:17:32.736608,34.336,can0  204  [16]  6E 23 50 46 50 46 50 46 28 23 00 00 00 00 00 00
2025-11-07T22:17:32.737155,34.337,can0  204  [16]  6E 23 50 46 50 46 50 46 28 23 00 00 00 00 00 00
2025-11-07T22:17:32.737730,34.338,can0  204  [16]  6E 23 50 46 50 46 50 46 28 23 00 00 00 00 00 00
2025-11-07T22:17:32.738356,34.338,can0  206  [16]  AF 0C C9 07 AB 0C DA DC E3 07 D7 0C BB 0C 00 00
2025-11-07T22:17:32.739014,34.339,can0  204  [16]  6E 23 50 46 50 46 50 46 28 23 00 00 00 00 00 00
2025-11-07T22:17:32.739556,34.339,can0  204  [16]  6E 23 50 46 50 46 50 46 28 23 00 00 00 00 00 00
2025-11-07T22:17:33.230772,34.831,can0  204  [16]  6E 23 50 46 50 46 50 46 28 23 00 00 00 00 00 00
2025-11-07T22:17:33.231853,34.832,can0  206  [16]  B3 0C CB 07 AF 0C 3A DF DE 07 CB 0C B7 0C 00 00
2025-11-07T22:17:33.232610,34.832,can0  204  [16]  6E 23 50 46 50 46 50 46 28 23 00 00 00 00 00 00
2025-11-07T22:17:33.233301,34.833,can0  204  [16]  6E 23 50 46 50 46 50 46 28 23 00 00 00 00 00 00
2025-11-07T22:17:33.234031,34.834,can0  204  [16]  6E 23 50 46 50 46 50 46 28 23 00 00 00 00 00 00
2025-11-07T22:17:33.234779,34.835,can0  206  [16]  BB 0C CD 07 AF 0C DA DC DE 07 CF 0C AF 0C 00 00
2025-11-07T22:17:33.235492,34.835,can0  204  [16]  6E 23 50 46 50 46 50 46 28 23 00 00 00 00 00 00
2025-11-07T22:17:33.236899,34.837,can0  204  [16]  6E 23 50 46 50 46 50 46 28 23 00 00 00 00 00 00
2025-11-07T22:17:33.236942,34.837,can0  204  [16]  6E 23 50 46 50 46 50 46 28 23 00 00 00 00 00 00
2025-11-07T22:17:33.237859,34.838,can0  206  [16]  A7 0C C9 07 AB 0C 3A DF E3 07 D3 0C C3 0C 00 00
2025-11-07T22:17:33.238793,34.839,can0  204  [16]  6E 23 50 46 50 46 50 46 28 23 00 00 00 00 00 00
2025-11-07T22:17:33.239769,34.840,can0  204  [16]  6E 23 50 46 50 46 50 46 28 23 00 00 00 00 00 00
2025-11-07T22:17:33.741116,35.341,can0  204  [16]  6E 23 50 46 50 46 50 46 28 23 00 00 00 00 00 00
2025-11-07T22:17:33.741754,35.342,can0  206  [16]  BB 0C DC 07 AB 0C B1 E0 E3 07 D3 0C AF 0C 00 00
2025-11-07T22:17:33.742285,35.342,can0  204  [16]  6E 23 50 46 50 46 50 46 28 23 00 00 00 00 00 00
2025-11-07T22:17:33.742775,35.343,can0  204  [16]  6E 23 50 46 50 46 50 46 28 23 00 00 00 00 00 00
2025-11-07T22:17:33.743237,35.343,can0  204  [16]  6E 23 50 46 50 46 50 46 28 23 00 00 00 00 00 00
2025-11-07T22:17:33.743718,35.344,can0  206  [16]  B3 0C D1 07 AB 0C B1 E0 E0 07 D7 0C BB 0C 00 00
2025-11-07T22:17:33.744187,35.344,can0  204  [16]  6E 23 50 46 50 46 50 46 28 23 00 00 00 00 00 00
2025-11-07T22:17:33.744662,35.345,can0  204  [16]  6E 23 50 46 50 46 50 46 28 23 00 00 00 00 00 00
2025-11-07T22:17:33.745143,35.345,can0  204  [16]  6E 23 50 46 50 46 50 46 28 23 00 00 00 00 00 00
2025-11-07T22:17:33.745638,35.346,can0  206  [16]  B7 0C CB 07 A3 0C B1 E0 E3 07 CF 0C C7 0C 00 00
2025-11-07T22:17:33.746288,35.346,can0  204  [16]  6E 23 50 46 50 46 50 46 28 23 00 00 00 00 00 00
2025-11-07T22:17:33.746988,35.347,can0  204  [16]  6E 23 50 46 50 46 50 46 28 23 00 00 00 00 00 00
2025-11-07T22:17:34.244427,35.844,can0  204  [16]  6E 23 50 46 50 46 50 46 28 23 00 00 00 00 00 00
2025-11-07T22:17:34.245543,35.845,can0  206  [16]  B3 0C CB 07 AF 0C 99 C6 DE 07 D7 0C B7 0C 00 00
2025-11-07T22:17:34.246298,35.846,can0  204  [16]  6E 23 50 46 50 46 50 46 28 23 00 00 00 00 00 00
2025-11-07T22:17:34.247182,35.847,can0  204  [16]  6E 23 50 46 50 46 50 46 28 23 00 00 00 00 00 00
2025-11-07T22:17:34.248011,35.848,can0  204  [16]  6E 23 50 46 50 46 50 46 28 23 00 00 00 00 00 00
2025-11-07T22:17:34.249092,35.849,can0  206  [16]  BB 0C CB 07 A7 0C DA DC DE 07 D3 0C B7 0C 00 00
2025-11-07T22:17:34.249659,35.850,can0  204  [16]  6E 23 50 46 50 46 50 46 28 23 00 00 00 00 00 00
2025-11-07T22:17:34.250071,35.850,can0  204  [16]  6E 23 50 46 50 46 50 46 28 23 00 00 00 00 00 00
2025-11-07T22:17:34.250776,35.851,can0  204  [16]  6E 23 50 46 50 46 50 46 28 23 00 00 00 00 00 00
2025-11-07T22:17:34.251614,35.851,can0  206  [16]  AF 0C C9 07 B7 0C DA DC DE 07 D3 0C B3 0C 00 00
2025-11-07T22:17:34.252501,35.852,can0  204  [16]  6E 23 50 46 50 46 50 46 28 23 00 00 00 00 00 00
2025-11-07T22:17:34.253430,35.853,can0  204  [16]  6E 23 50 46 50 46 50 46 28 23 00 00 00 00 00 00
2025-11-07T22:17:34.751776,36.352,can0  204  [16]  6E 23 50 46 50 46 50 46 28 23 00 00 00 00 00 00
2025-11-07T22:17:34.752340,36.352,can0  206  [16]  B7 0C CB 07 A7 0C DA DC DE 07 E4 0C B3 0C 00 00
2025-11-07T22:17:34.752875,36.353,can0  204  [16]  6E 23 50 46 50 46 50 46 28 23 00 00 00 00 00 00
2025-11-07T22:17:34.753357,36.353,can0  204  [16]  6E 23 50 46 50 46 50 46 28 23 00 00 00 00 00 00
2025-11-07T22:17:34.753835,36.354,can0  204  [16]  6E 23 50 46 50 46 50 46 28 23 00 00 00 00 00 00
2025-11-07T22:17:34.754304,36.354,can0  206  [16]  B7 0C CD 07 AB 0C 3A DF DE 07 D7 0C B7 0C 00 00
2025-11-07T22:17:34.754783,36.355,can0  204  [16]  6E 23 50 46 50 46 50 46 28 23 00 00 00 00 00 00
2025-11-07T22:17:34.755252,36.355,can0  204  [16]  6E 23 50 46 50 46 50 46 28 23 00 00 00 00 00 00
2025-11-07T22:17:34.755731,36.356,can0  206  [16]  BB 0C CD 07 B3 0C DA DC E0 07 D3 0C AF 0C 00 00
2025-11-07T22:17:34.756205,36.356,can0  204  [16]  6E 23 50 46 50 46 50 46 28 23 00 00 00 00 00 00
2025-11-07T22:17:34.756706,36.357,can0  204  [16]  6E 23 50 46 50 46 50 46 28 23 00 00 00 00 00 00
2025-11-07T22:17:34.757478,36.357,can0  204  [16]  6E 23 50 46 50 46 50 46 28 23 00 00 00 00 00 00
2025-11-07T22:17:35.203209,36.803,can0  206  [16]  B3 0C CF 07 B3 0C B1 E0 E0 07 CB 0C B7 0C 00 00
2025-11-07T22:17:35.203462,36.803,can0  204  [16]  6E 23 50 46 50 46 50 46 28 23 00 00 00 00 00 00
2025-11-07T22:17:35.203963,36.804,can0  204  [16]  6E 23 50 46 50 46 50 46 28 23 00 00 00 00 00 00
2025-11-07T22:17:35.204462,36.804,can0  204  [16]  6E 23 50 46 50 46 50 46 28 23 00 00 00 00 00 00
2025-11-07T22:17:35.204939,36.805,can0  206  [16]  AF 0C CB 07 AB 0C B1 E0 D8 07 D3 0C BB 0C 00 00
2025-11-07T22:17:35.205447,36.805,can0  204  [16]  6E 23 50 46 50 46 50 46 28 23 00 00 00 00 00 00
2025-11-07T22:17:35.206211,36.806,can0  204  [16]  6E 23 50 46 50 46 50 46 28 23 00 00 00 00 00 00
2025-11-07T22:17:35.206711,36.807,can0  204  [16]  6E 23 50 46 50 46 50 46 28 23 00 00 00 00 00 00
2025-11-07T22:17:35.207416,36.807,can0  206  [16]  BF 0C C9 07 AB 0C 3A DF DE 07 D7 0C AF 0C 00 00
2025-11-07T22:17:35.208780,36.809,can0  204  [16]  6E 23 50 46 50 46 50 46 28 23 00 00 00 00 00 00
2025-11-07T22:17:35.208819,36.809,can0  204  [16]  6E 23 50 46 50 46 50 46 28 23 00 00 00 00 00 00
2025-11-07T22:17:35.209372,36.809,can0  204  [16]  6E 23 50 46 50 46 50 46 28 23 00 00 00 00 00 00
2025-11-07T22:17:35.657876,37.258,can0  206  [16]  AF 0C CB 07 AF 0C 57 E3 DE 07 D3 0C BB 0C 00 00
2025-11-07T22:17:35.658765,37.259,can0  204  [16]  6E 23 50 46 50 46 50 46 28 23 00 00 00 00 00 00
2025-11-07T22:17:35.659303,37.259,can0  204  [16]  6E 23 50 46 50 46 50 46 28 23 00 00 00 00 00 00
2025-11-07T22:17:35.659811,37.260,can0  204  [16]  6E 23 50 46 50 46 50 46 28 23 00 00 00 00 00 00
2025-11-07T22:17:35.660315,37.260,can0  206  [16]  AB 0C CB 07 AB 0C DA DC DE 07 DB 0C BF 0C 00 00
2025-11-07T22:17:35.660821,37.261,can0  204  [16]  6E 23 50 46 50 46 50 46 28 23 00 00 00 00 00 00
2025-11-07T22:17:35.661299,37.261,can0  204  [16]  6E 23 50 46 50 46 50 46 28 23 00 00 00 00 00 00
2025-11-07T22:17:35.661791,37.262,can0  204  [16]  6E 23 50 46 50 46 50 46 28 23 00 00 00 00 00 00
2025-11-07T22:17:35.662303,37.262,can0  206  [16]  BB 0C C9 07 AF 0C B1 E0 DE 07 D7 0C AF 0C 00 00
2025-11-07T22:17:35.662841,37.263,can0  204  [16]  6E 23 50 46 50 46 50 46 28 23 00 00 00 00 00 00
2025-11-07T22:17:36.114735,37.715,can0  204  [16]  6E 23 50 46 50 46 50 46 28 23 00 00 00 00 00 00
2025-11-07T22:17:36.122219,37.722,can0  204  [16]  6E 23 50 46 50 46 50 46 28 23 00 00 00 00 00 00
2025-11-07T22:17:36.123469,37.723,can0  206  [16]  B3 0C D3 07 AF 0C DA DC DC 07 D3 0C B7 0C 00 00
2025-11-07T22:17:36.124582,37.724,can0  204  [16]  6E 23 50 46 50 46 50 46 28 23 00 00 00 00 00 00
2025-11-07T22:17:36.124806,37.725,can0  204  [16]  6E 23 50 46 50 46 50 46 28 23 00 00 00 00 00 00
2025-11-07T22:17:36.125572,37.725,can0  204  [16]  6E 23 50 46 50 46 50 46 28 23 00 00 00 00 00 00
2025-11-07T22:17:36.126126,37.726,can0  206  [16]  B3 0C BE 07 AB 0C C5 E1 E0 07 D7 0C B7 0C 00 00
2025-11-07T22:17:36.126720,37.727,can0  204  [16]  6E 23 50 46 50 46 50 46 28 23 00 00 00 00 00 00
2025-11-07T22:17:36.127294,37.727,can0  204  [16]  6E 23 50 46 50 46 50 46 28 23 00 00 00 00 00 00
2025-11-07T22:17:36.128310,37.728,can0  204  [16]  6E 23 50 46 50 46 50 46 28 23 00 00 00 00 00 00
2025-11-07T22:17:36.128509,37.728,can0  206  [16]  AB 0C CB 07 A7 0C 99 C6 DE 07 DB 0C BF 0C 00 00
2025-11-07T22:17:36.147789,37.748,can0  204  [16]  6E 23 50 46 50 46 50 46 28 23 00 00 00 00 00 00
2025-11-07T22:17:36.580154,38.180,can0  204  [16]  6E 23 50 46 50 46 50 46 28 23 00 00 00 00 00 00
2025-11-07T22:17:36.580751,38.181,can0  204  [16]  6E 23 50 46 50 46 50 46 28 23 00 00 00 00 00 00
2025-11-07T22:17:36.581187,38.181,can0  206  [16]  B3 0C CD 07 B3 0C DA DC E3 07 D3 0C B7 0C 00 00
2025-11-07T22:17:36.581641,38.182,can0  204  [16]  6E 23 50 46 50 46 50 46 28 23 00 00 00 00 00 00
2025-11-07T22:17:36.582113,38.182,can0  204  [16]  6E 23 50 46 50 46 50 46 28 23 00 00 00 00 00 00
2025-11-07T22:17:36.582627,38.182,can0  204  [16]  6E 23 50 46 50 46 50 46 28 23 00 00 00 00 00 00
2025-11-07T22:17:36.583575,38.183,can0  206  [16]  AF 0C C7 07 AF 0C DA DC DE 07 D7 0C BB 0C 00 00
2025-11-07T22:17:36.583603,38.183,can0  204  [16]  6E 23 50 46 50 46 50 46 28 23 00 00 00 00 00 00
2025-11-07T22:17:36.584052,38.184,can0  204  [16]  6E 23 50 46 50 46 50 46 28 23 00 00 00 00 00 00
2025-11-07T22:17:36.584508,38.184,can0  204  [16]  6E 23 50 46 50 46 50 46 28 23 00 00 00 00 00 00
2025-11-07T22:17:36.585496,38.185,can0  206  [16]  BB 0C CD 07 AF 0C 3A DF DC 07 D3 0C AF 0C 00 00
2025-11-07T22:17:36.585727,38.186,can0  204  [16]  6E 23 50 46 50 46 50 46 28 23 00 00 00 00 00 00
2025-11-07T22:17:37.033690,38.634,can0  204  [16]  6E 23 50 46 50 46 50 46 28 23 00 00 00 00 00 00
2025-11-07T22:17:37.035009,38.635,can0  204  [16]  6E 23 50 46 50 46 50 46 28 23 00 00 00 00 00 00
2025-11-07T22:17:37.035055,38.635,can0  206  [16]  AF 0C CD 07 B3 0C DA DC E3 07 CF 0C BB 0C 00 00
2025-11-07T22:17:37.036149,38.636,can0  204  [16]  6E 23 50 46 50 46 50 46 28 23 00 00 00 00 00 00
2025-11-07T22:17:37.036185,38.636,can0  204  [16]  6E 23 50 46 50 46 50 46 28 23 00 00 00 00 00 00
2025-11-07T22:17:37.036707,38.637,can0  204  [16]  6E 23 50 46 50 46 50 46 28 23 00 00 00 00 00 00
2025-11-07T22:17:37.037136,38.637,can0  206  [16]  AF 0C CB 07 B3 0C 3A DF E3 07 CF 0C BB 0C 00 00
2025-11-07T22:17:37.037571,38.637,can0  204  [16]  6E 23 50 46 50 46 50 46 28 23 00 00 00 00 00 00
2025-11-07T22:17:37.038024,38.638,can0  204  [16]  6E 23 50 46 50 46 50 46 28 23 00 00 00 00 00 00
2025-11-07T22:17:37.490365,39.090,can0  204  [16]  6E 23 50 46 50 46 50 46 28 23 00 00 00 00 00 00
2025-11-07T22:17:37.490994,39.091,can0  206  [16]  AF 0C CD 07 AB 0C DA DC E0 07 D7 0C BF 0C 00 00
2025-11-07T22:17:37.491539,39.091,can0  204  [16]  6E 23 50 46 50 46 50 46 28 23 00 00 00 00 00 00
2025-11-07T22:17:37.491945,39.092,can0  204  [16]  6E 23 50 46 50 46 50 46 28 23 00 00 00 00 00 00
2025-11-07T22:17:37.492339,39.092,can0  204  [16]  6E 23 50 46 50 46 50 46 28 23 00 00 00 00 00 00
2025-11-07T22:17:37.492762,39.093,can0  206  [16]  C3 0C CB 07 A3 0C DA DC E0 07 CF 0C B3 0C 00 00
2025-11-07T22:17:37.493201,39.093,can0  204  [16]  6E 23 50 46 50 46 50 46 28 23 00 00 00 00 00 00
2025-11-07T22:17:37.493643,39.094,can0  204  [16]  6E 23 50 46 50 46 50 46 28 23 00 00 00 00 00 00
2025-11-07T22:17:37.494076,39.094,can0  204  [16]  6E 23 50 46 50 46 50 46 28 23 00 00 00 00 00 00
2025-11-07T22:17:37.494526,39.094,can0  206  [16]  AB 0C C9 07 AF 0C 99 C6 E5 07 D7 0C BF 0C 00 00
2025-11-07T22:17:37.495557,39.095,can0  204  [16]  6E 23 50 46 50 46 50 46 28 23 00 00 00 00 00 00
2025-11-07T22:17:37.495797,39.096,can0  204  [16]  6E 23 50 46 50 46 50 46 28 23 00 00 00 00 00 00
2025-11-07T22:17:37.993194,39.593,can0  204  [16]  6E 23 50 46 50 46 50 46 28 23 00 00 00 00 00 00
2025-11-07T22:17:37.994044,39.594,can0  206  [16]  BB 0C CB 07 AB 0C DA DC E3 07 D7 0C AF 0C 00 00
2025-11-07T22:17:37.994716,39.595,can0  204  [16]  6E 23 50 46 50 46 50 46 28 23 00 00 00 00 00 00
2025-11-07T22:17:37.995385,39.595,can0  204  [16]  6E 23 50 46 50 46 50 46 28 23 00 00 00 00 00 00
2025-11-07T22:17:37.995905,39.596,can0  204  [16]  6E 23 50 46 50 46 50 46 28 23 00 00 00 00 00 00
2025-11-07T22:17:37.996341,39.596,can0  206  [16]  B3 0C CD 07 AF 0C DA DC E0 07 D7 0C B7 0C 00 00
2025-11-07T22:17:37.997232,39.597,can0  204  [16]  6E 23 50 46 50 46 50 46 28 23 00 00 00 00 00 00
2025-11-07T22:17:37.997279,39.597,can0  204  [16]  6E 23 50 46 50 46 50 46 28 23 00 00 00 00 00 00
2025-11-07T22:17:37.999219,39.599,can0  204  [16]  6E 23 50 46 50 46 50 46 28 23 00 00 00 00 00 00
2025-11-07T22:17:37.999269,39.599,can0  206  [16]  BB 0C CB 07 A7 0C C5 E1 DE 07 CF 0C BB 0C 00 00
2025-11-07T22:17:37.999300,39.599,can0  204  [16]  6E 23 50 46 50 46 50 46 28 23 00 00 00 00 00 00
2025-11-07T22:17:37.999331,39.599,can0  204  [16]  6E 23 50 46 50 46 50 46 28 23 00 00 00 00 00 00
2025-11-07T22:17:38.452427,40.052,can0  204  [16]  6E 23 50 46 50 46 50 46 28 23 00 00 00 00 00 00
2025-11-07T22:17:38.453093,40.053,can0  206  [16]  C7 0C C9 07 AB 0C 3A DF E3 07 E4 0C AB 0C 00 00
2025-11-07T22:17:38.453630,40.053,can0  204  [16]  6E 23 50 46 50 46 50 46 28 23 00 00 00 00 00 00
2025-11-07T22:17:38.454093,40.054,can0  204  [16]  6E 23 50 46 50 46 50 46 28 23 00 00 00 00 00 00
2025-11-07T22:17:38.454565,40.054,can0  204  [16]  6E 23 50 46 50 46 50 46 28 23 00 00 00 00 00 00
2025-11-07T22:17:38.455031,40.055,can0  206  [16]  AB 0C CB 07 AF 0C 57 E3 E3 07 D3 0C BB 0C 00 00
2025-11-07T22:17:38.455536,40.055,can0  204  [16]  6E 23 50 46 50 46 50 46 28 23 00 00 00 00 00 00
2025-11-07T22:17:38.456040,40.056,can0  204  [16]  6E 23 50 46 50 46 50 46 28 23 00 00 00 00 00 00
2025-11-07T22:17:38.456547,40.056,can0  204  [16]  6E 23 50 46 50 46 50 46 28 23 00 00 00 00 00 00
2025-11-07T22:17:38.460447,40.060,can0  206  [16]  B7 0C D1 07 AB 0C DA DC DE 07 D7 0C B3 0C 00 00
2025-11-07T22:17:38.914114,40.514,can0  204  [16]  6E 23 50 46 50 46 50 46 28 23 00 00 00 00 00 00
2025-11-07T22:17:38.915039,40.515,can0  204  [16]  6E 23 50 46 50 46 50 46 28 23 00 00 00 00 00 00
2025-11-07T22:17:38.915647,40.516,can0  206  [16]  AF 0C CB 07 AF 0C 3A DF DA 07 C3 0C BB 0C 00 00
2025-11-07T22:17:38.916166,40.516,can0  204  [16]  6E 23 50 46 50 46 50 46 28 23 00 00 00 00 00 00
2025-11-07T22:17:38.916702,40.517,can0  204  [16]  6E 23 50 46 50 46 50 46 28 23 00 00 00 00 00 00
2025-11-07T22:17:38.917160,40.517,can0  204  [16]  6E 23 50 46 50 46 50 46 28 23 00 00 00 00 00 00
2025-11-07T22:17:38.917632,40.517,can0  206  [16]  B7 0C CB 07 AB 0C 3A DF E0 07 D7 0C B7 0C 00 00
2025-11-07T22:17:38.918214,40.518,can0  204  [16]  6E 23 50 46 50 46 50 46 28 23 00 00 00 00 00 00
2025-11-07T22:17:38.919835,40.520,can0  204  [16]  6E 23 50 46 50 46 50 46 28 23 00 00 00 00 00 00
2025-11-07T22:17:38.919891,40.520,can0  204  [16]  6E 23 50 46 50 46 50 46 28 23 00 00 00 00 00 00
2025-11-07T22:17:38.933455,40.533,can0  206  [16]  B7 0C C9 07 AF 0C 3A DF DE 07 BF 0C B3 0C 00 00
2025-11-07T22:17:38.933523,40.533,can0  204  [16]  6E 23 50 46 50 46 50 46 28 23 00 00 00 00 00 00
2025-11-07T22:17:39.374462,40.974,can0  204  [16]  6E 23 50 46 50 46 50 46 28 23 00 00 00 00 00 00
2025-11-07T22:17:39.375021,40.975,can0  204  [16]  6E 23 50 46 50 46 50 46 28 23 00 00 00 00 00 00
2025-11-07T22:17:39.375515,40.975,can0  206  [16]  BB 0C C9 07 BB 0C 99 C6 DE 07 BB 0C B3 0C 00 00
2025-11-07T22:17:39.376002,40.976,can0  204  [16]  6E 23 50 46 50 46 50 46 28 23 00 00 00 00 00 00
2025-11-07T22:17:39.376476,40.976,can0  204  [16]  6E 23 50 46 50 46 50 46 28 23 00 00 00 00 00 00
2025-11-07T22:17:39.376958,40.977,can0  204  [16]  6E 23 50 46 50 46 50 46 28 23 00 00 00 00 00 00
2025-11-07T22:17:39.377451,40.977,can0  206  [16]  CB 0C CD 07 AB 0C DA DC DE 07 DB 0C A3 0C 00 00
2025-11-07T22:17:39.377936,40.978,can0  204  [16]  6E 23 50 46 50 46 50 46 28 23 00 00 00 00 00 00
2025-11-07T22:17:39.378421,40.978,can0  204  [16]  6E 23 50 46 50 46 50 46 28 23 00 00 00 00 00 00
2025-11-07T22:17:39.836712,41.437,can0  204  [16]  6E 23 50 46 50 46 50 46 28 23 00 00 00 00 00 00
2025-11-07T22:17:39.837337,41.437,can0  206  [16]  AF 0C C9 07 A7 0C DA DC DE 07 DB 0C BB 0C 00 00
2025-11-07T22:17:39.837922,41.438,can0  204  [16]  6E 23 50 46 50 46 50 46 28 23 00 00 00 00 00 00
2025-11-07T22:17:39.838530,41.438,can0  204  [16]  6E 23 50 46 50 46 50 46 28 23 00 00 00 00 00 00
2025-11-07T22:17:39.839095,41.439,can0  204  [16]  6E 23 50 46 50 46 50 46 28 23 00 00 00 00 00 00
2025-11-07T22:17:39.839639,41.440,can0  206  [16]  BF 0C CD 07 A3 0C DA DC DC 07 CB 0C BB 0C 00 00
2025-11-07T22:17:39.840105,41.440,can0  204  [16]  6E 23 50 46 50 46 50 46 28 23 00 00 00 00 00 00
2025-11-07T22:17:39.840580,41.440,can0  204  [16]  6E 23 50 46 50 46 50 46 28 23 00 00 00 00 00 00
2025-11-07T22:17:39.841053,41.441,can0  204  [16]  6E 23 50 46 50 46 50 46 28 23 00 00 00 00 00 00
2025-11-07T22:17:39.842911,41.443,can0  206  [16]  AF 0C CB 07 B3 0C B1 E0 E0 07 D3 0C B7 0C 00 00
2025-11-07T22:17:39.842945,41.443,can0  204  [16]  6E 23 50 46 50 46 50 46 28 23 00 00 00 00 00 00
2025-11-07T22:17:39.842963,41.443,can0  204  [16]  6E 23 50 46 50 46 50 46 28 23 00 00 00 00 00 00
2025-11-07T22:17:40.297170,41.897,can0  204  [16]  6E 23 50 46 50 46 50 46 28 23 00 00 00 00 00 00
2025-11-07T22:17:40.297864,41.898,can0  206  [16]  B3 0C CD 07 AF 0C 3A DF E0 07 D3 0C B7 0C 00 00
2025-11-07T22:17:40.298439,41.898,can0  204  [16]  6E 23 50 46 50 46 50 46 28 23 00 00 00 00 00 00
2025-11-07T22:17:40.298898,41.899,can0  204  [16]  6E 23 50 46 50 46 50 46 28 23 00 00 00 00 00 00
2025-11-07T22:17:40.299343,41.899,can0  204  [16]  6E 23 50 46 50 46 50 46 28 23 00 00 00 00 00 00
2025-11-07T22:17:40.299815,41.900,can0  206  [16]  BB 0C D1 07 AB 0C 99 C6 E0 07 D7 0C B3 0C 00 00
2025-11-07T22:17:40.300296,41.900,can0  204  [16]  6E 23 50 46 50 46 50 46 28 23 00 00 00 00 00 00
2025-11-07T22:17:40.300795,41.901,can0  204  [16]  6E 23 50 46 50 46 50 46 28 23 00 00 00 00 00 00
2025-11-07T22:17:40.301282,41.901,can0  204  [16]  6E 23 50 46 50 46 50 46 28 23 00 00 00 00 00 00
2025-11-07T22:17:40.301758,41.902,can0  206  [16]  B3 0C CD 07 B7 0C 99 C6 E3 07 CB 0C BB 0C 00 00
2025-11-07T22:17:40.302470,41.902,can0  204  [16]  6E 23 50 46 50 46 50 46 28 23 00 00 00 00 00 00
2025-11-07T22:17:40.303005,41.903,can0  204  [16]  6E 23 50 46 50 46 50 46 28 23 00 00 00 00 00 00
2025-11-07T22:17:40.765874,42.366,can0  204  [16]  6E 23 50 46 50 46 50 46 28 23 00 00 00 00 00 00
2025-11-07T22:17:40.766510,42.366,can0  206  [16]  BB 0C CB 07 AB 0C 99 C6 E0 07 CB 0C AF 0C 00 00
2025-11-07T22:17:40.767474,42.367,can0  204  [16]  6E 23 50 46 50 46 50 46 28 23 00 00 00 00 00 00
2025-11-07T22:17:40.767514,42.367,can0  204  [16]  6E 23 50 46 50 46 50 46 28 23 00 00 00 00 00 00
2025-11-07T22:17:40.768598,42.368,can0  204  [16]  6E 23 50 46 50 46 50 46 28 23 00 00 00 00 00 00
2025-11-07T22:17:40.768650,42.369,can0  206  [16]  BB 0C C9 07 AB 0C B1 E0 E0 07 D7 0C B3 0C 00 00
2025-11-07T22:17:40.769208,42.369,can0  204  [16]  6E 23 50 46 50 46 50 46 28 23 00 00 00 00 00 00
2025-11-07T22:17:40.770074,42.370,can0  204  [16]  6E 23 50 46 50 46 50 46 28 23 00 00 00 00 00 00
2025-11-07T22:17:40.770400,42.370,can0  204  [16]  6E 23 50 46 50 46 50 46 28 23 00 00 00 00 00 00
2025-11-07T22:17:40.771026,42.371,can0  206  [16]  AF 0C CD 07 AB 0C 7E E4 E0 07 D7 0C BB 0C 00 00
2025-11-07T22:17:41.229344,42.829,can0  204  [16]  6E 23 50 46 50 46 50 46 28 23 00 00 00 00 00 00
2025-11-07T22:17:41.236782,42.837,can0  204  [16]  6E 23 50 46 50 46 50 46 28 23 00 00 00 00 00 00
2025-11-07T22:17:41.237958,42.838,can0  204  [16]  6E 23 50 46 50 46 50 46 28 23 00 00 00 00 00 00
2025-11-07T22:17:41.238539,42.838,can0  206  [16]  AF 0C CD 07 AB 0C 99 C6 E3 07 D3 0C BF 0C 00 00
2025-11-07T22:17:41.239004,42.839,can0  204  [16]  6E 23 50 46 50 46 50 46 28 23 00 00 00 00 00 00
2025-11-07T22:17:41.239401,42.839,can0  204  [16]  6E 23 50 46 50 46 50 46 28 23 00 00 00 00 00 00
