Timestamp,Elapsed_Time_s,CAN_Message
2025-11-08T01:07:41.018145,2.540,can0  041  [04]  3F 01 02 00
2025-11-08T01:07:41.439608,2.962,can0  206  [16]  AB 0C D1 07 9F 0C 99 C6 E5 07 C3 0C 9F 0C 00 00
2025-11-08T01:07:41.440127,2.962,can0  206  [16]  9F 0C D1 07 A7 0C 3A DF EB 07 B7 0C A7 0C 00 00
2025-11-08T01:07:41.440407,2.963,can0  041  [04]  3F 01 02 00
2025-11-08T01:07:41.440718,2.963,can0  206  [16]  9F 0C CF 07 97 0C 99 C6 E9 07 CB 0C AB 0C 00 00
2025-11-08T01:07:41.902118,3.424,can0  206  [16]  A7 0C D1 07 9B 0C 3A DF E5 07 BF 0C AB 0C 00 00
2025-11-08T01:07:41.902395,3.425,can0  041  [04]  3F 01 00 00
2025-11-08T01:07:41.902715,3.425,can0  206  [16]  AB 0C D1 07 9B 0C C5 E1 EB 07 CF 0C A7 0C 00 00
2025-11-08T01:07:41.902947,3.425,can0  041  [04]  3F 01 02 00
2025-11-08T01:07:41.903242,3.425,can0  206  [16]  A3 0C D8 07 97 0C DA DC E0 07 CB 0C AB 0C 00 00
2025-11-08T01:07:42.357621,3.880,can0  206  [16]  AB 0C D1 07 9F 0C 99 C6 E9 07 BF 0C A3 0C 00 00
2025-11-08T01:07:42.357711,3.880,can0  041  [04]  3F 01 02 00
2025-11-08T01:07:42.358971,3.881,can0  206  [16]  A3 0C D1 07 93 0C DA DC E9 07 C3 0C B7 0C 00 00
2025-11-08T01:07:42.365168,3.887,can0  206  [16]  AB 0C CF 07 9F 0C DA DC E9 07 C3 0C A3 0C 00 00
2025-11-08T01:07:42.845723,4.368,can0  041  [04]  3F 01 00 00
2025-11-08T01:07:42.846519,4.369,can0  206  [16]  A7 0C D1 07 9B 0C 99 C6 E7 07 C7 0C A7 0C 00 00
2025-11-08T01:07:42.846952,4.369,can0  206  [16]  9F 0C CF 07 A3 0C DA DC E7 07 BB 0C AB 0C 00 00
2025-11-08T01:07:42.847536,4.370,can0  041  [04]  B5 00 02 00
2025-11-08T01:07:42.847807,4.370,can0  206  [16]  C3 0C D1 07 A3 0C DA DC E9 07 C3 0C 8B 0C 00 00
2025-11-08T01:07:43.264855,4.787,can0  041  [04]  B5 00 02 00
2025-11-08T01:07:43.265387,4.788,can0  206  [16]  A7 0C D1 07 9F 0C 99 C6 ED 07 BF 0C A7 0C 00 00
2025-11-08T01:07:43.265794,4.788,can0  206  [16]  9F 0C CF 07 A7 0C 99 C6 EB 07 BF 0C AB 0C 00 00
2025-11-08T01:07:43.266129,4.788,can0  041  [04]  B5 00 02 00
2025-11-08T01:07:43.266521,4.789,can0  206  [16]  A3 0C CD 07 9F 0C 99 C6 E9 07 BF 0C AB 0C 00 00
2025-11-08T01:07:43.674587,5.197,can0  206  [16]  97 0C CD 07 A3 0C 99 C6 E9 07 C7 0C B3 0C 00 00
2025-11-08T01:07:43.682023,5.204,can0  041  [04]  E4 00 02 00
2025-11-08T01:07:43.682981,5.205,can0  206  [16]  AB 0C D6 07 A3 0C 99 C6 E9 07 BF 0C A3 0C 00 00
2025-11-08T01:07:43.683451,5.206,can0  041  [04]  E4 00 00 00
2025-11-08T01:07:43.683915,5.206,can0  206  [16]  9F 0C CD 07 87 0C DA DC E9 07 DB 0C AF 0C 00 00
2025-11-08T01:07:44.123226,5.645,can0  206  [16]  A3 0C D3 07 A7 0C 99 C6 E9 07 BF 0C A7 0C 00 00
2025-11-08T01:07:44.123670,5.646,can0  041  [04]  E4 00 02 00
2025-11-08T01:07:44.124149,5.646,can0  206  [16]  A3 0C CF 07 9F 0C 99 C6 EB 07 C7 0C AB 0C 00 00
2025-11-08T01:07:44.124538,5.647,can0  206  [16]  A7 0C CD 07 9F 0C DA DC E3 07 C3 0C A7 0C 00 00
2025-11-08T01:07:44.547762,6.070,can0  041  [04]  E4 00 02 00
2025-11-08T01:07:44.548317,6.070,can0  206  [16]  A7 0C D6 07 9B 0C DA DC E9 07 C3 0C AB 0C 00 00
2025-11-08T01:07:44.548718,6.071,can0  206  [16]  9F 0C CF 07 9B 0C B1 E0 ED 07 C3 0C AF 0C 00 00
2025-11-08T01:07:44.549026,6.071,can0  041  [04]  E4 00 02 00
2025-11-08T01:07:44.976181,6.498,can0  206  [16]  A7 0C CD 07 77 0C DA DC EB 07 DF 0C AB 0C 00 00
2025-11-08T01:07:44.976779,6.499,can0  204  [16]  FE 18 00 08 E9 2D 00 08 28 23 30 75 30 75 00 00
2025-11-08T01:07:44.977258,6.499,can0  204  [16]  FE 18 00 08 E9 2D 00 08 28 23 30 75 30 75 00 00
2025-11-08T01:07:44.977658,6.500,can0  204  [16]  FE 18 00 08 E9 2D 00 08 28 23 30 75 30 75 00 00
2025-11-08T01:07:44.978360,6.501,can0  041  [04]  E4 00 02 00
2025-11-08T01:07:44.978592,6.501,can0  206  [16]  B7 0C D3 07 8B 0C 3A DF 05 08 1A 0C 8F 0C 00 00
2025-11-08T01:07:44.978957,6.501,can0  204  [16]  FE 18 00 08 E9 2D 00 08 28 23 30 75 30 75 00 00
2025-11-08T01:07:44.979834,6.502,can0  204  [16]  AE 19 00 08 E9 2D 00 08 28 23 30 75 30 75 00 00
2025-11-08T01:07:44.980058,6.502,can0  204  [16]  17 1A 50 46 50 46 50 46 28 23 30 75 30 75 00 00
2025-11-08T01:07:44.980093,6.502,can0  206  [16]  8F 0C D1 07 8F 0C 99 C6 ED 07 9B 0C 9B 0C 00 00
2025-11-08T01:07:44.980438,6.503,can0  204  [16]  81 1A 50 46 50 46 50 46 28 23 30 75 30 75 00 00
2025-11-08T01:07:44.980699,6.503,can0  041  [04]  E4 00 02 00
2025-11-08T01:07:45.001385,6.524,can0  204  [16]  0D 1B 50 46 50 46 50 46 28 23 30 75 30 75 00 00
2025-11-08T01:07:45.403169,6.925,can0  204  [16]  77 1B 50 46 50 46 50 46 28 23 30 75 30 75 00 00
2025-11-08T01:07:45.403636,6.926,can0  206  [16]  8B 0C D3 07 8F 0C 99 C6 E9 07 9F 0C 9B 0C 00 00
2025-11-08T01:07:45.404002,6.926,can0  204  [16]  03 1C 50 46 50 46 50 46 28 23 30 75 30 75 00 00
2025-11-08T01:07:45.404356,6.927,can0  204  [16]  4A 1C 50 46 50 46 50 46 28 23 30 75 30 75 00 00
2025-11-08T01:07:45.404745,6.927,can0  206  [16]  8F 0C E0 07 83 0C DA DC E7 07 AB 0C 9B 0C 00 00
2025-11-08T01:07:45.405103,6.927,can0  204  [16]  B3 1C 50 46 50 46 50 46 28 23 30 75 30 75 00 00
2025-11-08T01:07:45.405976,6.928,can0  041  [04]  E4 00 02 00
2025-11-08T01:07:45.406010,6.928,can0  204  [16]  1D 1D 50 46 50 46 50 46 28 23 30 75 30 75 00 00
2025-11-08T01:07:45.406167,6.928,can0  204  [16]  A9 1D 50 46 50 46 50 46 28 23 30 75 30 75 00 00
2025-11-08T01:07:45.406536,6.929,can0  206  [16]  8F 0C CF 07 83 0C DA DC ED 07 A3 0C 97 0C 00 00
2025-11-08T01:07:45.426047,6.948,can0  204  [16]  13 1E 50 46 50 46 50 46 28 23 30 75 30 75 00 00
2025-11-08T01:07:45.835805,7.358,can0  204  [16]  9F 1E 50 46 50 46 50 46 28 23 30 75 30 75 00 00
2025-11-08T01:07:45.836343,7.359,can0  041  [04]  3F 01 02 00
2025-11-08T01:07:45.837076,7.359,can0  204  [16]  09 1F 50 46 50 46 50 46 28 23 30 75 30 75 00 00
2025-11-08T01:07:45.837534,7.360,can0  206  [16]  83 0C CF 07 93 0C DA DC E9 07 B7 0C AB 0C 00 00
2025-11-08T01:07:45.837900,7.360,can0  204  [16]  4F 1F 50 46 50 46 50 46 28 23 30 75 30 75 00 00
2025-11-08T01:07:45.838253,7.360,can0  204  [16]  95 1F 50 46 50 46 50 46 28 23 30 75 30 75 00 00
2025-11-08T01:07:45.838585,7.361,can0  204  [16]  DC 1F 50 46 50 46 50 46 28 23 30 75 30 75 00 00
2025-11-08T01:07:45.838918,7.361,can0  206  [16]  AF 0C D1 07 7B 0C DA DC E3 07 BF 0C A3 0C 00 00
2025-11-08T01:07:45.839228,7.361,can0  204  [16]  22 20 50 46 50 46 50 46 28 23 30 75 30 75 00 00
2025-11-08T01:07:45.839523,7.362,can0  041  [04]  3F 01 00 00
2025-11-08T01:07:45.839814,7.362,can0  204  [16]  68 20 50 46 50 46 50 46 28 23 30 75 30 75 00 00
2025-11-08T01:07:46.316300,7.838,can0  204  [16]  AF 20 50 46 50 46 50 46 28 23 30 75 30 75 00 00
2025-11-08T01:07:46.317150,7.839,can0  206  [16]  9F 0C CD 07 97 0C DA DC E9 07 BF 0C 9B 0C 00 00
2025-11-08T01:07:46.317198,7.839,can0  204  [16]  F5 20 50 46 50 46 50 46 28 23 30 75 30 75 00 00
2025-11-08T01:07:46.317575,7.840,can0  204  [16]  18 21 50 46 50 46 50 46 28 23 30 75 30 75 00 00
2025-11-08T01:07:46.317929,7.840,can0  041  [04]  3F 01 00 00
2025-11-08T01:07:46.318848,7.841,can0  204  [16]  3B 21 50 46 50 46 50 46 28 23 30 75 30 75 00 00
2025-11-08T01:07:46.318888,7.841,can0  206  [16]  97 0C D1 07 97 0C DA DC E9 07 C7 0C A7 0C 00 00
2025-11-08T01:07:46.319897,7.842,can0  204  [16]  5E 21 50 46 50 46 50 46 28 23 30 75 30 75 00 00
2025-11-08T01:07:46.319943,7.842,can0  204  [16]  82 21 50 46 50 46 50 46 28 23 30 75 30 75 00 00
2025-11-08T01:07:46.320486,7.843,can0  206  [16]  BB 0C D3 07 9F 0C DA DC EB 07 AF 0C 87 0C 00 00
2025-11-08T01:07:46.320946,7.843,can0  204  [16]  A5 21 50 46 50 46 50 46 28 23 30 75 30 75 00 00
2025-11-08T01:07:46.321423,7.844,can0  204  [16]  C8 21 50 46 50 46 50 46 28 23 30 75 30 75 00 00
2025-11-08T01:07:46.712330,8.235,can0  041  [04]  02 00 00 00
2025-11-08T01:07:46.712961,8.235,can0  204  [16]  EB 21 50 46 50 46 50 46 28 23 30 75 30 75 00 00
2025-11-08T01:07:46.713407,8.236,can0  206  [16]  A7 0C D1 07 9B 0C 99 C6 EB 07 BB 0C 9B 0C 00 00
2025-11-08T01:07:46.713769,8.236,can0  204  [16]  0E 22 50 46 50 46 50 46 28 23 30 75 30 75 00 00
2025-11-08T01:07:46.714116,8.236,can0  204  [16]  31 22 50 46 50 46 50 46 28 23 30 75 30 75 00 00
2025-11-08T01:07:46.714431,8.237,can0  204  [16]  31 22 50 46 50 46 50 46 28 23 30 75 30 75 00 00
2025-11-08T01:07:46.714776,8.237,can0  206  [16]  9F 0C CD 07 9B 0C DA DC E9 07 BF 0C A3 0C 00 00
2025-11-08T01:07:46.715094,8.237,can0  204  [16]  55 22 50 46 50 46 50 46 28 23 30 75 30 75 00 00
2025-11-08T01:07:46.715390,8.238,can0  041  [04]  02 00 00 00
2025-11-08T01:07:46.715723,8.238,can0  204  [16]  55 22 50 46 50 46 50 46 28 23 30 75 30 75 00 00
2025-11-08T01:07:46.716059,8.238,can0  204  [16]  78 22 50 46 50 46 50 46 28 23 30 75 30 75 00 00
2025-11-08T01:07:46.716482,8.239,can0  206  [16]  9B 0C D1 07 A3 0C 99 C6 E7 07 BB 0C A7 0C 00 00
2025-11-08T01:07:47.106041,8.628,can0  204  [16]  78 22 50 46 50 46 50 46 28 23 30 75 30 75 00 00
2025-11-08T01:07:47.106546,8.629,can0  204  [16]  9B 22 50 46 50 46 50 46 28 23 30 75 30 75 00 00
2025-11-08T01:07:47.106919,8.629,can0  041  [04]  02 00 00 00
2025-11-08T01:07:47.107278,8.629,can0  204  [16]  BE 22 50 46 50 46 50 46 28 23 30 75 30 75 00 00
2025-11-08T01:07:47.107645,8.630,can0  206  [16]  AF 0C EF 07 9B 0C 3A DF EB 07 B3 0C 9F 0C 00 00
2025-11-08T01:07:47.107976,8.630,can0  204  [16]  BE 22 50 46 50 46 50 46 28 23 30 75 30 75 00 00
2025-11-08T01:07:47.108315,8.630,can0  204  [16]  BE 22 50 46 50 46 50 46 28 23 30 75 30 75 00 00
2025-11-08T01:07:47.108669,8.631,can0  204  [16]  E1 22 50 46 50 46 50 46 28 23 30 75 30 75 00 00
2025-11-08T01:07:47.109029,8.631,can0  206  [16]  9B 0C D1 07 9F 0C 57 E3 E0 07 C7 0C A7 0C 00 00
2025-11-08T01:07:47.109364,8.632,can0  204  [16]  E1 22 50 46 50 46 50 46 28 23 30 75 30 75 00 00
2025-11-08T01:07:47.109666,8.632,can0  041  [04]  02 00 00 00
2025-11-08T01:07:47.500175,9.022,can0  204  [16]  E1 22 50 46 50 46 50 46 28 23 30 75 30 75 00 00
2025-11-08T01:07:47.500831,9.023,can0  204  [16]  E1 22 50 46 50 46 50 46 28 23 30 75 30 75 00 00
2025-11-08T01:07:47.501236,9.023,can0  206  [16]  A3 0C D1 07 9B 0C C5 E1 E7 07 CB 0C A7 0C 00 00
2025-11-08T01:07:47.501629,9.024,can0  204  [16]  E1 22 50 46 50 46 50 46 28 23 30 75 30 75 00 00
2025-11-08T01:07:47.502060,9.024,can0  204  [16]  E1 22 50 46 50 46 50 46 28 23 30 75 30 75 00 00
2025-11-08T01:07:47.502461,9.025,can0  041  [04]  02 00 02 00
2025-11-08T01:07:47.502948,9.025,can0  206  [16]  A7 0C D1 07 93 0C DA DC E5 07 C7 0C A7 0C 00 00
2025-11-08T01:07:47.503403,9.026,can0  204  [16]  E1 22 50 46 50 46 50 46 28 23 30 75 30 75 00 00
2025-11-08T01:07:47.503807,9.026,can0  204  [16]  E1 22 50 46 50 46 50 46 28 23 30 75 30 75 00 00
2025-11-08T01:07:47.504216,9.026,can0  204  [16]  E1 22 50 46 50 46 50 46 28 23 30 75 30 75 00 00
2025-11-08T01:07:47.897384,9.420,can0  206  [16]  9F 0C D1 07 9F 0C C5 E1 E9 07 BF 0C AB 0C 00 00
2025-11-08T01:07:47.898057,9.420,can0  204  [16]  E1 22 50 46 50 46 50 46 28 23 30 75 30 75 00 00
2025-11-08T01:07:47.898514,9.421,can0  204  [16]  E1 22 50 46 50 46 50 46 28 23 30 75 30 75 00 00
2025-11-08T01:07:47.898853,9.421,can0  041  [04]  3F 01 02 00
2025-11-08T01:07:47.899222,9.421,can0  204  [16]  E1 22 50 46 50 46 50 46 28 23 30 75 30 75 00 00
2025-11-08T01:07:47.899618,9.422,can0  206  [16]  9B 0C D6 07 A3 0C A0 E2 E9 07 BF 0C AB 0C 00 00
2025-11-08T01:07:47.899965,9.422,can0  204  [16]  E1 22 50 46 50 46 50 46 28 23 30 75 30 75 00 00
2025-11-08T01:07:47.900310,9.422,can0  204  [16]  E1 22 50 46 50 46 50 46 28 23 30 75 30 75 00 00
2025-11-08T01:07:47.900615,9.423,can0  204  [16]  E1 22 50 46 50 46 50 46 28 23 30 75 30 75 00 00
2025-11-08T01:07:47.901006,9.423,can0  206  [16]  A7 0C D1 07 97 0C 3A DF E5 07 C7 0C AB 0C 00 00
2025-11-08T01:07:47.901328,9.423,can0  041  [04]  10 01 02 00
2025-11-08T01:07:47.901697,9.424,can0  204  [16]  E1 22 50 46 50 46 50 46 28 23 30 75 30 75 00 00
2025-11-08T01:07:48.297635,9.820,can0  204  [16]  E1 22 50 46 50 46 50 46 28 23 30 75 30 75 00 00
2025-11-08T01:07:48.298190,9.820,can0  204  [16]  E1 22 50 46 50 46 50 46 28 23 30 75 30 75 00 00
2025-11-08T01:07:48.298680,9.821,can0  206  [16]  A7 0C D1 07 9B 0C 3A DF E9 07 EC 0C A7 0C 00 00
2025-11-08T01:07:48.299053,9.821,can0  204  [16]  E1 22 50 46 50 46 50 46 28 23 30 75 30 75 00 00
2025-11-08T01:07:48.299437,9.822,can0  204  [16]  E1 22 50 46 50 46 50 46 28 23 30 75 30 75 00 00
2025-11-08T01:07:48.299769,9.822,can0  041  [04]  3F 01 02 00
2025-11-08T01:07:48.300135,9.822,can0  204  [16]  E1 22 50 46 50 46 50 46 28 23 30 75 30 75 00 00
2025-11-08T01:07:48.300570,9.823,can0  206  [16]  A3 0C D1 07 A3 0C B1 E0 E9 07 BB 0C A7 0C 00 00
2025-11-08T01:07:48.300930,9.823,can0  204  [16]  E1 22 50 46 50 46 50 46 28 23 30 75 30 75 00 00
2025-11-08T01:07:48.301336,9.824,can0  204  [16]  E1 22 50 46 50 46 50 46 28 23 30 75 30 75 00 00
2025-11-08T01:07:48.701096,10.223,can0  206  [16]  6F 0C D3 07 D3 0C DA DC E7 07 C7 0C A7 0C 00 00
2025-11-08T01:07:48.701572,10.224,can0  204  [16]  E1 22 50 46 50 46 50 46 28 23 30 75 30 75 00 00
2025-11-08T01:07:48.701956,10.224,can0  041  [04]  02 00 02 00
2025-11-08T01:07:48.702330,10.224,can0  204  [16]  E1 22 50 46 50 46 50 46 28 23 30 75 30 75 00 00
2025-11-08T01:07:48.702701,10.225,can0  204  [16]  E1 22 50 46 50 46 50 46 28 23 30 75 30 75 00 00
2025-11-08T01:07:48.703086,10.225,can0  206  [16]  CB 0C D6 07 97 0C 3A DF E5 07 C7 0C 83 0C 00 00
2025-11-08T01:07:48.703467,10.226,can0  204  [16]  E1 22 50 46 50 46 50 46 28 23 30 75 30 75 00 00
2025-11-08T01:07:48.703864,10.226,can0  204  [16]  E1 22 50 46 50 46 50 46 28 23 30 75 30 75 00 00
2025-11-08T01:07:48.704269,10.226,can0  204  [16]  E1 22 50 46 50 46 50 46 28 23 30 75 30 75 00 00
2025-11-08T01:07:48.704599,10.227,can0  041  [04]  3F 01 02 00
2025-11-08T01:07:48.704990,10.227,can0  206  [16]  A7 0C CD 07 9B 0C 24 E7 EB 07 C3 0C A7 0C 00 00
2025-11-08T01:07:48.705342,10.228,can0  204  [16]  E1 22 50 46 50 46 50 46 28 23 30 75 30 75 00 00
2025-11-08T01:07:49.107248,10.629,can0  204  [16]  E1 22 50 46 50 46 50 46 28 23 30 75 30 75 00 00
2025-11-08T01:07:49.107792,10.630,can0  204  [16]  E1 22 50 46 50 46 50 46 28 23 30 75 30 75 00 00
2025-11-08T01:07:49.108282,10.630,can0  206  [16]  A7 0C CF 07 9B 0C DA DC E9 07 C7 0C A7 0C 00 00
2025-11-08T01:07:49.108676,10.631,can0  204  [16]  E1 22 50 46 50 46 50 46 28 23 30 75 30 75 00 00
2025-11-08T01:07:49.108988,10.631,can0  041  [04]  3F 01 02 00
2025-11-08T01:07:49.109342,10.632,can0  204  [16]  E1 22 50 46 50 46 50 46 28 23 30 75 30 75 00 00
2025-11-08T01:07:49.109728,10.632,can0  204  [16]  E1 22 50 46 50 46 50 46 28 23 30 75 30 75 00 00
2025-11-08T01:07:49.110127,10.632,can0  206  [16]  9F 0C CF 07 9F 0C 99 C6 E9 07 BF 0C AB 0C 00 00
2025-11-08T01:07:49.110494,10.633,can0  204  [16]  E1 22 50 46 50 46 50 46 28 23 30 75 30 75 00 00
2025-11-08T01:07:49.516053,11.038,can0  204  [16]  E1 22 50 46 50 46 50 46 28 23 30 75 30 75 00 00
2025-11-08T01:07:49.516637,11.039,can0  206  [16]  9F 0C D3 07 9F 0C DA DC E7 07 C3 0C AB 0C 00 00
2025-11-08T01:07:49.517090,11.039,can0  204  [16]  E1 22 50 46 50 46 50 46 28 23 30 75 30 75 00 00
2025-11-08T01:07:49.517444,11.040,can0  041  [04]  3F 01 02 00
2025-11-08T01:07:49.517803,11.040,can0  204  [16]  E1 22 50 46 50 46 50 46 28 23 30 75 30 75 00 00
2025-11-08T01:07:49.518184,11.040,can0  204  [16]  E1 22 50 46 50 46 50 46 28 23 30 75 30 75 00 00
2025-11-08T01:07:49.518654,11.041,can0  206  [16]  A3 0C CF 07 9B 0C B1 E0 E7 07 C7 0C AB 0C 00 00
2025-11-08T01:07:49.519072,11.041,can0  204  [16]  E1 22 50 46 50 46 50 46 28 23 30 75 30 75 00 00
2025-11-08T01:07:49.519531,11.042,can0  204  [16]  E1 22 50 46 50 46 50 46 28 23 30 75 30 75 00 00
2025-11-08T01:07:49.519947,11.042,can0  204  [16]  E1 22 50 46 50 46 50 46 28 23 30 75 30 75 00 00
2025-11-08T01:07:49.520311,11.042,can0  041  [04]  3F 01 02 00
2025-11-08T01:07:49.929554,11.452,can0  206  [16]  9B 0C D1 07 AB 0C DA DC E9 07 BF 0C A3 0C 00 00
2025-11-08T01:07:49.930153,11.452,can0  204  [16]  E1 22 50 46 50 46 50 46 28 23 30 75 30 75 00 00
2025-11-08T01:07:49.930567,11.453,can0  204  [16]  E1 22 50 46 50 46 50 46 28 23 30 75 30 75 00 00
2025-11-08T01:07:49.930958,11.453,can0  204  [16]  E1 22 50 46 50 46 50 46 28 23 30 75 30 75 00 00
2025-11-08T01:07:49.931341,11.454,can0  206  [16]  9F 0C D1 07 A3 0C DA DC E7 07 BF 0C AB 0C 00 00
2025-11-08T01:07:49.931676,11.454,can0  204  [16]  E1 22 50 46 50 46 50 46 28 23 30 75 30 75 00 00
2025-11-08T01:07:49.931964,11.454,can0  041  [04]  3F 01 02 00
2025-11-08T01:07:49.932299,11.454,can0  204  [16]  E1 22 50 46 50 46 50 46 28 23 30 75 30 75 00 00
2025-11-08T01:07:49.932667,11.455,can0  204  [16]  E1 22 50 46 50 46 50 46 28 23 30 75 30 75 00 00
2025-11-08T01:07:49.933051,11.455,can0  206  [16]  AB 0C CD 07 9B 0C 99 C6 E5 07 C7 0C A3 0C 00 00
2025-11-08T01:07:49.933472,11.456,can0  204  [16]  E1 22 50 46 50 46 50 46 28 23 30 75 30 75 00 00
2025-11-08T01:07:50.349350,11.872,can0  204  [16]  E1 22 50 46 50 46 50 46 28 23 30 75 30 75 00 00
2025-11-08T01:07:50.356837,11.879,can0  204  [16]  E1 22 50 46 50 46 50 46 28 23 30 75 30 75 00 00
2025-11-08T01:07:50.358268,11.880,can0  041  [04]  3F 01 02 00
2025-11-08T01:07:50.358325,11.880,can0  206  [16]  A7 0C D1 07 9F 0C 99 C6 E9 07 C3 0C A3 0C 00 00
2025-11-08T01:07:50.358709,11.881,can0  204  [16]  E1 22 50 46 50 46 50 46 28 23 30 75 30 75 00 00
2025-11-08T01:07:50.359076,11.881,can0  204  [16]  E1 22 50 46 50 46 50 46 28 23 30 75 30 75 00 00
2025-11-08T01:07:50.360097,11.882,can0  206  [16]  A7 0C CF 07 97 0C DA DC E9 07 C7 0C A7 0C 00 00
2025-11-08T01:07:50.360262,11.882,can0  204  [16]  E1 22 50 46 50 46 50 46 28 23 30 75 30 75 00 00
2025-11-08T01:07:50.361028,11.883,can0  204  [16]  E1 22 50 46 50 46 50 46 28 23 30 75 30 75 00 00
2025-11-08T01:07:50.361422,11.884,can0  041  [04]  3F 01 02 00
2025-11-08T01:07:50.361607,11.884,can0  204  [16]  E1 22 50 46 50 46 50 46 28 23 30 75 30 75 00 00
2025-11-08T01:07:50.783422,12.306,can0  206  [16]  A7 0C D1 07 9B 0C 3A DF E9 07 C3 0C A7 0C 00 00
2025-11-08T01:07:50.783954,12.306,can0  204  [16]  E1 22 50 46 50 46 50 46 28 23 30 75 30 75 00 00
2025-11-08T01:07:50.784368,12.307,can0  204  [16]  E1 22 50 46 50 46 50 46 28 23 30 75 30 75 00 00
2025-11-08T01:07:50.784755,12.307,can0  204  [16]  E1 22 50 46 50 46 50 46 28 23 30 75 30 75 00 00
2025-11-08T01:07:50.785161,12.307,can0  206  [16]  A3 0C D3 07 9B 0C 3A DF E9 07 CB 0C A7 0C 00 00
2025-11-08T01:07:50.785568,12.308,can0  204  [16]  E1 22 50 46 50 46 50 46 28 23 30 75 30 75 00 00
2025-11-08T01:07:50.785931,12.308,can0  041  [04]  3F 01 02 00
2025-11-08T01:07:50.786328,12.308,can0  204  [16]  E1 22 50 46 50 46 50 46 28 23 30 75 30 75 00 00
2025-11-08T01:07:50.786741,12.309,can0  204  [16]  E1 22 50 46 50 46 50 46 28 23 30 75 30 75 00 00
2025-11-08T01:07:50.787544,12.310,can0  206  [16]  B3 0C CD 07 97 0C B1 E0 EB 07 CF 0C 97 0C 00 00
2025-11-08T01:07:50.787751,12.310,can0  204  [16]  E1 22 50 46 50 46 50 46 28 23 30 75 30 75 00 00
2025-11-08T01:07:51.200398,12.723,can0  204  [16]  E1 22 50 46 50 46 50 46 28 23 30 75 30 75 00 00
2025-11-08T01:07:51.200945,12.723,can0  041  [04]  3F 01 00 00
2025-11-08T01:07:51.201388,12.724,can0  204  [16]  E1 22 50 46 50 46 50 46 28 23 30 75 30 75 00 00
2025-11-08T01:07:51.201841,12.724,can0  206  [16]  97 0C CF 07 9F 0C 99 C6 E9 07 CB 0C B3 0C 00 00
2025-11-08T01:07:51.202223,12.724,can0  204  [16]  E1 22 50 46 50 46 50 46 28 23 30 75 30 75 00 00
2025-11-08T01:07:51.202556,12.725,can0  204  [16]  E1 22 50 46 50 46 50 46 28 23 30 75 30 75 00 00
2025-11-08T01:07:51.202924,12.725,can0  206  [16]  A3 0C CF 07 A3 0C DA DC E9 07 C3 0C A7 0C 00 00
2025-11-08T01:07:51.203246,12.725,can0  204  [16]  E1 22 50 46 50 46 50 46 28 23 30 75 30 75 00 00
2025-11-08T01:07:51.203568,12.726,can0  204  [16]  E1 22 50 46 50 46 50 46 28 23 30 75 30 75 00 00
2025-11-08T01:07:51.204305,12.726,can0  041  [04]  3F 01 02 00
2025-11-08T01:07:51.204349,12.727,can0  204  [16]  E1 22 50 46 50 46 50 46 28 23 30 75 30 75 00 00
2025-11-08T01:07:51.204872,12.727,can0  206  [16]  9B 0C D8 07 A3 0C 3A DF E5 07 BF 0C AF 0C 00 00
2025-11-08T01:07:51.205432,12.728,can0  204  [16]  E1 22 50 46 50 46 50 46 28 23 30 75 30 75 00 00
2025-11-08T01:07:51.648056,13.170,can0  204  [16]  E1 22 50 46 50 46 50 46 28 23 30 75 30 75 00 00
2025-11-08T01:07:51.648623,13.171,can0  204  [16]  E1 22 50 46 50 46 50 46 28 23 30 75 30 75 00 00
2025-11-08T01:07:51.649065,13.171,can0  206  [16]  A3 0C CF 07 9F 0C B1 E0 E7 07 C7 0C A7 0C 00 00
2025-11-08T01:07:51.649409,13.172,can0  041  [04]  3F 01 02 00
2025-11-08T01:07:51.649746,13.172,can0  204  [16]  E1 22 50 46 50 46 50 46 28 23 30 75 30 75 00 00
2025-11-08T01:07:51.650073,13.172,can0  204  [16]  E1 22 50 46 50 46 50 46 28 23 30 75 30 75 00 00
2025-11-08T01:07:51.650443,13.173,can0  204  [16]  E1 22 50 46 50 46 50 46 28 23 30 75 30 75 00 00
2025-11-08T01:07:51.651263,13.174,can0  206  [16]  A7 0C D6 07 A7 0C 99 C6 E3 07 CF 0C 9F 0C 00 00
2025-11-08T01:07:51.651629,13.174,can0  204  [16]  E1 22 50 46 50 46 50 46 28 23 30 75 30 75 00 00
2025-11-08T01:07:51.655545,13.178,can0  204  [16]  E1 22 50 46 50 46 50 46 28 23 30 75 30 75 00 00
2025-11-08T01:07:52.080927,13.603,can0  041  [04]  3F 01 02 00
2025-11-08T01:07:52.081614,13.604,can0  204  [16]  E1 22 50 46 50 46 50 46 28 23 30 75 30 75 00 00
2025-11-08T01:07:52.082195,13.604,can0  206  [16]  AB 0C CF 07 9B 0C DA DC EB 07 BF 0C A7 0C 00 00
2025-11-08T01:07:52.082673,13.605,can0  204  [16]  E1 22 50 46 50 46 50 46 28 23 30 75 30 75 00 00
2025-11-08T01:07:52.083141,13.605,can0  204  [16]  E1 22 50 46 50 46 50 46 28 23 30 75 30 75 00 00
2025-11-08T01:07:52.083579,13.606,can0  204  [16]  E1 22 50 46 50 46 50 46 28 23 30 75 30 75 00 00
2025-11-08T01:07:52.084420,13.607,can0  206  [16]  9F 0C CF 07 A3 0C 99 C6 E9 07 BB 0C A7 0C 00 00
2025-11-08T01:07:52.084457,13.607,can0  041  [04]  3F 01 00 00
2025-11-08T01:07:52.084902,13.607,can0  204  [16]  E1 22 50 46 50 46 50 46 28 23 30 75 30 75 00 00
2025-11-08T01:07:52.086856,13.609,can0  204  [16]  E1 22 50 46 50 46 50 46 28 23 30 75 30 75 00 00
2025-11-08T01:07:52.086900,13.609,can0  204  [16]  E1 22 50 46 50 46 50 46 28 23 30 75 30 75 00 00
2025-11-08T01:07:52.086930,13.609,can0  206  [16]  A3 0C D3 07 9F 0C 99 C6 E9 07 C3 0C A7 0C 00 00
2025-11-08T01:07:52.569567,14.092,can0  204  [16]  E1 22 50 46 50 46 50 46 28 23 30 75 30 75 00 00
2025-11-08T01:07:52.570088,14.092,can0  204  [16]  E1 22 50 46 50 46 50 46 28 23 30 75 30 75 00 00
2025-11-08T01:07:52.570656,14.093,can0  041  [04]  3F 01 00 00
2025-11-08T01:07:52.571134,14.093,can0  204  [16]  E1 22 50 46 50 46 50 46 28 23 30 75 30 75 00 00
2025-11-08T01:07:52.571627,14.094,can0  206  [16]  A7 0C CF 07 9F 0C 99 C6 E5 07 BF 0C A3 0C 00 00
2025-11-08T01:07:52.572111,14.094,can0  204  [16]  E1 22 50 46 50 46 50 46 28 23 30 75 30 75 00 00
2025-11-08T01:07:52.573092,14.095,can0  204  [16]  E1 22 50 46 50 46 50 46 28 23 30 75 30 75 00 00
2025-11-08T01:07:52.573137,14.095,can0  206  [16]  B3 0C D1 07 9B 0C DA DC EB 07 C3 0C 9B 0C 00 00
2025-11-08T01:07:52.573562,14.096,can0  204  [16]  E1 22 50 46 50 46 50 46 28 23 30 75 30 75 00 00
2025-11-08T01:07:52.574544,14.097,can0  204  [16]  E1 22 50 46 50 46 50 46 28 23 30 75 30 75 00 00
2025-11-08T01:07:52.574599,14.097,can0  041  [04]  3F 01 00 00
2025-11-08T01:07:52.575513,14.098,can0  204  [16]  E1 22 50 46 50 46 50 46 28 23 30 75 30 75 00 00
2025-11-08T01:07:52.575786,14.098,can0  206  [16]  AB 0C D1 07 9B 0C B1 E0 EB 07 C3 0C A3 0C 00 00
2025-11-08T01:07:52.576342,14.099,can0  204  [16]  E1 22 50 46 50 46 50 46 28 23 30 75 30 75 00 00
2025-11-08T01:07:53.081636,14.604,can0  204  [16]  E1 22 50 46 50 46 50 46 28 23 30 75 30 75 00 00
2025-11-08T01:07:53.082449,14.605,can0  204  [16]  E1 22 50 46 50 46 50 46 28 23 30 75 30 75 00 00
2025-11-08T01:07:53.083209,14.605,can0  206  [16]  A3 0C CD 07 9F 0C 99 C6 CD 07 C7 0C A7 0C 00 00
2025-11-08T01:07:53.083785,14.606,can0  041  [04]  E4 00 00 00
2025-11-08T01:07:53.084378,14.607,can0  204  [16]  E1 22 50 46 50 46 50 46 28 23 30 75 30 75 00 00
2025-11-08T01:07:53.084889,14.607,can0  204  [16]  E1 22 50 46 50 46 50 46 28 23 30 75 30 75 00 00
2025-11-08T01:07:53.086678,14.609,can0  204  [16]  E1 22 50 46 50 46 50 46 28 23 30 75 30 75 00 00
2025-11-08T01:07:53.087430,14.610,can0  206  [16]  9F 0C CF 07 9F 0C 3A DF E7 07 C3 0C AB 0C 00 00
2025-11-08T01:07:53.088046,14.610,can0  204  [16]  E1 22 50 46 50 46 50 46 28 23 30 75 30 75 00 00
2025-11-08T01:07:53.088689,14.611,can0  204  [16]  E1 22 50 46 50 46 50 46 28 23 30 75 30 75 00 00
2025-11-08T01:07:53.089156,14.611,can0  041  [04]  B5 00 00 00
2025-11-08T01:07:53.089755,14.612,can0  204  [16]  E1 22 50 46 50 46 50 46 28 23 30 75 30 75 00 00
2025-11-08T01:07:53.090728,14.613,can0  206  [16]  AB 0C CF 07 9B 0C 99 C6 E7 07 BB 0C A3 0C 00 00
2025-11-08T01:07:53.636358,15.159,can0  204  [16]  E1 22 50 46 50 46 50 46 28 23 30 75 30 75 00 00
2025-11-08T01:07:53.637347,15.160,can0  204  [16]  E1 22 50 46 50 46 50 46 28 23 30 75 30 75 00 00
2025-11-08T01:07:53.637410,15.160,can0  204  [16]  E1 22 50 46 50 46 50 46 28 23 30 75 30 75 00 00
2025-11-08T01:07:53.637861,15.160,can0  206  [16]  A3 0C D1 07 6F 0C DA DC E7 07 00 0D A7 0C 00 00
2025-11-08T01:07:53.638213,15.160,can0  041  [04]  E4 00 00 00
2025-11-08T01:07:53.638541,15.161,can0  204  [16]  E1 22 50 46 50 46 50 46 28 23 30 75 30 75 00 00
2025-11-08T01:07:53.638859,15.161,can0  204  [16]  E1 22 50 46 50 46 50 46 28 23 30 75 30 75 00 00
2025-11-08T01:07:53.639234,15.161,can0  206  [16]  BB 0C D1 07 9B 0C B1 E0 E5 07 C3 0C 93 0C 00 00
2025-11-08T01:07:53.639613,15.162,can0  204  [16]  E1 22 50 46 50 46 50 46 28 23 30 75 30 75 00 00
2025-11-08T01:07:53.639965,15.162,can0  204  [16]  E1 22 50 46 50 46 50 46 28 23 30 75 30 75 00 00
2025-11-08T01:07:53.640312,15.162,can0  204  [16]  E1 22 50 46 50 46 50 46 28 23 30 75 30 75 00 00
2025-11-08T01:07:53.640703,15.163,can0  041  [04]  3F 01 00 00
2025-11-08T01:07:53.641197,15.163,can0  206  [16]  9F 0C CF 07 9F 0C DA DC E7 07 B7 0C AB 0C 00 00
2025-11-08T01:07:53.641720,15.164,can0  204  [16]  E1 22 50 46 50 46 50 46 28 23 30 75 30 75 00 00
2025-11-08T01:07:53.642219,15.164,can0  204  [16]  E1 22 50 46 50 46 50 46 28 23 30 75 30 75 00 00
2025-11-08T01:07:53.642798,15.165,can0  204  [16]  E1 22 50 46 50 46 50 46 28 23 30 75 30 75 00 00
2025-11-08T01:07:54.079401,15.602,can0  206  [16]  A3 0C D1 07 9F 0C 3A DF E9 07 BB 0C AB 0C 00 00
2025-11-08T01:07:54.080011,15.602,can0  204  [16]  E1 22 50 46 50 46 50 46 28 23 30 75 30 75 00 00
2025-11-08T01:07:54.080436,15.603,can0  041  [04]  3F 01 00 00
2025-11-08T01:07:54.080878,15.603,can0  204  [16]  E1 22 50 46 50 46 50 46 28 23 30 75 30 75 00 00
2025-11-08T01:07:54.081296,15.603,can0  204  [16]  E1 22 50 46 50 46 50 46 28 23 30 75 30 75 00 00
2025-11-08T01:07:54.081786,15.604,can0  206  [16]  AB 0C CD 07 9F 0C DA DC EB 07 BF 0C A3 0C 00 00
2025-11-08T01:07:54.082211,15.604,can0  204  [16]  E1 22 50 46 50 46 50 46 28 23 30 75 30 75 00 00
2025-11-08T01:07:54.082655,15.605,can0  204  [16]  E1 22 50 46 50 46 50 46 28 23 30 75 30 75 00 00
2025-11-08T01:07:54.083089,15.605,can0  204  [16]  E1 22 50 46 50 46 50 46 28 23 30 75 30 75 00 00
2025-11-08T01:07:54.083560,15.606,can0  206  [16]  A3 0C D1 07 A3 0C DA DC E9 07 C3 0C A7 0C 00 00
2025-11-08T01:07:54.104538,15.627,can0  041  [04]  3F 01 00 00
2025-11-08T01:07:54.519260,16.041,can0  204  [16]  E1 22 50 46 50 46 50 46 28 23 30 75 30 75 00 00
2025-11-08T01:07:54.519888,16.042,can0  204  [16]  E1 22 50 46 50 46 50 46 28 23 30 75 30 75 00 00
2025-11-08T01:07:54.520419,16.043,can0  206  [16]  A7 0C D1 07 93 0C DA DC E7 07 D3 0C A3 0C 00 00
2025-11-08T01:07:54.520895,16.043,can0  204  [16]  E1 22 50 46 50 46 50 46 28 23 30 75 30 75 00 00
2025-11-08T01:07:54.521327,16.043,can0  204  [16]  E1 22 50 46 50 46 50 46 28 23 30 75 30 75 00 00
2025-11-08T01:07:54.521755,16.044,can0  041  [04]  3F 01 02 00
2025-11-08T01:07:54.522185,16.044,can0  204  [16]  E1 22 50 46 50 46 50 46 28 23 30 75 30 75 00 00
2025-11-08T01:07:54.522679,16.045,can0  206  [16]  A3 0C CF 07 A7 0C 3A DF E9 07 BB 0C A7 0C 00 00
2025-11-08T01:07:54.523158,16.045,can0  204  [16]  E1 22 50 46 50 46 50 46 28 23 30 75 30 75 00 00
2025-11-08T01:07:54.525202,16.047,can0  204  [16]  E1 22 50 46 50 46 50 46 28 23 30 75 30 75 00 00
2025-11-08T01:07:54.525253,16.047,can0  204  [16]  E1 22 50 46 50 46 50 46 28 23 30 75 30 75 00 00
2025-11-08T01:07:54.525290,16.047,can0  206  [16]  AF 0C CD 07 A3 0C DA DC EB 07 B7 0C 9B 0C 00 00
2025-11-08T01:07:54.529601,16.052,can0  204  [16]  E1 22 50 46 50 46 50 46 28 23 30 75 30 75 00 00
2025-11-08T01:07:54.982927,16.505,can0  041  [04]  3F 01 02 00
2025-11-08T01:07:54.984127,16.506,can0  204  [16]  E1 22 50 46 50 46 50 46 28 23 30 75 30 75 00 00
2025-11-08T01:07:54.984946,16.507,can0  204  [16]  E1 22 50 46 50 46 50 46 28 23 30 75 30 75 00 00
2025-11-08T01:07:54.985648,16.508,can0  206  [16]  AF 0C D3 07 9B 0C DA DC E9 07 C7 0C 9F 0C 00 00
2025-11-08T01:07:54.986288,16.508,can0  204  [16]  E1 22 50 46 50 46 50 46 28 23 30 75 30 75 00 00
2025-11-08T01:07:54.986938,16.509,can0  204  [16]  E1 22 50 46 50 46 50 46 28 23 30 75 30 75 00 00
2025-11-08T01:07:54.987535,16.510,can0  041  [04]  3F 01 02 00
2025-11-08T01:07:54.988295,16.510,can0  204  [16]  E1 22 50 46 50 46 50 46 28 23 30 75 30 75 00 00
2025-11-08T01:07:54.989022,16.511,can0  206  [16]  AB 0C CD 07 9F 0C 3A DF ED 07 C7 0C A3 0C 00 00
2025-11-08T01:07:54.989664,16.512,can0  204  [16]  E1 22 50 46 50 46 50 46 28 23 30 75 30 75 00 00
2025-11-08T01:07:54.990324,16.512,can0  204  [16]  E1 22 50 46 50 46 50 46 28 23 30 75 30 75 00 00
2025-11-08T01:07:55.425941,16.948,can0  204  [16]  E1 22 50 46 50 46 50 46 28 23 30 75 30 75 00 00
2025-11-08T01:07:55.433393,16.956,can0  206  [16]  93 0C D1 07 AF 0C B1 E0 E7 07 C3 0C A7 0C 00 00
2025-11-08T01:07:55.434402,16.957,can0  204  [16]  E1 22 50 46 50 46 50 46 28 23 30 75 30 75 00 00
2025-11-08T01:07:55.434923,16.957,can0  041  [04]  3F 01 00 00
2025-11-08T01:07:55.435401,16.958,can0  204  [16]  E1 22 50 46 50 46 50 46 28 23 30 75 30 75 00 00
2025-11-08T01:07:55.435766,16.958,can0  204  [16]  E1 22 50 46 50 46 50 46 28 23 30 75 30 75 00 00
2025-11-08T01:07:55.436605,16.959,can0  206  [16]  A3 0C D1 07 9B 0C 3A DF E5 07 C3 0C AB 0C 00 00
2025-11-08T01:07:55.437117,16.959,can0  204  [16]  E1 22 50 46 50 46 50 46 28 23 30 75 30 75 00 00
2025-11-08T01:07:55.437313,16.959,can0  204  [16]  E1 22 50 46 50 46 50 46 28 23 30 75 30 75 00 00
2025-11-08T01:07:55.437745,16.960,can0  206  [16]  A7 0C D1 07 97 0C A0 E2 E9 07 CB 0C A7 0C 00 00
2025-11-08T01:07:55.438179,16.960,can0  204  [16]  E1 22 50 46 50 46 50 46 28 23 30 75 30 75 00 00
2025-11-08T01:07:55.443246,16.965,can0  041  [04]  3F 01 02 00
2025-11-08T01:07:55.443293,16.965,can0  204  [16]  E1 22 50 46 50 46 50 46 28 23 30 75 30 75 00 00
2025-11-08T01:07:55.909048,17.431,can0  204  [16]  E1 22 50 46 50 46 50 46 28 23 30 75 30 75 00 00
2025-11-08T01:07:55.910235,17.432,can0  206  [16]  97 0C CD 07 A7 0C B1 E0 E7 07 C3 0C AB 0C 00 00
2025-11-08T01:07:55.910280,17.432,can0  204  [16]  E1 22 50 46 50 46 50 46 28 23 30 75 30 75 00 00
2025-11-08T01:07:55.910633,17.433,can0  204  [16]  E1 22 50 46 50 46 50 46 28 23 30 75 30 75 00 00
2025-11-08T01:07:55.911802,17.434,can0  041  [04]  3F 01 02 00
2025-11-08T01:07:55.912388,17.435,can0  204  [16]  E1 22 50 46 50 46 50 46 28 23 30 75 30 75 00 00
2025-11-08T01:07:55.912794,17.435,can0  206  [16]  A3 0C D1 07 A3 0C 57 E3 E9 07 BF 0C A7 0C 00 00
2025-11-08T01:07:55.913212,17.435,can0  204  [16]  E1 22 50 46 50 46 50 46 28 23 30 75 30 75 00 00
2025-11-08T01:07:55.913619,17.436,can0  204  [16]  E1 22 50 46 50 46 50 46 28 23 30 75 30 75 00 00
2025-11-08T01:07:55.914580,17.437,can0  204  [16]  E1 22 50 46 50 46 50 46 28 23 30 75 30 75 00 00
2025-11-08T01:07:55.914852,17.437,can0  206  [16]  9F 0C CF 07 A3 0C 99 C6 C9 07 C3 0C AB 0C 00 00
2025-11-08T01:07:55.915605,17.438,can0  204  [16]  E1 22 50 46 50 46 50 46 28 23 30 75 30 75 00 00
2025-11-08T01:07:55.916556,17.439,can0  041  [04]  3F 01 02 00
2025-11-08T01:07:55.916753,17.439,can0  204  [16]  E1 22 50 46 50 46 50 46 28 23 30 75 30 75 00 00
2025-11-08T01:07:56.497788,18.020,can0  204  [16]  E1 22 50 46 50 46 50 46 28 23 30 75 30 75 00 00
2025-11-08T01:07:56.498633,18.021,can0  206  [16]  9F 0C CD 07 9F 0C B1 E0 EB 07 C3 0C AB 0C 00 00
2025-11-08T01:07:56.499161,18.021,can0  204  [16]  E1 22 50 46 50 46 50 46 28 23 30 75 30 75 00 00
2025-11-08T01:07:56.499634,18.022,can0  204  [16]  E1 22 50 46 50 46 50 46 28 23 30 75 30 75 00 00
2025-11-08T01:07:56.500030,18.022,can0  041  [04]  3F 01 02 00
2025-11-08T01:07:56.500457,18.023,can0  204  [16]  E1 22 50 46 50 46 50 46 28 23 30 75 30 75 00 00
2025-11-08T01:07:56.500915,18.023,can0  206  [16]  9B 0C D3 07 A3 0C B1 E0 EB 07 C3 0C AB 0C 00 00
2025-11-08T01:07:56.501361,18.024,can0  204  [16]  E1 22 50 46 50 46 50 46 28 23 30 75 30 75 00 00
2025-11-08T01:07:56.501825,18.024,can0  204  [16]  E1 22 50 46 50 46 50 46 28 23 30 75 30 75 00 00
2025-11-08T01:07:56.502295,18.024,can0  206  [16]  A3 0C D1 07 A3 0C 99 C6 E5 07 C3 0C AB 0C 00 00
2025-11-08T01:07:56.502920,18.025,can0  204  [16]  E1 22 50 46 50 46 50 46 28 23 30 75 30 75 00 00
2025-11-08T01:07:56.503189,18.025,can0  204  [16]  E1 22 50 46 50 46 50 46 28 23 30 75 30 75 00 00
2025-11-08T01:07:56.503789,18.026,can0  041  [04]  3F 01 02 00
2025-11-08T01:07:56.937641,18.460,can0  204  [16]  E1 22 50 46 50 46 50 46 28 23 30 75 30 75 00 00
2025-11-08T01:07:56.938215,18.460,can0  206  [16]  9F 0C CD 07 87 0C DA DC E5 07 D3 0C AF 0C 00 00
2025-11-08T01:07:56.938725,18.461,can0  204  [16]  E1 22 50 46 50 46 50 46 28 23 30 75 30 75 00 00
2025-11-08T01:07:56.939180,18.461,can0  204  [16]  E1 22 50 46 50 46 50 46 28 23 30 75 30 75 00 00
2025-11-08T01:07:56.939617,18.462,can0  204  [16]  E1 22 50 46 50 46 50 46 28 23 30 75 30 75 00 00
2025-11-08T01:07:56.940078,18.462,can0  206  [16]  AB 0C D1 07 9F 0C DA DC E9 07 BF 0C A3 0C 00 00
2025-11-08T01:07:56.940464,18.463,can0  041  [04]  3F 01 02 00
2025-11-08T01:07:56.940894,18.463,can0  204  [16]  E1 22 50 46 50 46 50 46 28 23 30 75 30 75 00 00
2025-11-08T01:07:56.941321,18.463,can0  204  [16]  E1 22 50 46 50 46 50 46 28 23 30 75 30 75 00 00
2025-11-08T01:07:56.941757,18.464,can0  204  [16]  E1 22 50 46 50 46 50 46 28 23 30 75 30 75 00 00
2025-11-08T01:07:56.942215,18.464,can0  206  [16]  A7 0C CD 07 9F 0C B1 E0 E5 07 BF 0C A7 0C 00 00
2025-11-08T01:07:56.942929,18.465,can0  204  [16]  E1 22 50 46 50 46 50 46 28 23 30 75 30 75 00 00
2025-11-08T01:07:56.943525,18.466,can0  204  [16]  E1 22 50 46 50 46 50 46 28 23 30 75 30 75 00 00
2025-11-08T01:07:57.461660,18.984,can0  041  [04]  3F 01 02 00
2025-11-08T01:07:57.462292,18.984,can0  204  [16]  E1 22 50 46 50 46 50 46 28 23 30 75 30 75 00 00
2025-11-08T01:07:57.464028,18.986,can0  206  [16]  A3 0C D1 07 A3 0C DA DC E9 07 C3 0C A7 0C 00 00
2025-11-08T01:07:57.464959,18.987,can0  204  [16]  E1 22 50 46 50 46 50 46 28 23 30 75 30 75 00 00
2025-11-08T01:07:57.465595,18.988,can0  204  [16]  E1 22 50 46 50 46 50 46 28 23 30 75 30 75 00 00
2025-11-08T01:07:57.466090,18.988,can0  204  [16]  E1 22 50 46 50 46 50 46 28 23 30 75 30 75 00 00
2025-11-08T01:07:57.467644,18.990,can0  206  [16]  A7 0C D3 07 9F 0C 99 C6 EB 07 BB 0C A7 0C 00 00
2025-11-08T01:07:57.467698,18.990,can0  041  [04]  3F 01 02 00
2025-11-08T01:07:57.467879,18.990,can0  204  [16]  E1 22 50 46 50 46 50 46 28 23 30 75 30 75 00 00
2025-11-08T01:07:57.468527,18.991,can0  204  [16]  E1 22 50 46 50 46 50 46 28 23 30 75 30 75 00 00
2025-11-08T01:07:57.470277,18.992,can0  204  [16]  E1 22 50 46 50 46 50 46 28 23 30 75 30 75 00 00
2025-11-08T01:07:57.472640,18.995,can0  206  [16]  A7 0C CD 07 9F 0C DA DC F4 07 C3 0C A7 0C 00 00
2025-11-08T01:07:57.472691,18.995,can0  204  [16]  E1 22 50 46 50 46 50 46 28 23 30 75 30 75 00 00
2025-11-08T01:07:57.473140,18.995,can0  204  [16]  E1 22 50 46 50 46 50 46 28 23 30 75 30 75 00 00
2025-11-08T01:07:57.937970,19.460,can0  041  [04]  02 00 02 00
2025-11-08T01:07:57.938792,19.461,can0  206  [16]  9B 0C CF 07 A7 0C B1 E0 E3 07 BF 0C AB 0C 00 00
2025-11-08T01:07:57.939424,19.462,can0  204  [16]  E1 22 50 46 50 46 50 46 28 23 30 75 30 75 00 00
2025-11-08T01:07:57.940978,19.463,can0  204  [16]  E1 22 50 46 50 46 50 46 28 23 30 75 30 75 00 00
2025-11-08T01:07:57.941693,19.464,can0  204  [16]  E1 22 50 46 50 46 50 46 28 23 30 75 30 75 00 00
2025-11-08T01:07:57.942325,19.464,can0  206  [16]  A3 0C CD 07 9B 0C 3A DF E9 07 CB 0C AB 0C 00 00
2025-11-08T01:07:57.943737,19.466,can0  204  [16]  E1 22 50 46 50 46 50 46 28 23 30 75 30 75 00 00
2025-11-08T01:07:57.943775,19.466,can0  204  [16]  E1 22 50 46 50 46 50 46 28 23 30 75 30 75 00 00
2025-11-08T01:07:57.944059,19.466,can0  041  [04]  02 00 02 00
2025-11-08T01:07:57.944859,19.467,can0  204  [16]  E1 22 50 46 50 46 50 46 28 23 30 75 30 75 00 00
2025-11-08T01:07:57.945791,19.468,can0  206  [16]  9F 0C CB 07 AB 0C DA DC E7 07 BB 0C A3 0C 00 00
2025-11-08T01:07:57.947528,19.470,can0  204  [16]  E1 22 50 46 50 46 50 46 28 23 30 75 30 75 00 00
2025-11-08T01:07:57.952852,19.475,can0  204  [16]  E1 22 50 46 50 46 50 46 28 23 30 75 30 75 00 00
2025-11-08T01:07:58.472649,19.995,can0  204  [16]  E1 22 50 46 50 46 50 46 28 23 30 75 30 75 00 00
2025-11-08T01:07:58.473359,19.996,can0  206  [16]  AF 0C D1 07 9F 0C A0 E2 E7 07 C3 0C 9B 0C 00 00
2025-11-08T01:07:58.473939,19.996,can0  041  [04]  3F 01 02 00
2025-11-08T01:07:58.474797,19.997,can0  204  [16]  E1 22 50 46 50 46 50 46 28 23 30 75 30 75 00 00
2025-11-08T01:07:58.475405,19.998,can0  204  [16]  E1 22 50 46 50 46 50 46 28 23 30 75 30 75 00 00
2025-11-08T01:07:58.475835,19.998,can0  204  [16]  E1 22 50 46 50 46 50 46 28 23 30 75 30 75 00 00
2025-11-08T01:07:58.476344,19.999,can0  206  [16]  A7 0C D3 07 9F 0C 3A DF E5 07 BB 0C A7 0C 00 00
2025-11-08T01:07:58.476849,19.999,can0  204  [16]  E1 22 50 46 50 46 50 46 28 23 30 75 30 75 00 00
2025-11-08T01:07:58.477345,20.000,can0  204  [16]  E1 22 50 46 50 46 50 46 28 23 30 75 30 75 00 00
2025-11-08T01:07:58.477769,20.000,can0  041  [04]  3F 01 02 00
2025-11-08T01:07:58.479353,20.002,can0  204  [16]  E1 22 50 46 50 46 50 46 28 23 30 75 30 75 00 00
2025-11-08T01:07:58.479419,20.002,can0  206  [16]  9F 0C D1 07 9F 0C B1 E0 E9 07 C7 0C AB 0C 00 00
2025-11-08T01:07:58.479452,20.002,can0  204  [16]  E1 22 50 46 50 46 50 46 28 23 30 75 30 75 00 00
2025-11-08T01:07:58.479925,20.002,can0  204  [16]  E1 22 50 46 50 46 50 46 28 23 30 75 30 75 00 00
2025-11-08T01:07:58.930010,20.452,can0  204  [16]  E1 22 50 46 50 46 50 46 28 23 30 75 30 75 00 00
2025-11-08T01:07:58.930725,20.453,can0  206  [16]  A7 0C D1 07 97 0C DA DC EB 07 BF 0C A7 0C 00 00
2025-11-08T01:07:58.931365,20.454,can0  041  [04]  3F 01 02 00
2025-11-08T01:07:58.931946,20.454,can0  204  [16]  E1 22 50 46 50 46 50 46 28 23 30 75 30 75 00 00
2025-11-08T01:07:58.932739,20.455,can0  204  [16]  E1 22 50 46 50 46 50 46 28 23 30 75 30 75 00 00
2025-11-08T01:07:58.933089,20.455,can0  206  [16]  AB 0C D8 07 9B 0C 99 C6 E9 07 C7 0C A3 0C 00 00
2025-11-08T01:07:58.933471,20.456,can0  204  [16]  E1 22 50 46 50 46 50 46 28 23 30 75 30 75 00 00
2025-11-08T01:07:58.934309,20.456,can0  204  [16]  E1 22 50 46 50 46 50 46 28 23 30 75 30 75 00 00
2025-11-08T01:07:58.934348,20.457,can0  204  [16]  E1 22 50 46 50 46 50 46 28 23 30 75 30 75 00 00
2025-11-08T01:07:58.934691,20.457,can0  041  [04]  02 00 02 00
2025-11-08T01:07:58.935265,20.457,can0  206  [16]  B7 0C CF 07 9F 0C 99 C6 E9 07 B7 0C 97 0C 00 00
2025-11-08T01:07:58.935716,20.458,can0  204  [16]  E1 22 50 46 50 46 50 46 28 23 30 75 30 75 00 00
2025-11-08T01:07:58.936244,20.458,can0  204  [16]  E1 22 50 46 50 46 50 46 28 23 30 75 30 75 00 00
2025-11-08T01:07:59.377838,20.900,can0  204  [16]  E1 22 50 46 50 46 50 46 28 23 30 75 30 75 00 00
2025-11-08T01:07:59.378469,20.901,can0  206  [16]  A7 0C CF 07 9B 0C 99 C6 E9 07 C3 0C A7 0C 00 00
2025-11-08T01:07:59.378932,20.901,can0  204  [16]  E1 22 50 46 50 46 50 46 28 23 30 75 30 75 00 00
2025-11-08T01:07:59.379278,20.901,can0  041  [04]  02 00 00 00
2025-11-08T01:07:59.379655,20.902,can0  204  [16]  E1 22 50 46 50 46 50 46 28 23 30 75 30 75 00 00
2025-11-08T01:07:59.380568,20.903,can0  204  [16]  E1 22 50 46 50 46 50 46 28 23 30 75 30 75 00 00
2025-11-08T01:07:59.380608,20.903,can0  206  [16]  93 0C CB 07 B7 0C 3A DF E9 07 AF 0C B3 0C 00 00
2025-11-08T01:07:59.381024,20.903,can0  204  [16]  E1 22 50 46 50 46 50 46 28 23 30 75 30 75 00 00
2025-11-08T01:07:59.381497,20.904,can0  204  [16]  E1 22 50 46 50 46 50 46 28 23 30 75 30 75 00 00
2025-11-08T01:07:59.381960,20.904,can0  204  [16]  E1 22 50 46 50 46 50 46 28 23 30 75 30 75 00 00
2025-11-08T01:07:59.382403,20.905,can0  206  [16]  A3 0C CD 07 9B 0C DA DC E7 07 CB 0C A7 0C 00 00
2025-11-08T01:07:59.382759,20.905,can0  041  [04]  02 00 00 00
2025-11-08T01:07:59.819203,21.341,can0  204  [16]  E1 22 50 46 50 46 50 46 28 23 30 75 30 75 00 00
2025-11-08T01:07:59.819779,21.342,can0  204  [16]  E1 22 50 46 50 46 50 46 28 23 30 75 30 75 00 00
2025-11-08T01:07:59.820247,21.342,can0  204  [16]  E1 22 50 46 50 46 50 46 28 23 30 75 30 75 00 00
2025-11-08T01:07:59.820696,21.343,can0  206  [16]  9F 0C CD 07 A3 0C 3A DF E7 07 BB 0C AB 0C 00 00
2025-11-08T01:07:59.821105,21.343,can0  204  [16]  E1 22 50 46 50 46 50 46 28 23 30 75 30 75 00 00
2025-11-08T01:07:59.821570,21.344,can0  041  [04]  02 00 00 00
2025-11-08T01:07:59.822047,21.344,can0  204  [16]  E1 22 50 46 50 46 50 46 28 23 30 75 30 75 00 00
2025-11-08T01:07:59.822587,21.345,can0  206  [16]  AF 0C CF 07 9B 0C DA DC E5 07 BF 0C A3 0C 00 00
2025-11-08T01:07:59.823079,21.345,can0  204  [16]  E1 22 50 46 50 46 50 46 28 23 30 75 30 75 00 00
2025-11-08T01:07:59.824118,21.346,can0  204  [16]  E1 22 50 46 50 46 50 46 28 23 30 75 30 75 00 00
2025-11-08T01:07:59.824163,21.346,can0  204  [16]  E1 22 50 46 50 46 50 46 28 23 30 75 30 75 00 00
2025-11-08T01:07:59.824798,21.347,can0  206  [16]  A3 0C CD 07 9F 0C DA DC EB 07 BF 0C A7 0C 00 00
2025-11-08T01:08:00.227027,21.749,can0  204  [16]  E1 22 50 46 50 46 50 46 28 23 30 75 30 75 00 00
2025-11-08T01:08:00.227725,21.750,can0  041  [04]  02 00 00 00
2025-11-08T01:08:00.228281,21.750,can0  204  [16]  E1 22 50 46 50 46 50 46 28 23 30 75 30 75 00 00
2025-11-08T01:08:00.228817,21.751,can0  204  [16]  E1 22 50 46 50 46 50 46 28 23 30 75 30 75 00 00
2025-11-08T01:08:00.229358,21.752,can0  206  [16]  AB 0C CD 07 93 0C DA DC EB 07 CB 0C A3 0C 00 00
2025-11-08T01:08:00.229823,21.752,can0  204  [16]  E1 22 50 46 50 46 50 46 28 23 30 75 30 75 00 00
2025-11-08T01:08:00.230300,21.752,can0  204  [16]  E1 22 50 46 50 46 50 46 28 23 30 75 30 75 00 00
2025-11-08T01:08:00.230758,21.753,can0  041  [04]  02 00 00 00
2025-11-08T01:08:00.231318,21.753,can0  204  [16]  E1 22 50 46 50 46 50 46 28 23 30 75 30 75 00 00
2025-11-08T01:08:00.232446,21.755,can0  206  [16]  AB 0C CF 07 9B 0C DA DC E5 07 C3 0C A3 0C 00 00
2025-11-08T01:08:00.232491,21.755,can0  204  [16]  E1 22 50 46 50 46 50 46 28 23 30 75 30 75 00 00
2025-11-08T01:08:00.626965,22.149,can0  204  [16]  E1 22 50 46 50 46 50 46 28 23 30 75 30 75 00 00
2025-11-08T01:08:00.627792,22.150,can0  204  [16]  E1 22 50 46 50 46 50 46 28 23 30 75 30 75 00 00
2025-11-08T01:08:00.628359,22.151,can0  206  [16]  97 0C D1 07 A7 0C 3A DF E9 07 C3 0C AF 0C 00 00
2025-11-08T01:08:00.628795,22.151,can0  204  [16]  E1 22 50 46 50 46 50 46 28 23 30 75 30 75 00 00
2025-11-08T01:08:00.629191,22.151,can0  041  [04]  02 00 00 00
2025-11-08T01:08:00.629661,22.152,can0  204  [16]  E1 22 50 46 50 46 50 46 28 23 30 75 30 75 00 00
2025-11-08T01:08:00.630149,22.152,can0  206  [16]  A3 0C CD 07 9B 0C 3A DF E5 07 C3 0C AB 0C 00 00
2025-11-08T01:08:00.630627,22.153,can0  204  [16]  E1 22 50 46 50 46 50 46 28 23 30 75 30 75 00 00
2025-11-08T01:08:00.631091,22.153,can0  204  [16]  E1 22 50 46 50 46 50 46 28 23 30 75 30 75 00 00
2025-11-08T01:08:00.649355,22.172,can0  204  [16]  E1 22 50 46 50 46 50 46 28 23 30 75 30 75 00 00
2025-11-08T01:08:01.028091,22.550,can0  206  [16]  9F 0C CF 07 93 0C DA DC E5 07 D3 0C AB 0C 00 00
2025-11-08T01:08:01.028694,22.551,can0  204  [16]  E1 22 50 46 50 46 50 46 28 23 30 75 30 75 00 00
2025-11-08T01:08:01.029127,22.551,can0  041  [04]  3F 01 00 00
2025-11-08T01:08:01.029577,22.552,can0  204  [16]  E1 22 50 46 50 46 50 46 28 23 30 75 30 75 00 00
2025-11-08T01:08:01.030009,22.552,can0  204  [16]  E1 22 50 46 50 46 50 46 28 23 30 75 30 75 00 00
2025-11-08T01:08:01.030523,22.553,can0  206  [16]  9B 0C CF 07 9F 0C DA DC EB 07 C7 0C AB 0C 00 00
2025-11-08T01:08:01.031010,22.553,can0  204  [16]  E1 22 50 46 50 46 50 46 28 23 30 75 30 75 00 00
2025-11-08T01:08:01.031480,22.554,can0  204  [16]  E1 22 50 46 50 46 50 46 28 23 30 75 30 75 00 00
2025-11-08T01:08:01.032365,22.555,can0  041  [04]  02 00 02 00
2025-11-08T01:08:01.032400,22.555,can0  204  [16]  E1 22 50 46 50 46 50 46 28 23 30 75 30 75 00 00
2025-11-08T01:08:01.033314,22.555,can0  206  [16]  9B 0C D1 07 9B 0C 3A DF E5 07 BF 0C B3 0C 00 00
2025-11-08T01:08:01.033525,22.556,can0  204  [16]  E1 22 50 46 50 46 50 46 28 23 30 75 30 75 00 00
2025-11-08T01:08:01.452737,22.975,can0  204  [16]  E1 22 50 46 50 46 50 46 28 23 30 75 30 75 00 00
2025-11-08T01:08:01.452920,22.975,can0  204  [16]  E1 22 50 46 50 46 50 46 28 23 30 75 30 75 00 00
2025-11-08T01:08:01.453498,22.976,can0  206  [16]  BB 0C D1 07 9B 0C B1 E0 ED 07 CB 0C 93 0C 00 00
2025-11-08T01:08:01.454009,22.976,can0  204  [16]  E1 22 50 46 50 46 50 46 28 23 30 75 30 75 00 00
2025-11-08T01:08:01.454489,22.977,can0  041  [04]  02 00 02 00
2025-11-08T01:08:01.455014,22.977,can0  204  [16]  E1 22 50 46 50 46 50 46 28 23 30 75 30 75 00 00
2025-11-08T01:08:01.455523,22.978,can0  204  [16]  E1 22 50 46 50 46 50 46 28 23 30 75 30 75 00 00
2025-11-08T01:08:01.456066,22.978,can0  206  [16]  9B 0C CF 07 A7 0C 3A DF E5 07 BF 0C AF 0C 00 00
2025-11-08T01:08:01.456562,22.979,can0  204  [16]  E1 22 50 46 50 46 50 46 28 23 30 75 30 75 00 00
2025-11-08T01:08:01.458258,22.980,can0  204  [16]  E1 22 50 46 50 46 50 46 28 23 30 75 30 75 00 00
2025-11-08T01:08:01.925929,23.448,can0  041  [04]  02 00 00 00
2025-11-08T01:08:01.926522,23.449,can0  204  [16]  E1 22 50 46 50 46 50 46 28 23 30 75 30 75 00 00
2025-11-08T01:08:01.926990,23.449,can0  206  [16]  9F 0C CF 07 9B 0C 3A DF E9 07 C7 0C AF 0C 00 00
2025-11-08T01:08:01.927467,23.450,can0  204  [16]  E1 22 50 46 50 46 50 46 28 23 30 75 30 75 00 00
2025-11-08T01:08:01.927946,23.450,can0  204  [16]  E1 22 50 46 50 46 50 46 28 23 30 75 30 75 00 00
2025-11-08T01:08:01.928366,23.451,can0  204  [16]  E1 22 50 46 50 46 50 46 28 23 30 75 30 75 00 00
2025-11-08T01:08:01.928811,23.451,can0  206  [16]  9F 0C D3 07 9F 0C DA DC E9 07 C7 0C AB 0C 00 00
2025-11-08T01:08:01.929224,23.451,can0  204  [16]  E1 22 50 46 50 46 50 46 28 23 30 75 30 75 00 00
2025-11-08T01:08:01.929591,23.452,can0  041  [04]  02 00 02 00
2025-11-08T01:08:01.929988,23.452,can0  204  [16]  E1 22 50 46 50 46 50 46 28 23 30 75 30 75 00 00
2025-11-08T01:08:01.930436,23.453,can0  206  [16]  97 0C D1 07 9F 0C 3A DF E7 07 CB 0C AF 0C 00 00
2025-11-08T01:08:01.931889,23.454,can0  204  [16]  E1 22 50 46 50 46 50 46 28 23 30 75 30 75 00 00
2025-11-08T01:08:01.932664,23.455,can0  204  [16]  E1 22 50 46 50 46 50 46 28 23 30 75 30 75 00 00
2025-11-08T01:08:02.385242,23.907,can0  204  [16]  E1 22 50 46 50 46 50 46 28 23 30 75 30 75 00 00
2025-11-08T01:08:02.386218,23.908,can0  206  [16]  A3 0C D1 07 A3 0C DA DC EB 07 C3 0C A3 0C 00 00
2025-11-08T01:08:02.387897,23.910,can0  041  [04]  02 00 02 00
2025-11-08T01:08:02.388576,23.911,can0  204  [16]  E1 22 50 46 50 46 50 46 28 23 30 75 30 75 00 00
2025-11-08T01:08:02.389032,23.911,can0  204  [16]  E1 22 50 46 50 46 50 46 28 23 30 75 30 75 00 00
2025-11-08T01:08:02.389598,23.912,can0  204  [16]  E1 22 50 46 50 46 50 46 28 23 30 75 30 75 00 00
2025-11-08T01:08:02.390584,23.913,can0  206  [16]  9B 0C D1 07 9F 0C DA DC E7 07 CB 0C AB 0C 00 00
2025-11-08T01:08:02.391396,23.914,can0  204  [16]  E1 22 50 46 50 46 50 46 28 23 30 75 30 75 00 00
2025-11-08T01:08:02.393615,23.916,can0  204  [16]  E1 22 50 46 50 46 50 46 28 23 30 75 30 75 00 00
2025-11-08T01:08:02.393667,23.916,can0  041  [04]  02 00 02 00
2025-11-08T01:08:02.396929,23.919,can0  204  [16]  E1 22 50 46 50 46 50 46 28 23 30 75 30 75 00 00
2025-11-08T01:08:02.397005,23.919,can0  206  [16]  A7 0C D1 07 9B 0C C5 E1 E7 07 C7 0C A3 0C 00 00
2025-11-08T01:08:02.886811,24.409,can0  204  [16]  E1 22 50 46 50 46 50 46 28 23 30 75 30 75 00 00
2025-11-08T01:08:02.888858,24.411,can0  204  [16]  E1 22 50 46 50 46 50 46 28 23 30 75 30 75 00 00
2025-11-08T01:08:02.889407,24.412,can0  204  [16]  E1 22 50 46 50 46 50 46 28 23 30 75 30 75 00 00
2025-11-08T01:08:02.889913,24.412,can0  206  [16]  A3 0C D1 07 CB 0C DA DC EB 07 8F 0C AB 0C 00 00
2025-11-08T01:08:02.890346,24.413,can0  041  [04]  02 00 02 00
2025-11-08T01:08:02.890866,24.413,can0  204  [16]  E1 22 50 46 50 46 50 46 28 23 30 75 30 75 00 00
2025-11-08T01:08:02.891334,24.414,can0  204  [16]  E1 22 50 46 50 46 50 46 28 23 30 75 30 75 00 00
2025-11-08T01:08:02.891799,24.414,can0  204  [16]  E1 22 50 46 50 46 50 46 28 23 30 75 30 75 00 00
2025-11-08T01:08:02.892754,24.415,can0  206  [16]  A7 0C D3 07 97 0C B1 E0 E9 07 C3 0C A7 0C 00 00
2025-11-08T01:08:02.893101,24.415,can0  204  [16]  E1 22 50 46 50 46 50 46 28 23 30 75 30 75 00 00
2025-11-08T01:08:02.893642,24.416,can0  204  [16]  E1 22 50 46 50 46 50 46 28 23 30 75 30 75 00 00
2025-11-08T01:08:02.895155,24.417,can0  041  [04]  3F 01 02 00
2025-11-08T01:08:02.896008,24.418,can0  204  [16]  E1 22 50 46 50 46 50 46 28 23 30 75 30 75 00 00
2025-11-08T01:08:02.896908,24.419,can0  206  [16]  9F 0C D1 07 9B 0C DA DC E7 07 CB 0C AB 0C 00 00
2025-11-08T01:08:03.426370,24.949,can0  204  [16]  E1 22 50 46 50 46 50 46 28 23 30 75 30 75 00 00
2025-11-08T01:08:03.426884,24.949,can0  204  [16]  E1 22 50 46 50 46 50 46 28 23 30 75 30 75 00 00
2025-11-08T01:08:03.427387,24.950,can0  206  [16]  A3 0C CF 07 9B 0C DA DC E5 07 C7 0C AB 0C 00 00
2025-11-08T01:08:03.428079,24.950,can0  204  [16]  E1 22 50 46 50 46 50 46 28 23 30 75 30 75 00 00
2025-11-08T01:08:03.428290,24.950,can0  041  [04]  3F 01 02 00
2025-11-08T01:08:03.429563,24.952,can0  204  [16]  E1 22 50 46 50 46 50 46 28 23 30 75 30 75 00 00
2025-11-08T01:08:03.430867,24.953,can0  204  [16]  E1 22 50 46 50 46 50 46 28 23 30 75 30 75 00 00
2025-11-08T01:08:03.431333,24.953,can0  206  [16]  A3 0C D1 07 9F 0C 99 C6 E7 07 BF 0C A7 0C 00 00
2025-11-08T01:08:03.432699,24.955,can0  204  [16]  E1 22 50 46 50 46 50 46 28 23 30 75 30 75 00 00
2025-11-08T01:08:03.432751,24.955,can0  204  [16]  E1 22 50 46 50 46 50 46 28 23 30 75 30 75 00 00
2025-11-08T01:08:03.433261,24.955,can0  204  [16]  E1 22 50 46 50 46 50 46 28 23 30 75 30 75 00 00
2025-11-08T01:08:03.433786,24.956,can0  041  [04]  3F 01 02 00
2025-11-08T01:08:03.436009,24.958,can0  206  [16]  AB 0C CD 07 9B 0C B1 E0 E9 07 BF 0C A3 0C 00 00
2025-11-08T01:08:03.436069,24.958,can0  204  [16]  E1 22 50 46 50 46 50 46 28 23 30 75 30 75 00 00
2025-11-08T01:08:03.438349,24.961,can0  204  [16]  E1 22 50 46 50 46 50 46 28 23 30 75 30 75 00 00
2025-11-08T01:08:04.006387,25.529,can0  204  [16]  E1 22 50 46 50 46 50 46 28 23 30 75 30 75 00 00
2025-11-08T01:08:04.007222,25.529,can0  206  [16]  A7 0C CF 07 93 0C 99 C6 EB 07 C3 0C A7 0C 00 00
2025-11-08T01:08:04.007853,25.530,can0  204  [16]  E1 22 50 46 50 46 50 46 28 23 30 75 30 75 00 00
2025-11-08T01:08:04.008466,25.531,can0  204  [16]  E1 22 50 46 50 46 50 46 28 23 30 75 30 75 00 00
2025-11-08T01:08:04.008996,25.531,can0  041  [04]  3F 01 02 00
2025-11-08T01:08:04.009569,25.532,can0  204  [16]  E1 22 50 46 50 46 50 46 28 23 30 75 30 75 00 00
2025-11-08T01:08:04.010253,25.532,can0  206  [16]  A3 0C D3 07 9F 0C 3A DF E5 07 C7 0C A7 0C 00 00
2025-11-08T01:08:04.011601,25.534,can0  204  [16]  E1 22 50 46 50 46 50 46 28 23 30 75 30 75 00 00
2025-11-08T01:08:04.011666,25.534,can0  204  [16]  E1 22 50 46 50 46 50 46 28 23 30 75 30 75 00 00
2025-11-08T01:08:04.012746,25.535,can0  204  [16]  E1 22 50 46 50 46 50 46 28 23 30 75 30 75 00 00
2025-11-08T01:08:04.014296,25.536,can0  206  [16]  9F 0C C9 07 A3 0C DA DC E9 07 CB 0C A3 0C 00 00
2025-11-08T01:08:04.015924,25.538,can0  041  [04]  3F 01 02 00
2025-11-08T01:08:04.015980,25.538,can0  204  [16]  E1 22 50 46 50 46 50 46 28 23 30 75 30 75 00 00
2025-11-08T01:08:04.016014,25.538,can0  204  [16]  E1 22 50 46 50 46 50 46 28 23 30 75 30 75 00 00
2025-11-08T01:08:04.030591,25.553,can0  206  [16]  AB 0C D3 07 9F 0C DA DC E9 07 BF 0C A3 0C 00 00
2025-11-08T01:08:04.030672,25.553,can0  204  [16]  E1 22 50 46 50 46 50 46 28 23 30 75 30 75 00 00
2025-11-08T01:08:04.482200,26.004,can0  204  [16]  E1 22 50 46 50 46 50 46 28 23 30 75 30 75 00 00
2025-11-08T01:08:04.483167,26.005,can0  204  [16]  E1 22 50 46 50 46 50 46 28 23 30 75 30 75 00 00
2025-11-08T01:08:04.484055,26.006,can0  041  [04]  3F 01 02 00
2025-11-08T01:08:04.484972,26.007,can0  206  [16]  AB 0C CD 07 9F 0C B1 E0 E5 07 AF 0C AB 0C 00 00
2025-11-08T01:08:04.485787,26.008,can0  204  [16]  E1 22 50 46 50 46 50 46 28 23 30 75 30 75 00 00
2025-11-08T01:08:04.487465,26.010,can0  204  [16]  E1 22 50 46 50 46 50 46 28 23 30 75 30 75 00 00
2025-11-08T01:08:04.488297,26.010,can0  204  [16]  E1 22 50 46 50 46 50 46 28 23 30 75 30 75 00 00
2025-11-08T01:08:04.489199,26.011,can0  206  [16]  A3 0C CF 07 9B 0C 3A DF E7 07 C3 0C A7 0C 00 00
2025-11-08T01:08:04.490057,26.012,can0  204  [16]  E1 22 50 46 50 46 50 46 28 23 30 75 30 75 00 00
2025-11-08T01:08:04.490749,26.013,can0  041  [04]  3F 01 02 00
2025-11-08T01:08:04.491348,26.014,can0  204  [16]  E1 22 50 46 50 46 50 46 28 23 30 75 30 75 00 00
2025-11-08T01:08:04.906492,26.429,can0  204  [16]  E1 22 50 46 50 46 50 46 28 23 30 75 30 75 00 00
2025-11-08T01:08:04.907129,26.429,can0  206  [16]  AB 0C CF 07 97 0C DA DC E9 07 04 0D 9F 0C 00 00
2025-11-08T01:08:04.907653,26.430,can0  204  [16]  E1 22 50 46 50 46 50 46 28 23 30 75 30 75 00 00
2025-11-08T01:08:04.908170,26.430,can0  204  [16]  E1 22 50 46 50 46 50 46 28 23 30 75 30 75 00 00
2025-11-08T01:08:04.908694,26.431,can0  204  [16]  E1 22 50 46 50 46 50 46 28 23 30 75 30 75 00 00
2025-11-08T01:08:04.909235,26.431,can0  206  [16]  A3 0C CF 07 A3 0C C5 E1 E9 07 BF 0C A7 0C 00 00
2025-11-08T01:08:04.909691,26.432,can0  041  [04]  3F 01 02 00
2025-11-08T01:08:04.910187,26.432,can0  204  [16]  E1 22 50 46 50 46 50 46 28 23 30 75 30 75 00 00
2025-11-08T01:08:04.910698,26.433,can0  204  [16]  E1 22 50 46 50 46 50 46 28 23 30 75 30 75 00 00
2025-11-08T01:08:04.911512,26.434,can0  206  [16]  A7 0C CD 07 93 0C 3A DF E7 07 C3 0C AB 0C 00 00
2025-11-08T01:08:04.912103,26.434,can0  204  [16]  E1 22 50 46 50 46 50 46 28 23 30 75 30 75 00 00
2025-11-08T01:08:05.329974,26.852,can0  204  [16]  E1 22 50 46 50 46 50 46 28 23 30 75 30 75 00 00
2025-11-08T01:08:05.330600,26.853,can0  041  [04]  3F 01 00 00
2025-11-08T01:08:05.331149,26.853,can0  204  [16]  E1 22 50 46 50 46 50 46 28 23 30 75 30 75 00 00
2025-11-08T01:08:05.332644,26.855,can0  206  [16]  93 0C CF 07 9B 0C 3A DF E7 07 C7 0C B3 0C 00 00
2025-11-08T01:08:05.334191,26.856,can0  204  [16]  E1 22 50 46 50 46 50 46 28 23 30 75 30 75 00 00
2025-11-08T01:08:05.334861,26.857,can0  204  [16]  E1 22 50 46 50 46 50 46 28 23 30 75 30 75 00 00
2025-11-08T01:08:05.336414,26.859,can0  204  [16]  E1 22 50 46 50 46 50 46 28 23 30 75 30 75 00 00
2025-11-08T01:08:05.336462,26.859,can0  206  [16]  A7 0C D1 07 9B 0C DA DC E7 07 C7 0C A7 0C 00 00
2025-11-08T01:08:05.338916,26.861,can0  204  [16]  E1 22 50 46 50 46 50 46 28 23 30 75 30 75 00 00
2025-11-08T01:08:05.339183,26.861,can0  041  [04]  3F 01 00 00
2025-11-08T01:08:05.341341,26.864,can0  204  [16]  E1 22 50 46 50 46 50 46 28 23 30 75 30 75 00 00
2025-11-08T01:08:05.342272,26.864,can0  204  [16]  E1 22 50 46 50 46 50 46 28 23 30 75 30 75 00 00
2025-11-08T01:08:05.343677,26.866,can0  206  [16]  B3 0C D1 07 A3 0C DA DC E5 07 C7 0C 97 0C 00 00
2025-11-08T01:08:05.345968,26.868,can0  204  [16]  E1 22 50 46 50 46 50 46 28 23 30 75 30 75 00 00
2025-11-08T01:08:05.925103,27.447,can0  204  [16]  E1 22 50 46 50 46 50 46 28 23 30 75 30 75 00 00
2025-11-08T01:08:05.932761,27.455,can0  041  [04]  02 00 00 00
2025-11-08T01:08:05.935490,27.458,can0  204  [16]  E1 22 50 46 50 46 50 46 28 23 30 75 30 75 00 00
2025-11-08T01:08:05.937819,27.460,can0  206  [16]  A3 0C CD 07 9B 0C B1 E0 E7 07 C7 0C AB 0C 00 00
2025-11-08T01:08:05.937874,27.460,can0  204  [16]  E1 22 50 46 50 46 50 46 28 23 30 75 30 75 00 00
2025-11-08T01:08:05.938072,27.460,can0  204  [16]  E1 22 50 46 50 46 50 46 28 23 30 75 30 75 00 00
2025-11-08T01:08:05.940455,27.463,can0  204  [16]  E1 22 50 46 50 46 50 46 28 23 30 75 30 75 00 00
2025-11-08T01:08:05.940624,27.463,can0  206  [16]  BB 0C D1 07 A3 0C DA DC E9 07 C7 0C 8F 0C 00 00
2025-11-08T01:08:05.941073,27.463,can0  204  [16]  E1 22 50 46 50 46 50 46 28 23 30 75 30 75 00 00
2025-11-08T01:08:05.941984,27.464,can0  041  [04]  02 00 00 00
2025-11-08T01:08:05.942029,27.464,can0  204  [16]  E1 22 50 46 50 46 50 46 28 23 30 75 30 75 00 00
2025-11-08T01:08:05.942469,27.465,can0  204  [16]  E1 22 50 46 50 46 50 46 28 23 30 75 30 75 00 00
2025-11-08T01:08:05.942994,27.465,can0  206  [16]  AB 0C D1 07 A3 0C DA DC EB 07 B3 0C A3 0C 00 00
2025-11-08T01:08:05.943492,27.466,can0  204  [16]  E1 22 50 46 50 46 50 46 28 23 30 75 30 75 00 00
2025-11-08T01:08:05.943967,27.466,can0  204  [16]  E1 22 50 46 50 46 50 46 28 23 30 75 30 75 00 00
2025-11-08T01:08:06.365212,27.887,can0  041  [04]  02 00 00 00
2025-11-08T01:08:06.365876,27.888,can0  206  [16]  A7 0C D1 07 9F 0C DA DC EB 07 C3 0C A7 0C 00 00
2025-11-08T01:08:06.366316,27.888,can0  204  [16]  E1 22 50 46 50 46 50 46 28 23 30 75 30 75 00 00
2025-11-08T01:08:06.366755,27.889,can0  204  [16]  E1 22 50 46 50 46 50 46 28 23 30 75 30 75 00 00
2025-11-08T01:08:06.367207,27.889,can0  204  [16]  E1 22 50 46 50 46 50 46 28 23 30 75 30 75 00 00
2025-11-08T01:08:06.367751,27.890,can0  206  [16]  A7 0C CD 07 A3 0C DA DC E9 07 BB 0C A7 0C 00 00
2025-11-08T01:08:06.368209,27.890,can0  204  [16]  E1 22 50 46 50 46 50 46 28 23 30 75 30 75 00 00
2025-11-08T01:08:06.368649,27.891,can0  204  [16]  E1 22 50 46 50 46 50 46 28 23 30 75 30 75 00 00
2025-11-08T01:08:06.369032,27.891,can0  041  [04]  02 00 02 00
2025-11-08T01:08:06.369470,27.892,can0  204  [16]  E1 22 50 46 50 46 50 46 28 23 30 75 30 75 00 00
2025-11-08T01:08:06.369943,27.892,can0  206  [16]  A7 0C CF 07 9B 0C 3A DF E9 07 C7 0C A7 0C 00 00
2025-11-08T01:08:06.370583,27.893,can0  204  [16]  E1 22 50 46 50 46 50 46 28 23 30 75 30 75 00 00
2025-11-08T01:08:06.839957,28.362,can0  204  [16]  E1 22 50 46 50 46 50 46 28 23 30 75 30 75 00 00
2025-11-08T01:08:06.840614,28.363,can0  204  [16]  E1 22 50 46 50 46 50 46 28 23 30 75 30 75 00 00
2025-11-08T01:08:06.841221,28.363,can0  206  [16]  A3 0C CF 07 9B 0C DA DC E9 07 BB 0C AB 0C 00 00
2025-11-08T01:08:06.841720,28.364,can0  204  [16]  E1 22 50 46 50 46 50 46 28 23 30 75 30 75 00 00
2025-11-08T01:08:06.842157,28.364,can0  041  [04]  3F 01 02 00
2025-11-08T01:08:06.842664,28.365,can0  204  [16]  E1 22 50 46 50 46 50 46 28 23 30 75 30 75 00 00
2025-11-08T01:08:06.843176,28.365,can0  204  [16]  E1 22 50 46 50 46 50 46 28 23 30 75 30 75 00 00
2025-11-08T01:08:06.843753,28.366,can0  206  [16]  B7 0C D3 07 A3 0C B1 E0 E7 07 C7 0C 93 0C 00 00
2025-11-08T01:08:06.844242,28.366,can0  204  [16]  E1 22 50 46 50 46 50 46 28 23 30 75 30 75 00 00
2025-11-08T01:08:06.845671,28.368,can0  204  [16]  E1 22 50 46 50 46 50 46 28 23 30 75 30 75 00 00
2025-11-08T01:08:06.845713,28.368,can0  041  [04]  02 00 00 00
2025-11-08T01:08:06.846420,28.369,can0  204  [16]  E1 22 50 46 50 46 50 46 28 23 30 75 30 75 00 00
2025-11-08T01:08:06.878050,28.400,can0  206  [16]  A7 0C CD 07 9F 0C DA DC E9 07 C7 0C A7 0C 00 00
2025-11-08T01:08:07.295640,28.818,can0  204  [16]  E1 22 50 46 50 46 50 46 28 23 30 75 30 75 00 00
2025-11-08T01:08:07.296236,28.818,can0  204  [16]  E1 22 50 46 50 46 50 46 28 23 30 75 30 75 00 00
2025-11-08T01:08:07.296775,28.819,can0  204  [16]  E1 22 50 46 50 46 50 46 28 23 30 75 30 75 00 00
2025-11-08T01:08:07.297362,28.820,can0  206  [16]  9B 0C CD 07 97 0C 99 C6 ED 07 CB 0C AF 0C 00 00
2025-11-08T01:08:07.297833,28.820,can0  204  [16]  E1 22 50 46 50 46 50 46 28 23 30 75 30 75 00 00
2025-11-08T01:08:07.298246,28.820,can0  041  [04]  02 00 00 00
2025-11-08T01:08:07.298768,28.821,can0  204  [16]  E1 22 50 46 50 46 50 46 28 23 30 75 30 75 00 00
2025-11-08T01:08:07.299370,28.822,can0  206  [16]  A3 0C D1 07 9F 0C 99 C6 EB 07 CB 0C A7 0C 00 00
2025-11-08T01:08:07.299918,28.822,can0  204  [16]  E1 22 50 46 50 46 50 46 28 23 30 75 30 75 00 00
2025-11-08T01:08:07.300520,28.823,can0  204  [16]  E1 22 50 46 50 46 50 46 28 23 30 75 30 75 00 00
2025-11-08T01:08:07.800561,29.323,can0  204  [16]  E1 22 50 46 50 46 50 46 28 23 30 75 30 75 00 00
2025-11-08T01:08:07.801649,29.324,can0  041  [04]  02 00 00 00
2025-11-08T01:08:07.802237,29.324,can0  206  [16]  A3 0C D3 07 9F 0C 3A DF ED 07 BB 0C AB 0C 00 00
2025-11-08T01:08:07.802516,29.325,can0  204  [16]  E1 22 50 46 50 46 50 46 28 23 30 75 30 75 00 00
2025-11-08T01:08:07.805103,29.327,can0  204  [16]  E1 22 50 46 50 46 50 46 28 23 30 75 30 75 00 00
2025-11-08T01:08:07.805204,29.327,can0  204  [16]  E1 22 50 46 50 46 50 46 28 23 30 75 30 75 00 00
2025-11-08T01:08:07.807309,29.329,can0  206  [16]  A7 0C D1 07 A3 0C 3A DF E5 07 B7 0C A3 0C 00 00
2025-11-08T01:08:07.807364,29.330,can0  204  [16]  E1 22 50 46 50 46 50 46 28 23 30 75 30 75 00 00
2025-11-08T01:08:07.808583,29.331,can0  204  [16]  E1 22 50 46 50 46 50 46 28 23 30 75 30 75 00 00
2025-11-08T01:08:07.809302,29.331,can0  041  [04]  02 00 00 00
2025-11-08T01:08:07.809464,29.332,can0  204  [16]  E1 22 50 46 50 46 50 46 28 23 30 75 30 75 00 00
2025-11-08T01:08:07.810321,29.332,can0  206  [16]  A3 0C CD 07 9F 0C A0 E2 E5 07 C7 0C A7 0C 00 00
2025-11-08T01:08:07.811004,29.333,can0  204  [16]  E1 22 50 46 50 46 50 46 28 23 30 75 30 75 00 00
2025-11-08T01:08:07.832997,29.355,can0  204  [16]  E1 22 50 46 50 46 50 46 28 23 30 75 30 75 00 00
2025-11-08T01:08:08.408599,29.931,can0  204  [16]  E1 22 50 46 50 46 50 46 28 23 30 75 30 75 00 00
2025-11-08T01:08:08.409286,29.931,can0  206  [16]  9F 0C CD 07 9F 0C A0 E2 E3 07 C7 0C AB 0C 00 00
2025-11-08T01:08:08.410669,29.933,can0  041  [04]  02 00 00 00
2025-11-08T01:08:08.412216,29.934,can0  204  [16]  E1 22 50 46 50 46 50 46 28 23 30 75 30 75 00 00
2025-11-08T01:08:08.413106,29.935,can0  204  [16]  E1 22 50 46 50 46 50 46 28 23 30 75 30 75 00 00
2025-11-08T01:08:08.414056,29.936,can0  204  [16]  E1 22 50 46 50 46 50 46 28 23 30 75 30 75 00 00
2025-11-08T01:08:08.415303,29.937,can0  206  [16]  9F 0C CD 07 9F 0C 57 E3 E9 07 BF 0C AB 0C 00 00
2025-11-08T01:08:08.415794,29.938,can0  204  [16]  E1 22 50 46 50 46 50 46 28 23 30 75 30 75 00 00
2025-11-08T01:08:08.417754,29.940,can0  204  [16]  E1 22 50 46 50 46 50 46 28 23 30 75 30 75 00 00
2025-11-08T01:08:08.420255,29.942,can0  041  [04]  02 00 00 00
2025-11-08T01:08:08.420330,29.942,can0  204  [16]  E1 22 50 46 50 46 50 46 28 23 30 75 30 75 00 00
2025-11-08T01:08:08.420354,29.943,can0  206  [16]  9B 0C D8 07 9B 0C DA DC E9 07 C7 0C AF 0C 00 00
2025-11-08T01:08:08.421388,29.944,can0  204  [16]  E1 22 50 46 50 46 50 46 28 23 30 75 30 75 00 00
2025-11-08T01:08:08.423068,29.945,can0  204  [16]  E1 22 50 46 50 46 50 46 28 23 30 75 30 75 00 00
2025-11-08T01:08:08.426886,29.949,can0  206  [16]  9F 0C D6 07 A3 0C B1 E0 E5 07 C7 0C AB 0C 00 00
2025-11-08T01:08:08.427955,29.950,can0  204  [16]  E1 22 50 46 50 46 50 46 28 23 30 75 30 75 00 00
2025-11-08T01:08:08.428594,29.951,can0  041  [04]  3F 01 00 00
2025-11-08T01:08:08.429137,29.951,can0  204  [16]  E1 22 50 46 50 46 50 46 28 23 30 75 30 75 00 00
2025-11-08T01:08:08.442633,29.965,can0  204  [16]  E1 22 50 46 50 46 50 46 28 23 30 75 30 75 00 00
2025-11-08T01:08:08.990240,30.512,can0  206  [16]  9F 0C D3 07 A3 0C C5 E1 E9 07 C7 0C A3 0C 00 00
2025-11-08T01:08:08.991265,30.513,can0  204  [16]  E1 22 50 46 50 46 50 46 28 23 30 75 30 75 00 00
2025-11-08T01:08:08.992218,30.514,can0  204  [16]  E1 22 50 46 50 46 50 46 28 23 30 75 30 75 00 00
2025-11-08T01:08:08.992889,30.515,can0  204  [16]  E1 22 50 46 50 46 50 46 28 23 30 75 30 75 00 00
2025-11-08T01:08:08.993870,30.516,can0  041  [04]  02 00 02 00
2025-11-08T01:08:08.995199,30.517,can0  206  [16]  A7 0C CF 07 9F 0C 99 C6 EB 07 BB 0C A7 0C 00 00
2025-11-08T01:08:08.995572,30.518,can0  204  [16]  E1 22 50 46 50 46 50 46 28 23 30 75 30 75 00 00
2025-11-08T01:08:08.996401,30.519,can0  204  [16]  E1 22 50 46 50 46 50 46 28 23 30 75 30 75 00 00
2025-11-08T01:08:08.997525,30.520,can0  204  [16]  E1 22 50 46 50 46 50 46 28 23 30 75 30 75 00 00
2025-11-08T01:08:08.998430,30.521,can0  206  [16]  A7 0C D1 07 9B 0C 99 C6 EB 07 C3 0C A7 0C 00 00
2025-11-08T01:08:08.999316,30.521,can0  204  [16]  E1 22 50 46 50 46 50 46 28 23 30 75 30 75 00 00
2025-11-08T01:08:09.000133,30.522,can0  041  [04]  3F 01 00 00
2025-11-08T01:08:09.007068,30.529,can0  204  [16]  E1 22 50 46 50 46 50 46 28 23 30 75 30 75 00 00
2025-11-08T01:08:09.438225,30.960,can0  204  [16]  E1 22 50 46 50 46 50 46 28 23 30 75 30 75 00 00
2025-11-08T01:08:09.439483,30.962,can0  206  [16]  A3 0C D3 07 9F 0C C5 E1 E7 07 BF 0C AB 0C 00 00
2025-11-08T01:08:09.440414,30.963,can0  204  [16]  E1 22 50 46 50 46 50 46 28 23 30 75 30 75 00 00
2025-11-08T01:08:09.441248,30.963,can0  204  [16]  E1 22 50 46 50 46 50 46 28 23 30 75 30 75 00 00
2025-11-08T01:08:09.442142,30.964,can0  206  [16]  9F 0C CD 07 9B 0C DA DC E9 07 C7 0C AB 0C 00 00
2025-11-08T01:08:09.444101,30.966,can0  204  [16]  E1 22 50 46 50 46 50 46 28 23 30 75 30 75 00 00
2025-11-08T01:08:09.444134,30.966,can0  041  [04]  02 00 00 00
2025-11-08T01:08:09.444153,30.966,can0  204  [16]  E1 22 50 46 50 46 50 46 28 23 30 75 30 75 00 00
2025-11-08T01:08:09.445940,30.968,can0  204  [16]  E1 22 50 46 50 46 50 46 28 23 30 75 30 75 00 00
2025-11-08T01:08:09.445994,30.968,can0  206  [16]  A7 0C CF 07 9B 0C B1 E0 E9 07 C3 0C A7 0C 00 00
2025-11-08T01:08:09.446789,30.969,can0  204  [16]  E1 22 50 46 50 46 50 46 28 23 30 75 30 75 00 00
2025-11-08T01:08:09.452112,30.974,can0  204  [16]  E1 22 50 46 50 46 50 46 28 23 30 75 30 75 00 00
2025-11-08T01:08:09.927244,31.449,can0  204  [16]  E1 22 50 46 50 46 50 46 28 23 30 75 30 75 00 00
2025-11-08T01:08:09.927789,31.450,can0  041  [04]  3F 01 00 00
2025-11-08T01:08:09.928453,31.451,can0  206  [16]  A3 0C D1 07 7B 0C DA DC EB 07 E3 0C AB 0C 00 00
2025-11-08T01:08:09.929032,31.451,can0  204  [16]  E1 22 50 46 50 46 50 46 28 23 30 75 30 75 00 00
2025-11-08T01:08:09.929553,31.452,can0  204  [16]  E1 22 50 46 50 46 50 46 28 23 30 75 30 75 00 00
2025-11-08T01:08:09.930056,31.452,can0  204  [16]  E1 22 50 46 50 46 50 46 28 23 30 75 30 75 00 00
2025-11-08T01:08:09.930583,31.453,can0  206  [16]  9B 0C CD 07 A3 0C 99 C6 E9 07 C3 0C AF 0C 00 00
2025-11-08T01:08:09.931087,31.453,can0  204  [16]  E1 22 50 46 50 46 50 46 28 23 30 75 30 75 00 00
2025-11-08T01:08:09.931557,31.454,can0  041  [04]  3F 01 00 00
2025-11-08T01:08:09.933610,31.456,can0  204  [16]  E1 22 50 46 50 46 50 46 28 23 30 75 30 75 00 00
2025-11-08T01:08:09.933929,31.456,can0  204  [16]  E1 22 50 46 50 46 50 46 28 23 30 75 30 75 00 00
2025-11-08T01:08:09.935267,31.457,can0  206  [16]  9F 0C D3 07 A3 0C 99 C6 E9 07 BB 0C AB 0C 00 00
2025-11-08T01:08:09.935319,31.457,can0  204  [16]  E1 22 50 46 50 46 50 46 28 23 30 75 30 75 00 00
2025-11-08T01:08:09.936048,31.458,can0  204  [16]  E1 22 50 46 50 46 50 46 28 23 30 75 30 75 00 00
2025-11-08T01:08:10.422358,31.945,can0  206  [16]  C7 0C CF 07 7F 0C 3A DF E9 07 BF 0C A7 0C 00 00
2025-11-08T01:08:10.423088,31.945,can0  204  [16]  E1 22 50 46 50 46 50 46 28 23 30 75 30 75 00 00
2025-11-08T01:08:10.423581,31.946,can0  041  [04]  3F 01 00 00
2025-11-08T01:08:10.424046,31.946,can0  204  [16]  E1 22 50 46 50 46 50 46 28 23 30 75 30 75 00 00
2025-11-08T01:08:10.424493,31.947,can0  204  [16]  E1 22 50 46 50 46 50 46 28 23 30 75 30 75 00 00
2025-11-08T01:08:10.424995,31.947,can0  206  [16]  A3 0C CD 07 A3 0C 99 C6 E5 07 BF 0C A7 0C 00 00
2025-11-08T01:08:10.425560,31.948,can0  204  [16]  E1 22 50 46 50 46 50 46 28 23 30 75 30 75 00 00
2025-11-08T01:08:10.426131,31.948,can0  204  [16]  E1 22 50 46 50 46 50 46 28 23 30 75 30 75 00 00
2025-11-08T01:08:10.426550,31.949,can0  041  [04]  3F 01 00 00
2025-11-08T01:08:10.427097,31.949,can0  204  [16]  E1 22 50 46 50 46 50 46 28 23 30 75 30 75 00 00
2025-11-08T01:08:10.427696,31.950,can0  206  [16]  A3 0C D1 07 9F 0C 99 C6 E5 07 D3 0C A7 0C 00 00
2025-11-08T01:08:10.428186,31.950,can0  204  [16]  E1 22 50 46 50 46 50 46 28 23 30 75 30 75 00 00
2025-11-08T01:08:10.428752,31.951,can0  204  [16]  E1 22 50 46 50 46 50 46 28 23 30 75 30 75 00 00
2025-11-08T01:08:10.429323,31.951,can0  204  [16]  E1 22 50 46 50 46 50 46 28 23 30 75 30 75 00 00
2025-11-08T01:08:10.850636,32.373,can0  206  [16]  AB 0C D3 07 9B 0C DA DC E9 07 C3 0C A3 0C 00 00
2025-11-08T01:08:10.851454,32.374,can0  204  [16]  E1 22 50 46 50 46 50 46 28 23 30 75 30 75 00 00
2025-11-08T01:08:10.852031,32.374,can0  041  [04]  3F 01 00 00
2025-11-08T01:08:10.852621,32.375,can0  204  [16]  E1 22 50 46 50 46 50 46 28 23 30 75 30 75 00 00
2025-11-08T01:08:10.853138,32.375,can0  204  [16]  E1 22 50 46 50 46 50 46 28 23 30 75 30 75 00 00
2025-11-08T01:08:10.853696,32.376,can0  206  [16]  9F 0C CB 07 9F 0C DA DC E7 07 C7 0C AB 0C 00 00
2025-11-08T01:08:10.854237,32.376,can0  204  [16]  E1 22 50 46 50 46 50 46 28 23 30 75 30 75 00 00
2025-11-08T01:08:10.854808,32.377,can0  204  [16]  E1 22 50 46 50 46 50 46 28 23 30 75 30 75 00 00
2025-11-08T01:08:10.856049,32.378,can0  041  [04]  3F 01 00 00
2025-11-08T01:08:10.856094,32.378,can0  204  [16]  E1 22 50 46 50 46 50 46 28 23 30 75 30 75 00 00
2025-11-08T01:08:10.857332,32.379,can0  206  [16]  A7 0C CF 07 9B 0C DA DC E5 07 C7 0C AB 0C 00 00
2025-11-08T01:08:10.857380,32.380,can0  204  [16]  E1 22 50 46 50 46 50 46 28 23 30 75 30 75 00 00
2025-11-08T01:08:11.311603,32.834,can0  204  [16]  E1 22 50 46 50 46 50 46 28 23 30 75 30 75 00 00
2025-11-08T01:08:11.312584,32.835,can0  204  [16]  E1 22 50 46 50 46 50 46 28 23 30 75 30 75 00 00
2025-11-08T01:08:11.314187,32.836,can0  206  [16]  A7 0C CF 07 9F 0C 3A DF E9 07 BF 0C A3 0C 00 00
2025-11-08T01:08:11.314231,32.836,can0  204  [16]  E1 22 50 46 50 46 50 46 28 23 30 75 30 75 00 00
2025-11-08T01:08:11.314903,32.837,can0  041  [04]  02 00 00 00
2025-11-08T01:08:11.315659,32.838,can0  204  [16]  E1 22 50 46 50 46 50 46 28 23 30 75 30 75 00 00
2025-11-08T01:08:11.317749,32.840,can0  204  [16]  E1 22 50 46 50 46 50 46 28 23 30 75 30 75 00 00
2025-11-08T01:08:11.318414,32.841,can0  206  [16]  9F 0C CF 07 9F 0C 99 C6 E9 07 BF 0C AB 0C 00 00
2025-11-08T01:08:11.318986,32.841,can0  204  [16]  E1 22 50 46 50 46 50 46 28 23 30 75 30 75 00 00
2025-11-08T01:08:11.319620,32.842,can0  204  [16]  E1 22 50 46 50 46 50 46 28 23 30 75 30 75 00 00
2025-11-08T01:08:11.828684,33.351,can0  041  [04]  3F 01 00 00
2025-11-08T01:08:11.829430,33.352,can0  204  [16]  E1 22 50 46 50 46 50 46 28 23 30 75 30 75 00 00
2025-11-08T01:08:11.830039,33.352,can0  206  [16]  9F 0C D1 07 A7 0C 99 C6 E9 07 C3 0C A7 0C 00 00
2025-11-08T01:08:11.830528,33.353,can0  204  [16]  E1 22 50 46 50 46 50 46 28 23 30 75 30 75 00 00
2025-11-08T01:08:11.831018,33.353,can0  204  [16]  E1 22 50 46 50 46 50 46 28 23 30 75 30 75 00 00
2025-11-08T01:08:11.831521,33.354,can0  204  [16]  E1 22 50 46 50 46 50 46 28 23 30 75 30 75 00 00
2025-11-08T01:08:11.832069,33.354,can0  206  [16]  9F 0C D1 07 9B 0C DA DC E9 07 C7 0C A7 0C 00 00
2025-11-08T01:08:11.832584,33.355,can0  204  [16]  E1 22 50 46 50 46 50 46 28 23 30 75 30 75 00 00
2025-11-08T01:08:11.833026,33.355,can0  041  [04]  3F 01 00 00
2025-11-08T01:08:11.833505,33.356,can0  204  [16]  E1 22 50 46 50 46 50 46 28 23 30 75 30 75 00 00
2025-11-08T01:08:11.834214,33.356,can0  204  [16]  E1 22 50 46 50 46 50 46 28 23 30 75 30 75 00 00
2025-11-08T01:08:11.835118,33.357,can0  206  [16]  AF 0C CF 07 9B 0C DA DC EB 07 C7 0C 9F 0C 00 00
2025-11-08T01:08:11.835902,33.358,can0  204  [16]  E1 22 50 46 50 46 50 46 28 23 30 75 30 75 00 00
2025-11-08T01:08:11.837370,33.360,can0  204  [16]  E1 22 50 46 50 46 50 46 28 23 30 75 30 75 00 00
2025-11-08T01:08:11.837430,33.360,can0  206  [16]  A3 0C CD 07 9B 0C 99 C6 E9 07 BF 0C AB 0C 00 00
2025-11-08T01:08:11.838084,33.360,can0  041  [04]  3F 01 00 00
2025-11-08T01:08:11.844514,33.367,can0  204  [16]  E1 22 50 46 50 46 50 46 28 23 30 75 30 75 00 00
2025-11-08T01:08:12.337324,33.859,can0  204  [16]  E1 22 50 46 50 46 50 46 28 23 30 75 30 75 00 00
2025-11-08T01:08:12.338358,33.861,can0  204  [16]  E1 22 50 46 50 46 50 46 28 23 30 75 30 75 00 00
2025-11-08T01:08:12.339126,33.861,can0  206  [16]  9F 0C CF 07 9F 0C 99 C6 E5 07 BF 0C AB 0C 00 00
2025-11-08T01:08:12.339746,33.862,can0  204  [16]  E1 22 50 46 50 46 50 46 28 23 30 75 30 75 00 00
2025-11-08T01:08:12.340253,33.862,can0  204  [16]  E1 22 50 46 50 46 50 46 28 23 30 75 30 75 00 00
2025-11-08T01:08:12.340730,33.863,can0  041  [04]  3F 01 02 00
2025-11-08T01:08:12.342219,33.864,can0  204  [16]  E1 22 50 46 50 46 50 46 28 23 30 75 30 75 00 00
2025-11-08T01:08:12.343143,33.865,can0  206  [16]  A3 0C D1 07 9F 0C 3A DF ED 07 AB 0C AB 0C 00 00
2025-11-08T01:08:12.343786,33.866,can0  204  [16]  E1 22 50 46 50 46 50 46 28 23 30 75 30 75 00 00
2025-11-08T01:08:12.344505,33.867,can0  204  [16]  E1 22 50 46 50 46 50 46 28 23 30 75 30 75 00 00
2025-11-08T01:08:12.351939,33.874,can0  204  [16]  E1 22 50 46 50 46 50 46 28 23 30 75 30 75 00 00
2025-11-08T01:08:12.351995,33.874,can0  206  [16]  A7 0C CB 07 9B 0C 99 C6 E9 07 C7 0C A7 0C 00 00
2025-11-08T01:08:12.932196,34.454,can0  204  [16]  E1 22 50 46 50 46 50 46 28 23 30 75 30 75 00 00
2025-11-08T01:08:12.933079,34.455,can0  041  [04]  02 00 02 00
2025-11-08T01:08:12.933654,34.456,can0  204  [16]  E1 22 50 46 50 46 50 46 28 23 30 75 30 75 00 00
2025-11-08T01:08:12.934215,34.456,can0  204  [16]  E1 22 50 46 50 46 50 46 28 23 30 75 30 75 00 00
2025-11-08T01:08:12.934788,34.457,can0  206  [16]  A7 0C CF 07 9F 0C 3A DF E5 07 BB 0C A3 0C 00 00
2025-11-08T01:08:12.935336,34.458,can0  204  [16]  E1 22 50 46 50 46 50 46 28 23 30 75 30 75 00 00
2025-11-08T01:08:12.935887,34.458,can0  204  [16]  E1 22 50 46 50 46 50 46 28 23 30 75 30 75 00 00
2025-11-08T01:08:12.937197,34.459,can0  041  [04]  3F 01 02 00
2025-11-08T01:08:12.938844,34.461,can0  206  [16]  A3 0C D3 07 9F 0C DA DC E9 07 C3 0C AB 0C 00 00
2025-11-08T01:08:12.940696,34.463,can0  204  [16]  E1 22 50 46 50 46 50 46 28 23 30 75 30 75 00 00
2025-11-08T01:08:12.940751,34.463,can0  204  [16]  E1 22 50 46 50 46 50 46 28 23 30 75 30 75 00 00
2025-11-08T01:08:12.944144,34.466,can0  204  [16]  E1 22 50 46 50 46 50 46 28 23 30 75 30 75 00 00
2025-11-08T01:08:12.944208,34.466,can0  206  [16]  A3 0C D3 07 9F 0C 99 C6 E5 07 B7 0C A7 0C 00 00
2025-11-08T01:08:12.944242,34.466,can0  204  [16]  E1 22 50 46 50 46 50 46 28 23 30 75 30 75 00 00
2025-11-08T01:08:12.944271,34.466,can0  204  [16]  E1 22 50 46 50 46 50 46 28 23 30 75 30 75 00 00
2025-11-08T01:08:12.944458,34.467,can0  041  [04]  02 00 02 00
2025-11-08T01:08:13.434858,34.957,can0  204  [16]  E1 22 50 46 50 46 50 46 28 23 30 75 30 75 00 00
2025-11-08T01:08:13.436043,34.958,can0  206  [16]  87 0C CF 07 9B 0C 3A DF E9 07 C3 0C C7 0C 00 00
2025-11-08T01:08:13.436944,34.959,can0  204  [16]  E1 22 50 46 50 46 50 46 28 23 30 75 30 75 00 00
2025-11-08T01:08:13.438170,34.960,can0  204  [16]  E1 22 50 46 50 46 50 46 28 23 30 75 30 75 00 00
2025-11-08T01:08:13.439072,34.961,can0  204  [16]  E1 22 50 46 50 46 50 46 28 23 30 75 30 75 00 00
2025-11-08T01:08:13.440364,34.963,can0  206  [16]  9F 0C D1 07 A3 0C 99 C6 E7 07 C3 0C AB 0C 00 00
2025-11-08T01:08:13.441483,34.964,can0  041  [04]  3F 01 00 00
2025-11-08T01:08:13.441529,34.964,can0  204  [16]  E1 22 50 46 50 46 50 46 28 23 30 75 30 75 00 00
2025-11-08T01:08:13.443072,34.965,can0  204  [16]  E1 22 50 46 50 46 50 46 28 23 30 75 30 75 00 00
2025-11-08T01:08:13.443408,34.966,can0  204  [16]  E1 22 50 46 50 46 50 46 28 23 30 75 30 75 00 00
2025-11-08T01:08:13.444606,34.967,can0  206  [16]  A7 0C D1 07 A7 0C DA DC EB 07 B7 0C A3 0C 00 00
2025-11-08T01:08:13.445977,34.968,can0  204  [16]  E1 22 50 46 50 46 50 46 28 23 30 75 30 75 00 00
2025-11-08T01:08:13.446494,34.969,can0  204  [16]  E1 22 50 46 50 46 50 46 28 23 30 75 30 75 00 00
2025-11-08T01:08:13.465776,34.988,can0  041  [04]  02 00 00 00
2025-11-08T01:08:13.880102,35.402,can0  204  [16]  E1 22 50 46 50 46 50 46 28 23 30 75 30 75 00 00
2025-11-08T01:08:13.880952,35.403,can0  206  [16]  AB 0C CF 07 9F 0C 3A DF E9 07 B7 0C A3 0C 00 00
2025-11-08T01:08:13.881673,35.404,can0  204  [16]  E1 22 50 46 50 46 50 46 28 23 30 75 30 75 00 00
2025-11-08T01:08:13.882322,35.404,can0  204  [16]  E1 22 50 46 50 46 50 46 28 23 30 75 30 75 00 00
2025-11-08T01:08:13.883078,35.405,can0  206  [16]  9F 0C D1 07 9F 0C 99 C6 EB 07 BF 0C AB 0C 00 00
2025-11-08T01:08:13.884242,35.406,can0  204  [16]  E1 22 50 46 50 46 50 46 28 23 30 75 30 75 00 00
2025-11-08T01:08:13.885078,35.407,can0  041  [04]  3F 01 02 00
2025-11-08T01:08:13.886138,35.408,can0  204  [16]  E1 22 50 46 50 46 50 46 28 23 30 75 30 75 00 00
2025-11-08T01:08:13.886958,35.409,can0  204  [16]  E1 22 50 46 50 46 50 46 28 23 30 75 30 75 00 00
2025-11-08T01:08:13.888330,35.410,can0  206  [16]  A7 0C ED 07 9F 0C A0 E2 E9 07 BF 0C A7 0C 00 00
2025-11-08T01:08:13.889418,35.412,can0  204  [16]  E1 22 50 46 50 46 50 46 28 23 30 75 30 75 00 00
2025-11-08T01:08:14.335138,35.857,can0  204  [16]  E1 22 50 46 50 46 50 46 28 23 30 75 30 75 00 00
2025-11-08T01:08:14.335751,35.858,can0  204  [16]  E1 22 50 46 50 46 50 46 28 23 30 75 30 75 00 00
2025-11-08T01:08:14.336264,35.858,can0  041  [04]  2F 00 02 00
2025-11-08T01:08:14.336906,35.859,can0  206  [16]  9F 0C CF 07 A7 0C DA DC E9 07 BF 0C AB 0C 00 00
2025-11-08T01:08:14.337502,35.860,can0  204  [16]  E1 22 50 46 50 46 50 46 28 23 30 75 30 75 00 00
2025-11-08T01:08:14.338067,35.860,can0  204  [16]  E1 22 50 46 50 46 50 46 28 23 30 75 30 75 00 00
2025-11-08T01:08:14.338614,35.861,can0  204  [16]  E1 22 50 46 50 46 50 46 28 23 30 75 30 75 00 00
2025-11-08T01:08:14.339170,35.861,can0  206  [16]  9B 0C D6 07 A3 0C DA DC EB 07 BB 0C AF 0C 00 00
2025-11-08T01:08:14.340372,35.863,can0  204  [16]  E1 22 50 46 50 46 50 46 28 23 30 75 30 75 00 00
2025-11-08T01:08:14.340428,35.863,can0  041  [04]  2F 00 02 00
2025-11-08T01:08:14.341032,35.863,can0  204  [16]  E1 22 50 46 50 46 50 46 28 23 30 75 30 75 00 00
2025-11-08T01:08:14.351840,35.874,can0  204  [16]  E1 22 50 46 50 46 50 46 28 23 30 75 30 75 00 00
2025-11-08T01:08:14.351900,35.874,can0  206  [16]  A3 0C D1 07 9F 0C 99 C6 E9 07 BB 0C AB 0C 00 00
2025-11-08T01:08:14.817163,36.339,can0  204  [16]  E1 22 50 46 50 46 50 46 28 23 30 75 30 75 00 00
2025-11-08T01:08:14.818151,36.340,can0  204  [16]  E1 22 50 46 50 46 50 46 28 23 30 75 30 75 00 00
2025-11-08T01:08:14.818726,36.341,can0  204  [16]  E1 22 50 46 50 46 50 46 28 23 30 75 30 75 00 00
2025-11-08T01:08:14.819288,36.341,can0  206  [16]  A3 0C CF 07 A3 0C 99 C6 EB 07 BF 0C A7 0C 00 00
2025-11-08T01:08:14.819777,36.342,can0  041  [04]  2F 00 02 00
2025-11-08T01:08:14.820341,36.343,can0  204  [16]  E1 22 50 46 50 46 50 46 28 23 30 75 30 75 00 00
2025-11-08T01:08:14.820903,36.343,can0  204  [16]  E1 22 50 46 50 46 50 46 28 23 30 75 30 75 00 00
2025-11-08T01:08:14.821477,36.344,can0  206  [16]  9F 0C CD 07 9F 0C B1 E0 EB 07 AF 0C AB 0C 00 00
2025-11-08T01:08:14.822006,36.344,can0  204  [16]  E1 22 50 46 50 46 50 46 28 23 30 75 30 75 00 00
2025-11-08T01:08:14.822600,36.345,can0  204  [16]  E1 22 50 46 50 46 50 46 28 23 30 75 30 75 00 00
2025-11-08T01:08:15.345401,36.868,can0  204  [16]  E1 22 50 46 50 46 50 46 28 23 30 75 30 75 00 00
2025-11-08T01:08:15.346093,36.868,can0  041  [04]  5D 00 02 00
2025-11-08T01:08:15.346708,36.869,can0  206  [16]  A7 0C D6 07 8B 0C DA DC E9 07 CB 0C B3 0C 00 00
2025-11-08T01:08:15.347359,36.870,can0  204  [16]  E1 22 50 46 50 46 50 46 28 23 30 75 30 75 00 00
2025-11-08T01:08:15.347995,36.870,can0  204  [16]  E1 22 50 46 50 46 50 46 28 23 30 75 30 75 00 00
2025-11-08T01:08:15.348521,36.871,can0  204  [16]  E1 22 50 46 50 46 50 46 28 23 30 75 30 75 00 00
2025-11-08T01:08:15.349095,36.871,can0  206  [16]  9F 0C D6 07 9B 0C 99 C6 E9 07 C7 0C AB 0C 00 00
2025-11-08T01:08:15.349659,36.872,can0  204  [16]  E1 22 50 46 50 46 50 46 28 23 30 75 30 75 00 00
2025-11-08T01:08:15.351332,36.874,can0  041  [04]  2F 00 02 00
2025-11-08T01:08:15.352189,36.874,can0  204  [16]  E1 22 50 46 50 46 50 46 28 23 30 75 30 75 00 00
2025-11-08T01:08:15.353090,36.875,can0  204  [16]  E1 22 50 46 50 46 50 46 28 23 30 75 30 75 00 00
2025-11-08T01:08:15.354098,36.876,can0  206  [16]  93 0C CF 07 A7 0C DA DC DC 07 C7 0C AF 0C 00 00
2025-11-08T01:08:15.355456,36.878,can0  204  [16]  E1 22 50 46 50 46 50 46 28 23 30 75 30 75 00 00
2025-11-08T01:08:15.355501,36.878,can0  204  [16]  E1 22 50 46 50 46 50 46 28 23 30 75 30 75 00 00
2025-11-08T01:08:15.358952,36.881,can0  204  [16]  E1 22 50 46 50 46 50 46 28 23 30 75 30 75 00 00
2025-11-08T01:08:15.359844,36.882,can0  206  [16]  A7 0C D1 07 9B 0C 3A DF E9 07 BF 0C A7 0C 00 00
2025-11-08T01:08:15.360636,36.883,can0  041  [04]  5D 00 02 00
2025-11-08T01:08:15.361393,36.884,can0  204  [16]  E1 22 50 46 50 46 50 46 28 23 30 75 30 75 00 00
2025-11-08T01:08:15.805792,37.328,can0  204  [16]  E1 22 50 46 50 46 50 46 28 23 30 75 30 75 00 00
2025-11-08T01:08:15.806679,37.329,can0  206  [16]  97 0C C9 07 9F 0C 99 C6 EB 07 BB 0C B3 0C 00 00
2025-11-08T01:08:15.807393,37.330,can0  204  [16]  E1 22 50 46 50 46 50 46 28 23 30 75 30 75 00 00
2025-11-08T01:08:15.808061,37.330,can0  204  [16]  E1 22 50 46 50 46 50 46 28 23 30 75 30 75 00 00
2025-11-08T01:08:15.808708,37.331,can0  041  [04]  7A 00 02 00
2025-11-08T01:08:15.809320,37.331,can0  204  [16]  E1 22 50 46 50 46 50 46 28 23 30 75 30 75 00 00
2025-11-08T01:08:15.810002,37.332,can0  206  [16]  A3 0C C9 07 9F 0C 99 C6 E7 07 CB 0C A7 0C 00 00
2025-11-08T01:08:15.811139,37.333,can0  204  [16]  E1 22 50 46 50 46 50 46 28 23 30 75 30 75 00 00
2025-11-08T01:08:15.812754,37.335,can0  204  [16]  E1 22 50 46 50 46 50 46 28 23 30 75 30 75 00 00
2025-11-08T01:08:15.812850,37.335,can0  204  [16]  E1 22 50 46 50 46 50 46 28 23 30 75 30 75 00 00
2025-11-08T01:08:16.254478,37.777,can0  206  [16]  AB 0C CD 07 9B 0C DA DC E9 07 C3 0C A3 0C 00 00
2025-11-08T01:08:16.255182,37.777,can0  204  [16]  E1 22 50 46 50 46 50 46 28 23 30 75 30 75 00 00
2025-11-08T01:08:16.255749,37.778,can0  041  [04]  8B 00 02 00
2025-11-08T01:08:16.256366,37.779,can0  204  [16]  E1 22 50 46 50 46 50 46 28 23 30 75 30 75 00 00
2025-11-08T01:08:16.256975,37.779,can0  204  [16]  E1 22 50 46 50 46 50 46 28 23 30 75 30 75 00 00
2025-11-08T01:08:16.257628,37.780,can0  206  [16]  A7 0C CF 07 A3 0C DA DC E7 07 BB 0C A7 0C 00 00
2025-11-08T01:08:16.258214,37.780,can0  204  [16]  E1 22 50 46 50 46 50 46 28 23 30 75 30 75 00 00
2025-11-08T01:08:16.258829,37.781,can0  204  [16]  E1 22 50 46 50 46 50 46 28 23 30 75 30 75 00 00
2025-11-08T01:08:16.259637,37.782,can0  041  [04]  B5 00 00 00
2025-11-08T01:08:16.260639,37.783,can0  204  [16]  E1 22 50 46 50 46 50 46 28 23 30 75 30 75 00 00
2025-11-08T01:08:16.261604,37.784,can0  206  [16]  A7 0C C7 07 9F 0C 3A DF E9 07 C7 0C A7 0C 00 00
2025-11-08T01:08:16.263111,37.785,can0  204  [16]  E1 22 50 46 50 46 50 46 28 23 30 75 30 75 00 00
2025-11-08T01:08:16.263162,37.785,can0  204  [16]  E1 22 50 46 50 46 50 46 28 23 30 75 30 75 00 00
2025-11-08T01:08:16.718968,38.241,can0  204  [16]  E1 22 50 46 50 46 50 46 28 23 30 75 30 75 00 00
2025-11-08T01:08:16.719033,38.241,can0  206  [16]  A7 0C CF 07 9B 0C DA DC E9 07 C3 0C A7 0C 00 00
2025-11-08T01:08:16.719970,38.242,can0  204  [16]  E1 22 50 46 50 46 50 46 28 23 30 75 30 75 00 00
2025-11-08T01:08:16.720859,38.243,can0  041  [04]  3F 01 00 00
2025-11-08T01:08:16.721918,38.244,can0  204  [16]  E1 22 50 46 50 46 50 46 28 23 30 75 30 75 00 00
2025-11-08T01:08:16.722783,38.245,can0  204  [16]  E1 22 50 46 50 46 50 46 28 23 30 75 30 75 00 00
2025-11-08T01:08:16.724141,38.246,can0  206  [16]  9B 0C D1 07 9F 0C DA DC E9 07 BF 0C AF 0C 00 00
2025-11-08T01:08:16.725829,38.248,can0  204  [16]  E1 22 50 46 50 46 50 46 28 23 30 75 30 75 00 00
2025-11-08T01:08:16.726098,38.248,can0  204  [16]  E1 22 50 46 50 46 50 46 28 23 30 75 30 75 00 00
2025-11-08T01:08:16.727760,38.250,can0  206  [16]  A7 0C CD 07 A3 0C 3A DF E5 07 B3 0C A7 0C 00 00
2025-11-08T01:08:16.727821,38.250,can0  041  [04]  3F 01 00 00
2025-11-08T01:08:16.729818,38.252,can0  204  [16]  E1 22 50 46 50 46 50 46 28 23 30 75 30 75 00 00
2025-11-08T01:08:17.175876,38.698,can0  204  [16]  E1 22 50 46 50 46 50 46 28 23 30 75 30 75 00 00
2025-11-08T01:08:17.176673,38.699,can0  204  [16]  E1 22 50 46 50 46 50 46 28 23 30 75 30 75 00 00
2025-11-08T01:08:17.177370,38.700,can0  206  [16]  A7 0C CF 07 A3 0C B1 E0 EB 07 AF 0C A3 0C 00 00
2025-11-08T01:08:17.177937,38.700,can0  204  [16]  E1 22 50 46 50 46 50 46 28 23 30 75 30 75 00 00
2025-11-08T01:08:17.178529,38.701,can0  204  [16]  E1 22 50 46 50 46 50 46 28 23 30 75 30 75 00 00
2025-11-08T01:08:17.179060,38.701,can0  041  [04]  10 01 00 00
2025-11-08T01:08:17.179642,38.702,can0  204  [16]  E1 22 50 46 50 46 50 46 28 23 30 75 30 75 00 00
2025-11-08T01:08:17.180259,38.702,can0  206  [16]  9B 0C CF 07 A3 0C DA DC E7 07 BF 0C AF 0C 00 00
2025-11-08T01:08:17.180861,38.703,can0  204  [16]  E1 22 50 46 50 46 50 46 28 23 30 75 30 75 00 00
2025-11-08T01:08:17.181719,38.704,can0  204  [16]  E1 22 50 46 50 46 50 46 28 23 30 75 30 75 00 00
2025-11-08T01:08:17.182619,38.705,can0  204  [16]  E1 22 50 46 50 46 50 46 28 23 30 75 30 75 00 00
2025-11-08T01:08:17.183634,38.706,can0  206  [16]  9B 0C CF 07 9F 0C C5 E1 E7 07 C3 0C AF 0C 00 00
2025-11-08T01:08:17.705502,39.228,can0  041  [04]  02 00 00 00
2025-11-08T01:08:17.706618,39.229,can0  204  [16]  E1 22 50 46 50 46 50 46 28 23 30 75 30 75 00 00
2025-11-08T01:08:17.707402,39.230,can0  204  [16]  E1 22 50 46 50 46 50 46 28 23 30 75 30 75 00 00
2025-11-08T01:08:17.708075,39.230,can0  204  [16]  E1 22 50 46 50 46 50 46 28 23 30 75 30 75 00 00
2025-11-08T01:08:17.708722,39.231,can0  206  [16]  9B 0C D3 07 A3 0C DA DC E9 07 BF 0C AF 0C 00 00
2025-11-08T01:08:17.709313,39.231,can0  204  [16]  E1 22 50 46 50 46 50 46 28 23 30 75 30 75 00 00
2025-11-08T01:08:17.709903,39.232,can0  204  [16]  E1 22 50 46 50 46 50 46 28 23 30 75 30 75 00 00
2025-11-08T01:08:17.710442,39.233,can0  041  [04]  02 00 00 00
2025-11-08T01:08:17.711113,39.233,can0  204  [16]  E1 22 50 46 50 46 50 46 28 23 30 75 30 75 00 00
2025-11-08T01:08:17.712056,39.234,can0  206  [16]  A7 0C D6 07 AB 0C DA DC EB 07 B7 0C A7 0C 00 00
2025-11-08T01:08:17.713038,39.235,can0  204  [16]  E1 22 50 46 50 46 50 46 28 23 30 75 30 75 00 00
2025-11-08T01:08:17.713948,39.236,can0  204  [16]  E1 22 50 46 50 46 50 46 28 23 30 75 30 75 00 00
2025-11-08T01:08:17.715537,39.238,can0  204  [16]  E1 22 50 46 50 46 50 46 28 23 30 75 30 75 00 00
2025-11-08T01:08:17.715588,39.238,can0  206  [16]  A7 0C CF 07 A3 0C 99 C6 F6 07 BF 0C A3 0C 00 00
2025-11-08T01:08:18.173895,39.696,can0  204  [16]  E1 22 50 46 50 46 50 46 28 23 30 75 30 75 00 00
2025-11-08T01:08:18.174075,39.696,can0  041  [04]  02 00 02 00
2025-11-08T01:08:18.174808,39.697,can0  204  [16]  E1 22 50 46 50 46 50 46 28 23 30 75 30 75 00 00
2025-11-08T01:08:18.175440,39.698,can0  206  [16]  AB 0C CF 07 9F 0C DA DC EB 07 C3 0C A3 0C 00 00
2025-11-08T01:08:18.176042,39.698,can0  204  [16]  E1 22 50 46 50 46 50 46 28 23 30 75 30 75 00 00
2025-11-08T01:08:18.176707,39.699,can0  204  [16]  E1 22 50 46 50 46 50 46 28 23 30 75 30 75 00 00
2025-11-08T01:08:18.177310,39.699,can0  204  [16]  E1 22 50 46 50 46 50 46 28 23 30 75 30 75 00 00
2025-11-08T01:08:18.177841,39.700,can0  041  [04]  02 00 02 00
2025-11-08T01:08:18.178438,39.701,can0  206  [16]  A3 0C D1 07 9F 0C DA DC E5 07 C7 0C A7 0C 00 00
2025-11-08T01:08:18.179054,39.701,can0  204  [16]  E1 22 50 46 50 46 50 46 28 23 30 75 30 75 00 00
2025-11-08T01:08:18.180009,39.702,can0  204  [16]  E1 22 50 46 50 46 50 46 28 23 30 75 30 75 00 00
2025-11-08T01:08:18.181978,39.704,can0  204  [16]  E1 22 50 46 50 46 50 46 28 23 30 75 30 75 00 00
2025-11-08T01:08:18.182128,39.704,can0  206  [16]  9F 0C CD 07 A3 0C DA DC E5 07 C3 0C AB 0C 00 00
2025-11-08T01:08:18.182875,39.705,can0  204  [16]  E1 22 50 46 50 46 50 46 28 23 30 75 30 75 00 00
2025-11-08T01:08:18.686244,40.208,can0  204  [16]  E1 22 50 46 50 46 50 46 28 23 30 75 30 75 00 00
2025-11-08T01:08:18.686934,40.209,can0  041  [04]  02 00 02 00
2025-11-08T01:08:18.687579,40.210,can0  204  [16]  E1 22 50 46 50 46 50 46 28 23 30 75 30 75 00 00
2025-11-08T01:08:18.688443,40.211,can0  206  [16]  A3 0C CF 07 9F 0C 3A DF E5 07 BB 0C AB 0C 00 00
2025-11-08T01:08:18.689259,40.211,can0  204  [16]  E1 22 50 46 50 46 50 46 28 23 30 75 30 75 00 00
2025-11-08T01:08:18.690065,40.212,can0  204  [16]  E1 22 50 46 50 46 50 46 28 23 30 75 30 75 00 00
2025-11-08T01:08:18.691604,40.214,can0  204  [16]  E1 22 50 46 50 46 50 46 28 23 30 75 30 75 00 00
2025-11-08T01:08:18.691648,40.214,can0  206  [16]  9F 0C D3 07 9F 0C 3A DF E7 07 CB 0C AB 0C 00 00
2025-11-08T01:08:18.692542,40.215,can0  041  [04]  3F 01 02 00
2025-11-08T01:08:18.693694,40.216,can0  204  [16]  E1 22 50 46 50 46 50 46 28 23 30 75 30 75 00 00
2025-11-08T01:08:18.695400,40.218,can0  204  [16]  E1 22 50 46 50 46 50 46 28 23 30 75 30 75 00 00
2025-11-08T01:08:18.711846,40.234,can0  204  [16]  E1 22 50 46 50 46 50 46 28 23 30 75 30 75 00 00
2025-11-08T01:08:18.711925,40.234,can0  206  [16]  9F 0C D1 07 9F 0C DA DC E5 07 C3 0C AF 0C 00 00
2025-11-08T01:08:19.160546,40.683,can0  204  [16]  E1 22 50 46 50 46 50 46 28 23 30 75 30 75 00 00
2025-11-08T01:08:19.161310,40.683,can0  204  [16]  E1 22 50 46 50 46 50 46 28 23 30 75 30 75 00 00
2025-11-08T01:08:19.161871,40.684,can0  041  [04]  3F 01 02 00
2025-11-08T01:08:19.162509,40.685,can0  206  [16]  9F 0C D1 07 9F 0C 99 C6 EB 07 C7 0C AB 0C 00 00
2025-11-08T01:08:19.163089,40.685,can0  204  [16]  E1 22 50 46 50 46 50 46 28 23 30 75 30 75 00 00
2025-11-08T01:08:19.163674,40.686,can0  204  [16]  E1 22 50 46 50 46 50 46 28 23 30 75 30 75 00 00
2025-11-08T01:08:19.164224,40.686,can0  204  [16]  E1 22 50 46 50 46 50 46 28 23 30 75 30 75 00 00
2025-11-08T01:08:19.166051,40.688,can0  206  [16]  9F 0C CB 07 A7 0C DA DC E7 07 BB 0C A7 0C 00 00
2025-11-08T01:08:19.166135,40.688,can0  204  [16]  E1 22 50 46 50 46 50 46 28 23 30 75 30 75 00 00
2025-11-08T01:08:19.167541,40.690,can0  041  [04]  3F 01 02 00
2025-11-08T01:08:19.167584,40.690,can0  204  [16]  E1 22 50 46 50 46 50 46 28 23 30 75 30 75 00 00
2025-11-08T01:08:19.167614,40.690,can0  204  [16]  E1 22 50 46 50 46 50 46 28 23 30 75 30 75 00 00
2025-11-08T01:08:19.168627,40.691,can0  206  [16]  AB 0C D1 07 9B 0C 3A DF E9 07 C7 0C 9F 0C 00 00
2025-11-08T01:08:19.179675,40.702,can0  204  [16]  E1 22 50 46 50 46 50 46 28 23 30 75 30 75 00 00
2025-11-08T01:08:19.626685,41.149,can0  204  [16]  E1 22 50 46 50 46 50 46 28 23 30 75 30 75 00 00
2025-11-08T01:08:19.627445,41.150,can0  204  [16]  E1 22 50 46 50 46 50 46 28 23 30 75 30 75 00 00
2025-11-08T01:08:19.627977,41.150,can0  041  [04]  3F 01 02 00
2025-11-08T01:08:19.628584,41.151,can0  206  [16]  9B 0C D1 07 A3 0C 3A DF EF 07 BF 0C AF 0C 00 00
2025-11-08T01:08:19.629200,41.151,can0  204  [16]  E1 22 50 46 50 46 50 46 28 23 30 75 30 75 00 00
2025-11-08T01:08:19.629863,41.152,can0  204  [16]  E1 22 50 46 50 46 50 46 28 23 30 75 30 75 00 00
2025-11-08T01:08:19.630870,41.153,can0  204  [16]  E1 22 50 46 50 46 50 46 28 23 30 75 30 75 00 00
2025-11-08T01:08:19.631099,41.153,can0  206  [16]  9F 0C D1 07 9F 0C 3A DF E9 07 CF 0C AB 0C 00 00
2025-11-08T01:08:19.651682,41.174,can0  204  [16]  E1 22 50 46 50 46 50 46 28 23 30 75 30 75 00 00
2025-11-08T01:08:20.085961,41.608,can0  041  [04]  E4 00 02 00
2025-11-08T01:08:20.093411,41.616,can0  204  [16]  E1 22 50 46 50 46 50 46 28 23 30 75 30 75 00 00
2025-11-08T01:08:20.094481,41.617,can0  204  [16]  E1 22 50 46 50 46 50 46 28 23 30 75 30 75 00 00
2025-11-08T01:08:20.095681,41.618,can0  206  [16]  AB 0C D3 07 97 0C 3A DF E7 07 C3 0C A7 0C 00 00
2025-11-08T01:08:20.096548,41.619,can0  204  [16]  E1 22 50 46 50 46 50 46 28 23 30 75 30 75 00 00
2025-11-08T01:08:20.097173,41.619,can0  204  [16]  E1 22 50 46 50 46 50 46 28 23 30 75 30 75 00 00
2025-11-08T01:08:20.098295,41.620,can0  206  [16]  A7 0C D1 07 A7 0C DA DC E9 07 BF 0C A3 0C 00 00
2025-11-08T01:08:20.100791,41.623,can0  204  [16]  E1 22 50 46 50 46 50 46 28 23 30 75 30 75 00 00
2025-11-08T01:08:20.100846,41.623,can0  041  [04]  3F 01 02 00
2025-11-08T01:08:20.100875,41.623,can0  204  [16]  E1 22 50 46 50 46 50 46 28 23 30 75 30 75 00 00
2025-11-08T01:08:20.101153,41.623,can0  204  [16]  E1 22 50 46 50 46 50 46 28 23 30 75 30 75 00 00
2025-11-08T01:08:20.101835,41.624,can0  206  [16]  A7 0C D1 07 9F 0C DA DC E7 07 BF 0C A7 0C 00 00
2025-11-08T01:08:20.102418,41.625,can0  204  [16]  E1 22 50 46 50 46 50 46 28 23 30 75 30 75 00 00
2025-11-08T01:08:20.103142,41.625,can0  204  [16]  E1 22 50 46 50 46 50 46 28 23 30 75 30 75 00 00
2025-11-08T01:08:20.550178,42.072,can0  041  [04]  3F 01 02 00
2025-11-08T01:08:20.551016,42.073,can0  204  [16]  E1 22 50 46 50 46 50 46 28 23 30 75 30 75 00 00
2025-11-08T01:08:20.551740,42.074,can0  206  [16]  9B 0C D6 07 9F 0C C5 E1 E7 07 C7 0C AF 0C 00 00
2025-11-08T01:08:20.552919,42.075,can0  204  [16]  E1 22 50 46 50 46 50 46 28 23 30 75 30 75 00 00
2025-11-08T01:08:20.552962,42.075,can0  204  [16]  E1 22 50 46 50 46 50 46 28 23 30 75 30 75 00 00
2025-11-08T01:08:20.553766,42.076,can0  204  [16]  E1 22 50 46 50 46 50 46 28 23 30 75 30 75 00 00
2025-11-08T01:08:20.554104,42.076,can0  206  [16]  AF 0C D1 07 93 0C 99 C6 EB 07 C3 0C AB 0C 00 00
2025-11-08T01:08:20.554668,42.077,can0  204  [16]  E1 22 50 46 50 46 50 46 28 23 30 75 30 75 00 00
2025-11-08T01:08:20.556069,42.078,can0  041  [04]  3F 01 02 00
2025-11-08T01:08:20.556117,42.078,can0  204  [16]  E1 22 50 46 50 46 50 46 28 23 30 75 30 75 00 00
2025-11-08T01:08:20.556741,42.079,can0  204  [16]  E1 22 50 46 50 46 50 46 28 23 30 75 30 75 00 00
2025-11-08T01:08:20.558525,42.081,can0  206  [16]  A3 0C CF 07 A3 0C DA DC E5 07 C3 0C A7 0C 00 00
2025-11-08T01:08:20.558581,42.081,can0  204  [16]  E1 22 50 46 50 46 50 46 28 23 30 75 30 75 00 00
2025-11-08T01:08:20.570179,42.092,can0  204  [16]  E1 22 50 46 50 46 50 46 28 23 30 75 30 75 00 00
2025-11-08T01:08:21.010450,42.533,can0  204  [16]  E1 22 50 46 50 46 50 46 28 23 30 75 30 75 00 00
2025-11-08T01:08:21.011172,42.533,can0  041  [04]  3F 01 02 00
2025-11-08T01:08:21.011862,42.534,can0  206  [16]  A7 0C D1 07 9F 0C 3A DF E7 07 C7 0C A7 0C 00 00
2025-11-08T01:08:21.012777,42.535,can0  204  [16]  E1 22 50 46 50 46 50 46 28 23 30 75 30 75 00 00
2025-11-08T01:08:21.013094,42.535,can0  204  [16]  E1 22 50 46 50 46 50 46 28 23 30 75 30 75 00 00
2025-11-08T01:08:21.014224,42.536,can0  204  [16]  E1 22 50 46 50 46 50 46 28 23 30 75 30 75 00 00
2025-11-08T01:08:21.016117,42.538,can0  206  [16]  A3 0C D1 07 9B 0C B1 E0 E9 07 D3 0C AB 0C 00 00
2025-11-08T01:08:21.016160,42.538,can0  204  [16]  E1 22 50 46 50 46 50 46 28 23 30 75 30 75 00 00
2025-11-08T01:08:21.017019,42.539,can0  041  [04]  02 00 02 00
2025-11-08T01:08:21.018524,42.541,can0  204  [16]  E1 22 50 46 50 46 50 46 28 23 30 75 30 75 00 00
2025-11-08T01:08:21.019988,42.542,can0  206  [16]  A3 0C CB 07 9B 0C DA DC E9 07 C3 0C AB 0C 00 00
2025-11-08T01:08:21.488850,43.011,can0  204  [16]  E1 22 50 46 50 46 50 46 28 23 30 75 30 75 00 00
2025-11-08T01:08:21.489851,43.012,can0  204  [16]  E1 22 50 46 50 46 50 46 28 23 30 75 30 75 00 00
2025-11-08T01:08:21.490755,43.013,can0  204  [16]  E1 22 50 46 50 46 50 46 28 23 30 75 30 75 00 00
2025-11-08T01:08:21.491561,43.014,can0  206  [16]  9F 0C D6 07 A7 0C B1 E0 E5 07 BB 0C AB 0C 00 00
2025-11-08T01:08:21.492129,43.014,can0  204  [16]  E1 22 50 46 50 46 50 46 28 23 30 75 30 75 00 00
2025-11-08T01:08:21.493015,43.015,can0  041  [04]  3F 01 00 00
2025-11-08T01:08:21.493301,43.015,can0  204  [16]  E1 22 50 46 50 46 50 46 28 23 30 75 30 75 00 00
2025-11-08T01:08:21.494560,43.017,can0  204  [16]  E1 22 50 46 50 46 50 46 28 23 30 75 30 75 00 00
2025-11-08T01:08:21.495020,43.017,can0  206  [16]  AB 0C CF 07 9F 0C 3A DF E9 07 BF 0C A3 0C 00 00
2025-11-08T01:08:21.495818,43.018,can0  204  [16]  E1 22 50 46 50 46 50 46 28 23 30 75 30 75 00 00
2025-11-08T01:08:21.497974,43.020,can0  204  [16]  E1 22 50 46 50 46 50 46 28 23 30 75 30 75 00 00
2025-11-08T01:08:21.498027,43.020,can0  041  [04]  3F 01 00 00
2025-11-08T01:08:21.498908,43.021,can0  204  [16]  E1 22 50 46 50 46 50 46 28 23 30 75 30 75 00 00
2025-11-08T01:08:21.499972,43.022,can0  206  [16]  9F 0C CF 07 A7 0C 3A DF DC 07 BB 0C AB 0C 00 00
2025-11-08T01:08:21.950126,43.472,can0  204  [16]  E1 22 50 46 50 46 50 46 28 23 30 75 30 75 00 00
2025-11-08T01:08:21.950844,43.473,can0  204  [16]  E1 22 50 46 50 46 50 46 28 23 30 75 30 75 00 00
2025-11-08T01:08:21.951447,43.474,can0  204  [16]  E1 22 50 46 50 46 50 46 28 23 30 75 30 75 00 00
2025-11-08T01:08:21.952128,43.474,can0  206  [16]  9F 0C CD 07 A3 0C 99 C6 E7 07 BF 0C AB 0C 00 00
2025-11-08T01:08:21.953372,43.476,can0  204  [16]  E1 22 50 46 50 46 50 46 28 23 30 75 30 75 00 00
2025-11-08T01:08:21.953404,43.476,can0  041  [04]  3F 01 00 00
2025-11-08T01:08:21.954026,43.476,can0  204  [16]  E1 22 50 46 50 46 50 46 28 23 30 75 30 75 00 00
2025-11-08T01:08:21.955950,43.478,can0  204  [16]  E1 22 50 46 50 46 50 46 28 23 30 75 30 75 00 00
2025-11-08T01:08:21.955996,43.478,can0  206  [16]  B3 0C D1 07 A3 0C DA DC EF 07 C3 0C 9B 0C 00 00
2025-11-08T01:08:21.956909,43.479,can0  204  [16]  E1 22 50 46 50 46 50 46 28 23 30 75 30 75 00 00
2025-11-08T01:08:21.958632,43.481,can0  204  [16]  E1 22 50 46 50 46 50 46 28 23 30 75 30 75 00 00
2025-11-08T01:08:21.958680,43.481,can0  041  [04]  3F 01 00 00
2025-11-08T01:08:21.959762,43.482,can0  206  [16]  A3 0C A6 07 9F 0C B1 E0 E5 07 C3 0C A7 0C 00 00
2025-11-08T01:08:21.966666,43.489,can0  204  [16]  E1 22 50 46 50 46 50 46 28 23 30 75 30 75 00 00
2025-11-08T01:08:22.414891,43.937,can0  204  [16]  E1 22 50 46 50 46 50 46 28 23 30 75 30 75 00 00
2025-11-08T01:08:22.416169,43.938,can0  204  [16]  E1 22 50 46 50 46 50 46 28 23 30 75 30 75 00 00
2025-11-08T01:08:22.417136,43.939,can0  206  [16]  A3 0C D1 07 9B 0C DA DC E9 07 C7 0C AB 0C 00 00
2025-11-08T01:08:22.417993,43.940,can0  204  [16]  E1 22 50 46 50 46 50 46 28 23 30 75 30 75 00 00
2025-11-08T01:08:22.418825,43.941,can0  204  [16]  E1 22 50 46 50 46 50 46 28 23 30 75 30 75 00 00
2025-11-08T01:08:22.420931,43.943,can0  041  [04]  02 00 00 00
2025-11-08T01:08:22.421307,43.943,can0  204  [16]  E1 22 50 46 50 46 50 46 28 23 30 75 30 75 00 00
2025-11-08T01:08:22.422431,43.945,can0  206  [16]  AB 0C D3 07 9F 0C B1 E0 E5 07 C3 0C A3 0C 00 00
2025-11-08T01:08:22.423609,43.946,can0  204  [16]  E1 22 50 46 50 46 50 46 28 23 30 75 30 75 00 00
2025-11-08T01:08:22.856274,44.378,can0  204  [16]  E1 22 50 46 50 46 50 46 28 23 30 75 30 75 00 00
2025-11-08T01:08:22.857084,44.379,can0  204  [16]  E1 22 50 46 50 46 50 46 28 23 30 75 30 75 00 00
2025-11-08T01:08:22.857778,44.380,can0  206  [16]  B3 0C CF 07 97 0C 3A DF E9 07 C7 0C 9B 0C 00 00
2025-11-08T01:08:22.858238,44.380,can0  041  [04]  02 00 00 00
