Timestamp,Elapsed_Time_s,CAN_Message
2025-11-08T02:01:35.417868,2.568,can0  204  [16]  17 1A 50 46 50 46 50 46 FA 19 20 4E 30 75 00 00
2025-11-08T02:01:36.322900,3.473,can0  204  [16]  17 1A 50 46 50 46 50 46 FA 19 20 4E 30 75 00 00
2025-11-08T02:01:36.323932,3.474,can0  204  [16]  17 1A 50 46 50 46 50 46 FA 19 20 4E 30 75 00 00
2025-11-08T02:01:36.324733,3.474,can0  206  [16]  BF 0C DA 07 93 0C B1 E0 ED 07 D7 0C 93 0C 00 00
2025-11-08T02:01:36.325469,3.475,can0  204  [16]  17 1A 50 46 50 46 50 46 FA 19 20 4E 30 75 00 00
2025-11-08T02:01:36.326258,3.476,can0  204  [16]  17 1A 50 46 50 46 50 46 FA 19 20 4E 30 75 00 00
2025-11-08T02:01:36.326803,3.476,can0  041  [04]  02 00 00 00
2025-11-08T02:01:36.328181,3.478,can0  206  [16]  AB 0C D6 07 9B 0C DA DC E7 07 C3 0C A3 0C 00 00
2025-11-08T02:01:36.329250,3.479,can0  204  [16]  17 1A 50 46 50 46 50 46 FA 19 20 4E 30 75 00 00
2025-11-08T02:01:36.333543,3.483,can0  204  [16]  17 1A 50 46 50 46 50 46 FA 19 20 4E 30 75 00 00
2025-11-08T02:01:36.337611,3.487,can0  204  [16]  17 1A 50 46 50 46 50 46 FA 19 20 4E 30 75 00 00
2025-11-08T02:01:36.337778,3.487,can0  206  [16]  9B 0C D3 07 9F 0C C5 E1 EB 07 BF 0C AB 0C 00 00
2025-11-08T02:01:36.337921,3.488,can0  204  [16]  17 1A 50 46 50 46 50 46 FA 19 20 4E 30 75 00 00
2025-11-08T02:01:36.337966,3.488,can0  041  [04]  3F 01 00 00
2025-11-08T02:01:36.338001,3.488,can0  204  [16]  17 1A 50 46 50 46 50 46 FA 19 20 4E 30 75 00 00
2025-11-08T02:01:36.338035,3.488,can0  204  [16]  17 1A 50 46 50 46 50 46 FA 19 20 4E 30 75 00 00
2025-11-08T02:01:36.338068,3.488,can0  206  [16]  C3 0C D3 07 A3 0C DA DC EF 07 BB 0C 83 0C 00 00
2025-11-08T02:01:36.339746,3.489,can0  204  [16]  17 1A 50 46 50 46 50 46 FA 19 20 4E 30 75 00 00
2025-11-08T02:01:36.340268,3.490,can0  204  [16]  17 1A 50 46 50 46 50 46 FA 19 20 4E 30 75 00 00
2025-11-08T02:01:36.340671,3.490,can0  206  [16]  9F 0C D6 07 9B 0C DA DC EF 07 C3 0C AB 0C 00 00
2025-11-08T02:01:36.342213,3.492,can0  041  [04]  3F 01 00 00
2025-11-08T02:01:36.343030,3.493,can0  204  [16]  17 1A 50 46 50 46 50 46 FA 19 20 4E 30 75 00 00
2025-11-08T02:01:36.344628,3.494,can0  204  [16]  17 1A 50 46 50 46 50 46 FA 19 20 4E 30 75 00 00
2025-11-08T02:01:37.411940,4.562,can0  204  [16]  17 1A 50 46 50 46 50 46 FA 19 20 4E 30 75 00 00
2025-11-08T02:01:37.412804,4.562,can0  206  [16]  9F 0C D6 07 CF 0C DA DC E3 07 93 0C A7 0C 00 00
2025-11-08T02:01:37.413514,4.563,can0  204  [16]  17 1A 50 46 50 46 50 46 FA 19 20 4E 30 75 00 00
2025-11-08T02:01:37.414134,4.564,can0  041  [04]  02 00 00 00
2025-11-08T02:01:37.414894,4.565,can0  204  [16]  17 1A 50 46 50 46 50 46 FA 19 20 4E 30 75 00 00
2025-11-08T02:01:37.415592,4.565,can0  206  [16]  AF 0C D8 07 93 0C DA DC ED 07 A7 0C A7 0C 00 00
2025-11-08T02:01:37.416270,4.566,can0  204  [16]  17 1A 50 46 50 46 50 46 FA 19 20 4E 30 75 00 00
2025-11-08T02:01:37.417288,4.567,can0  204  [16]  17 1A 50 46 50 46 50 46 FA 19 20 4E 30 75 00 00
2025-11-08T02:01:37.418365,4.568,can0  204  [16]  17 1A 50 46 50 46 50 46 FA 19 20 4E 30 75 00 00
2025-11-08T02:01:37.419092,4.569,can0  206  [16]  9F 0C D3 07 97 0C 3A DF E5 07 CB 0C AB 0C 00 00
2025-11-08T02:01:37.419790,4.569,can0  204  [16]  17 1A 50 46 50 46 50 46 FA 19 20 4E 30 75 00 00
2025-11-08T02:01:37.420003,4.570,can0  041  [04]  02 00 00 00
2025-11-08T02:01:37.421206,4.571,can0  204  [16]  17 1A 50 46 50 46 50 46 FA 19 20 4E 30 75 00 00
2025-11-08T02:01:37.422288,4.572,can0  204  [16]  17 1A 50 46 50 46 50 46 FA 19 20 4E 30 75 00 00
2025-11-08T02:01:37.422623,4.572,can0  206  [16]  9B 0C D6 07 A7 0C DA DC ED 07 BF 0C A7 0C 00 00
2025-11-08T02:01:37.423607,4.573,can0  204  [16]  17 1A 50 46 50 46 50 46 FA 19 20 4E 30 75 00 00
2025-11-08T02:01:37.425632,4.575,can0  204  [16]  17 1A 50 46 50 46 50 46 FA 19 20 4E 30 75 00 00
2025-11-08T02:01:37.426188,4.576,can0  041  [04]  3F 01 02 00
2025-11-08T02:01:37.428760,4.578,can0  204  [16]  17 1A 50 46 50 46 50 46 FA 19 20 4E 30 75 00 00
2025-11-08T02:01:37.428821,4.578,can0  206  [16]  9F 0C DE 07 9F 0C DA DC EB 07 CF 0C A7 0C 00 00
2025-11-08T02:01:37.430853,4.581,can0  204  [16]  17 1A 50 46 50 46 50 46 FA 19 20 4E 30 75 00 00
2025-11-08T02:01:37.431811,4.581,can0  204  [16]  17 1A 50 46 50 46 50 46 FA 19 20 4E 30 75 00 00
2025-11-08T02:01:37.432184,4.582,can0  206  [16]  A7 0C DA 07 9B 0C B1 E0 F2 07 C3 0C A3 0C 00 00
2025-11-08T02:01:37.433073,4.583,can0  204  [16]  17 1A 50 46 50 46 50 46 FA 19 20 4E 30 75 00 00
2025-11-08T02:01:37.433789,4.583,can0  041  [04]  02 00 00 00
2025-11-08T02:01:37.434774,4.584,can0  204  [16]  17 1A 50 46 50 46 50 46 FA 19 20 4E 30 75 00 00
2025-11-08T02:01:37.435965,4.586,can0  204  [16]  17 1A 50 46 50 46 50 46 FA 19 20 4E 30 75 00 00
2025-11-08T02:01:37.436842,4.587,can0  206  [16]  A7 0C D6 07 9F 0C 99 C6 EB 07 C3 0C A3 0C 00 00
2025-11-08T02:01:37.437699,4.587,can0  204  [16]  17 1A 50 46 50 46 50 46 FA 19 20 4E 30 75 00 00
2025-11-08T02:01:37.438544,4.588,can0  204  [16]  17 1A 50 46 50 46 50 46 FA 19 20 4E 30 75 00 00
2025-11-08T02:01:38.153673,5.303,can0  206  [16]  9F 0C D6 07 93 0C 3A DF ED 07 CB 0C AB 0C 00 00
2025-11-08T02:01:38.154651,5.304,can0  041  [04]  02 00 00 00
2025-11-08T02:01:38.154707,5.304,can0  204  [16]  17 1A 50 46 50 46 50 46 FA 19 20 4E 30 75 00 00
2025-11-08T02:01:38.156395,5.306,can0  204  [16]  17 1A 50 46 50 46 50 46 FA 19 20 4E 30 75 00 00
2025-11-08T02:01:38.156969,5.307,can0  204  [16]  17 1A 50 46 50 46 50 46 FA 19 20 4E 30 75 00 00
2025-11-08T02:01:38.158009,5.308,can0  206  [16]  AB 0C D3 07 A3 0C DA DC ED 07 BB 0C 9F 0C 00 00
2025-11-08T02:01:38.158913,5.309,can0  204  [16]  17 1A 50 46 50 46 50 46 FA 19 20 4E 30 75 00 00
2025-11-08T02:01:38.159738,5.309,can0  204  [16]  17 1A 50 46 50 46 50 46 FA 19 20 4E 30 75 00 00
2025-11-08T02:01:38.160483,5.310,can0  041  [04]  02 00 02 00
2025-11-08T02:01:38.161288,5.311,can0  204  [16]  17 1A 50 46 50 46 50 46 FA 19 20 4E 30 75 00 00
2025-11-08T02:01:38.163092,5.313,can0  206  [16]  9B 0C D6 07 9F 0C DA DC ED 07 BF 0C AF 0C 00 00
2025-11-08T02:01:38.164365,5.314,can0  204  [16]  17 1A 50 46 50 46 50 46 FA 19 20 4E 30 75 00 00
2025-11-08T02:01:38.165303,5.315,can0  204  [16]  17 1A 50 46 50 46 50 46 FA 19 20 4E 30 75 00 00
2025-11-08T02:01:38.166098,5.316,can0  206  [16]  9F 0C D6 07 9B 0C DA DC E9 07 BF 0C AB 0C 00 00
2025-11-08T02:01:38.167733,5.317,can0  204  [16]  17 1A 50 46 50 46 50 46 FA 19 20 4E 30 75 00 00
2025-11-08T02:01:38.169539,5.319,can0  041  [04]  02 00 02 00
2025-11-08T02:01:38.170919,5.321,can0  204  [16]  17 1A 50 46 50 46 50 46 FA 19 20 4E 30 75 00 00
2025-11-08T02:01:38.171937,5.322,can0  204  [16]  17 1A 50 46 50 46 50 46 FA 19 20 4E 30 75 00 00
2025-11-08T02:01:38.172782,5.322,can0  206  [16]  9F 0C D6 07 9F 0C A0 E2 E9 07 AF 0C A7 0C 00 00
2025-11-08T02:01:38.934027,6.084,can0  204  [16]  17 1A 50 46 50 46 50 46 FA 19 20 4E 30 75 00 00
2025-11-08T02:01:38.936815,6.086,can0  204  [16]  17 1A 50 46 50 46 50 46 FA 19 20 4E 30 75 00 00
2025-11-08T02:01:38.936880,6.087,can0  041  [04]  E4 00 00 00
2025-11-08T02:01:38.936917,6.087,can0  206  [16]  9F 0C D3 07 9F 0C DA DC EF 07 BF 0C AB 0C 00 00
2025-11-08T02:01:38.937381,6.087,can0  204  [16]  17 1A 50 46 50 46 50 46 FA 19 20 4E 30 75 00 00
2025-11-08T02:01:38.938075,6.088,can0  204  [16]  17 1A 50 46 50 46 50 46 FA 19 20 4E 30 75 00 00
2025-11-08T02:01:38.938760,6.088,can0  204  [16]  17 1A 50 46 50 46 50 46 FA 19 20 4E 30 75 00 00
2025-11-08T02:01:38.939466,6.089,can0  206  [16]  AB 0C D6 07 9F 0C DA DC E9 07 B7 0C A3 0C 00 00
2025-11-08T02:01:38.940165,6.090,can0  204  [16]  17 1A 50 46 50 46 50 46 FA 19 20 4E 30 75 00 00
2025-11-08T02:01:38.940790,6.090,can0  041  [04]  B5 00 00 00
2025-11-08T02:01:38.942987,6.093,can0  204  [16]  17 1A 50 46 50 46 50 46 FA 19 20 4E 30 75 00 00
2025-11-08T02:01:38.943041,6.093,can0  204  [16]  17 1A 50 46 50 46 50 46 FA 19 20 4E 30 75 00 00
2025-11-08T02:01:38.943597,6.093,can0  206  [16]  9F 0C D8 07 A3 0C DA DC EF 07 C3 0C A7 0C 00 00
2025-11-08T02:01:38.944573,6.094,can0  204  [16]  17 1A 50 46 50 46 50 46 FA 19 20 4E 30 75 00 00
2025-11-08T02:01:38.945299,6.095,can0  204  [16]  17 1A 50 46 50 46 50 46 FA 19 20 4E 30 75 00 00
2025-11-08T02:01:38.946014,6.096,can0  206  [16]  9F 0C D6 07 9F 0C C5 E1 E9 07 BF 0C A7 0C 00 00
2025-11-08T02:01:38.947107,6.097,can0  204  [16]  17 1A 50 46 50 46 50 46 FA 19 20 4E 30 75 00 00
2025-11-08T02:01:38.947788,6.097,can0  041  [04]  B5 00 00 00
2025-11-08T02:01:38.949794,6.099,can0  204  [16]  17 1A 50 46 50 46 50 46 FA 19 20 4E 30 75 00 00
2025-11-08T02:01:38.950608,6.100,can0  204  [16]  17 1A 50 46 50 46 50 46 FA 19 20 4E 30 75 00 00
2025-11-08T02:01:38.951397,6.101,can0  206  [16]  A3 0C D8 07 9B 0C DA DC ED 07 C7 0C A7 0C 00 00
2025-11-08T02:01:39.716360,6.866,can0  204  [16]  17 1A 50 46 50 46 50 46 FA 19 20 4E 30 75 00 00
2025-11-08T02:01:39.717438,6.867,can0  204  [16]  17 1A 50 46 50 46 50 46 FA 19 20 4E 30 75 00 00
2025-11-08T02:01:39.718097,6.868,can0  041  [04]  E4 00 02 00
2025-11-08T02:01:39.718832,6.869,can0  204  [16]  17 1A 50 46 50 46 50 46 FA 19 20 4E 30 75 00 00
2025-11-08T02:01:39.719564,6.869,can0  206  [16]  8B 0C DC 07 B3 0C 99 C6 ED 07 BF 0C A7 0C 00 00
2025-11-08T02:01:39.721053,6.871,can0  204  [16]  17 1A 50 46 50 46 50 46 FA 19 20 4E 30 75 00 00
2025-11-08T02:01:39.721762,6.871,can0  204  [16]  17 1A 50 46 50 46 50 46 FA 19 20 4E 30 75 00 00
2025-11-08T02:01:39.722481,6.872,can0  206  [16]  A3 0C D6 07 A3 0C DA DC ED 07 BF 0C A3 0C 00 00
2025-11-08T02:01:39.723188,6.873,can0  204  [16]  17 1A 50 46 50 46 50 46 FA 19 20 4E 30 75 00 00
2025-11-08T02:01:39.723819,6.873,can0  041  [04]  E4 00 02 00
2025-11-08T02:01:39.724519,6.874,can0  204  [16]  17 1A 50 46 50 46 50 46 FA 19 20 4E 30 75 00 00
2025-11-08T02:01:39.725195,6.875,can0  204  [16]  17 1A 50 46 50 46 50 46 FA 19 20 4E 30 75 00 00
2025-11-08T02:01:39.726041,6.876,can0  206  [16]  9F 0C C9 07 A3 0C DA DC EB 07 BF 0C A7 0C 00 00
2025-11-08T02:01:39.726769,6.876,can0  204  [16]  17 1A 50 46 50 46 50 46 FA 19 20 4E 30 75 00 00
2025-11-08T02:01:39.728637,6.878,can0  204  [16]  17 1A 50 46 50 46 50 46 FA 19 20 4E 30 75 00 00
2025-11-08T02:01:39.728960,6.879,can0  206  [16]  A3 0C D8 07 9B 0C 99 C6 ED 07 C7 0C A7 0C 00 00
2025-11-08T02:01:39.729627,6.879,can0  041  [04]  3F 01 02 00
2025-11-08T02:01:39.730342,6.880,can0  204  [16]  17 1A 50 46 50 46 50 46 FA 19 20 4E 30 75 00 00
2025-11-08T02:01:39.731061,6.881,can0  204  [16]  17 1A 50 46 50 46 50 46 FA 19 20 4E 30 75 00 00
2025-11-08T02:01:39.731776,6.881,can0  204  [16]  17 1A 50 46 50 46 50 46 FA 19 20 4E 30 75 00 00
2025-11-08T02:01:40.419576,7.569,can0  206  [16]  C3 0C D8 07 83 0C 99 C6 E3 07 BF 0C A3 0C 00 00
2025-11-08T02:01:40.420830,7.571,can0  204  [16]  17 1A 50 46 50 46 50 46 FA 19 20 4E 30 75 00 00
2025-11-08T02:01:40.421638,7.571,can0  204  [16]  17 1A 50 46 50 46 50 46 FA 19 20 4E 30 75 00 00
2025-11-08T02:01:40.422308,7.572,can0  041  [04]  3F 01 02 00
2025-11-08T02:01:40.423052,7.573,can0  204  [16]  17 1A 50 46 50 46 50 46 FA 19 20 4E 30 75 00 00
2025-11-08T02:01:40.423810,7.573,can0  206  [16]  9F 0C D6 07 9B 0C DA DC EB 07 CB 0C A7 0C 00 00
2025-11-08T02:01:40.424543,7.574,can0  204  [16]  17 1A 50 46 50 46 50 46 FA 19 20 4E 30 75 00 00
2025-11-08T02:01:40.425968,7.576,can0  204  [16]  17 1A 50 46 50 46 50 46 FA 19 20 4E 30 75 00 00
2025-11-08T02:01:40.426807,7.576,can0  206  [16]  AB 0C DA 07 9B 0C 99 C6 ED 07 BB 0C A3 0C 00 00
2025-11-08T02:01:40.427464,7.577,can0  204  [16]  17 1A 50 46 50 46 50 46 FA 19 20 4E 30 75 00 00
2025-11-08T02:01:40.428136,7.578,can0  041  [04]  02 00 02 00
2025-11-08T02:01:40.428869,7.579,can0  204  [16]  17 1A 50 46 50 46 50 46 FA 19 20 4E 30 75 00 00
2025-11-08T02:01:40.429617,7.579,can0  204  [16]  17 1A 50 46 50 46 50 46 FA 19 20 4E 30 75 00 00
2025-11-08T02:01:40.436306,7.586,can0  206  [16]  A7 0C D1 07 97 0C DA DC ED 07 9F 0C A3 0C 00 00
2025-11-08T02:01:40.436422,7.586,can0  204  [16]  17 1A 50 46 50 46 50 46 FA 19 20 4E 30 75 00 00
2025-11-08T02:01:40.436469,7.586,can0  204  [16]  17 1A 50 46 50 46 50 46 FA 19 20 4E 30 75 00 00
2025-11-08T02:01:40.436539,7.586,can0  041  [04]  3F 01 00 00
2025-11-08T02:01:40.437328,7.587,can0  206  [16]  A3 0C D6 07 9B 0C 3A DF ED 07 C3 0C A7 0C 00 00
2025-11-08T02:01:40.438148,7.588,can0  204  [16]  17 1A 50 46 50 46 50 46 FA 19 20 4E 30 75 00 00
2025-11-08T02:01:41.111120,8.261,can0  204  [16]  17 1A 50 46 50 46 50 46 FA 19 20 4E 30 75 00 00
2025-11-08T02:01:41.112222,8.262,can0  204  [16]  17 1A 50 46 50 46 50 46 FA 19 20 4E 30 75 00 00
2025-11-08T02:01:41.112987,8.263,can0  206  [16]  A7 0C D6 07 97 0C DA DC E9 07 BF 0C A7 0C 00 00
2025-11-08T02:01:41.113721,8.263,can0  204  [16]  17 1A 50 46 50 46 50 46 FA 19 20 4E 30 75 00 00
2025-11-08T02:01:41.114448,8.264,can0  204  [16]  17 1A 50 46 50 46 50 46 FA 19 20 4E 30 75 00 00
2025-11-08T02:01:41.115268,8.265,can0  041  [04]  02 00 00 00
2025-11-08T02:01:41.116932,8.267,can0  204  [16]  17 1A 50 46 50 46 50 46 FA 19 20 4E 30 75 00 00
2025-11-08T02:01:41.117653,8.267,can0  206  [16]  9F 0C D6 07 9F 0C 99 C6 ED 07 BB 0C AB 0C 00 00
2025-11-08T02:01:41.118364,8.268,can0  204  [16]  17 1A 50 46 50 46 50 46 FA 19 20 4E 30 75 00 00
2025-11-08T02:01:41.119089,8.269,can0  204  [16]  17 1A 50 46 50 46 50 46 FA 19 20 4E 30 75 00 00
2025-11-08T02:01:41.119817,8.269,can0  206  [16]  A7 0C D6 07 9F 0C B1 E0 EB 07 BF 0C A3 0C 00 00
2025-11-08T02:01:41.120522,8.270,can0  204  [16]  17 1A 50 46 50 46 50 46 FA 19 20 4E 30 75 00 00
2025-11-08T02:01:41.121151,8.271,can0  041  [04]  02 00 00 00
2025-11-08T02:01:41.121854,8.272,can0  204  [16]  17 1A 50 46 50 46 50 46 FA 19 20 4E 30 75 00 00
2025-11-08T02:01:41.122587,8.272,can0  204  [16]  17 1A 50 46 50 46 50 46 FA 19 20 4E 30 75 00 00
2025-11-08T02:01:41.124306,8.274,can0  206  [16]  A3 0C D6 07 9B 0C 3A DF EB 07 BB 0C A7 0C 00 00
2025-11-08T02:01:41.125211,8.275,can0  204  [16]  17 1A 50 46 50 46 50 46 FA 19 20 4E 30 75 00 00
2025-11-08T02:01:41.829822,8.980,can0  204  [16]  17 1A 50 46 50 46 50 46 FA 19 20 4E 30 75 00 00
2025-11-08T02:01:41.831082,8.981,can0  041  [04]  3F 01 00 00
2025-11-08T02:01:41.832054,8.982,can0  206  [16]  9B 0C D3 07 9B 0C 99 C6 ED 07 C3 0C AF 0C 00 00
2025-11-08T02:01:41.833002,8.983,can0  204  [16]  17 1A 50 46 50 46 50 46 FA 19 20 4E 30 75 00 00
2025-11-08T02:01:41.835936,8.986,can0  204  [16]  17 1A 50 46 50 46 50 46 FA 19 20 4E 30 75 00 00
2025-11-08T02:01:41.838142,8.988,can0  204  [16]  17 1A 50 46 50 46 50 46 FA 19 20 4E 30 75 00 00
2025-11-08T02:01:41.838877,8.989,can0  206  [16]  9F 0C D6 07 A3 0C DA DC E9 07 BF 0C A3 0C 00 00
2025-11-08T02:01:41.844190,8.994,can0  204  [16]  17 1A 50 46 50 46 50 46 FA 19 20 4E 30 75 00 00
2025-11-08T02:01:41.844247,8.994,can0  041  [04]  E4 00 00 00
2025-11-08T02:01:41.844282,8.994,can0  204  [16]  17 1A 50 46 50 46 50 46 FA 19 20 4E 30 75 00 00
2025-11-08T02:01:41.845071,8.995,can0  204  [16]  17 1A 50 46 50 46 50 46 FA 19 20 4E 30 75 00 00
2025-11-08T02:01:41.845487,8.995,can0  206  [16]  A3 0C D6 07 9F 0C A0 E2 ED 07 C7 0C A3 0C 00 00
2025-11-08T02:01:41.849386,8.999,can0  204  [16]  17 1A 50 46 50 46 50 46 FA 19 20 4E 30 75 00 00
2025-11-08T02:01:41.849436,8.999,can0  204  [16]  17 1A 50 46 50 46 50 46 FA 19 20 4E 30 75 00 00
2025-11-08T02:01:41.850152,9.000,can0  206  [16]  9F 0C D6 07 9F 0C 3A DF EB 07 BB 0C AB 0C 00 00
2025-11-08T02:01:41.850557,9.000,can0  204  [16]  17 1A 50 46 50 46 50 46 FA 19 20 4E 30 75 00 00
2025-11-08T02:01:41.852570,9.002,can0  041  [04]  B5 00 00 00
2025-11-08T02:01:41.857089,9.007,can0  204  [16]  17 1A 50 46 50 46 50 46 FA 19 20 4E 30 75 00 00
2025-11-08T02:01:41.860165,9.010,can0  204  [16]  17 1A 50 46 50 46 50 46 FA 19 20 4E 30 75 00 00
2025-11-08T02:01:42.692930,9.843,can0  206  [16]  A3 0C DC 07 9F 0C 3A DF ED 07 BF 0C A7 0C 00 00
2025-11-08T02:01:42.694104,9.844,can0  204  [16]  17 1A 50 46 50 46 50 46 FA 19 20 4E 30 75 00 00
2025-11-08T02:01:42.695080,9.845,can0  204  [16]  17 1A 50 46 50 46 50 46 FA 19 20 4E 30 75 00 00
2025-11-08T02:01:42.695965,9.846,can0  041  [04]  B5 00 02 00
2025-11-08T02:01:42.696888,9.847,can0  204  [16]  17 1A 50 46 50 46 50 46 FA 19 20 4E 30 75 00 00
2025-11-08T02:01:42.698054,9.848,can0  206  [16]  9B 0C D8 07 9F 0C 99 C6 ED 07 CB 0C AB 0C 00 00
2025-11-08T02:01:42.699112,9.849,can0  204  [16]  17 1A 50 46 50 46 50 46 FA 19 20 4E 30 75 00 00
2025-11-08T02:01:42.700092,9.850,can0  204  [16]  17 1A 50 46 50 46 50 46 FA 19 20 4E 30 75 00 00
2025-11-08T02:01:42.701226,9.851,can0  206  [16]  A3 0C D1 07 9F 0C DA DC E9 07 C7 0C A7 0C 00 00
2025-11-08T02:01:42.702208,9.852,can0  204  [16]  17 1A 50 46 50 46 50 46 FA 19 20 4E 30 75 00 00
2025-11-08T02:01:42.703327,9.853,can0  041  [04]  B5 00 02 00
2025-11-08T02:01:42.704386,9.854,can0  204  [16]  17 1A 50 46 50 46 50 46 FA 19 20 4E 30 75 00 00
2025-11-08T02:01:42.705332,9.855,can0  204  [16]  17 1A 50 46 50 46 50 46 FA 19 20 4E 30 75 00 00
2025-11-08T02:01:42.706306,9.856,can0  206  [16]  AB 0C D3 07 8F 0C DA DC EF 07 D3 0C 9F 0C 00 00
2025-11-08T02:01:42.707259,9.857,can0  204  [16]  17 1A 50 46 50 46 50 46 FA 19 20 4E 30 75 00 00
2025-11-08T02:01:42.708839,9.859,can0  204  [16]  17 1A 50 46 50 46 50 46 FA 19 20 4E 30 75 00 00
2025-11-08T02:01:42.709748,9.859,can0  041  [04]  B5 00 02 00
2025-11-08T02:01:42.716777,9.866,can0  206  [16]  A7 0C D3 07 9F 0C 99 C6 E9 07 BF 0C A3 0C 00 00
2025-11-08T02:01:42.717353,9.867,can0  204  [16]  17 1A 50 46 50 46 50 46 FA 19 20 4E 30 75 00 00
2025-11-08T02:01:42.720686,9.870,can0  204  [16]  17 1A 50 46 50 46 50 46 FA 19 20 4E 30 75 00 00
2025-11-08T02:01:42.723252,9.873,can0  204  [16]  17 1A 50 46 50 46 50 46 FA 19 20 4E 30 75 00 00
2025-11-08T02:01:42.724508,9.874,can0  206  [16]  A7 0C D3 07 9B 0C A0 E2 ED 07 C3 0C A7 0C 00 00
2025-11-08T02:01:42.725504,9.875,can0  204  [16]  17 1A 50 46 50 46 50 46 FA 19 20 4E 30 75 00 00
2025-11-08T02:01:43.390299,10.540,can0  204  [16]  17 1A 50 46 50 46 50 46 FA 19 20 4E 30 75 00 00
2025-11-08T02:01:43.391453,10.541,can0  041  [04]  B5 00 02 00
2025-11-08T02:01:43.393721,10.543,can0  204  [16]  17 1A 50 46 50 46 50 46 FA 19 20 4E 30 75 00 00
2025-11-08T02:01:43.395042,10.545,can0  206  [16]  AF 0C D1 07 9B 0C B1 E0 EB 07 BB 0C A3 0C 00 00
2025-11-08T02:01:43.395098,10.545,can0  204  [16]  17 1A 50 46 50 46 50 46 FA 19 20 4E 30 75 00 00
2025-11-08T02:01:43.395135,10.545,can0  204  [16]  17 1A 50 46 50 46 50 46 FA 19 20 4E 30 75 00 00
2025-11-08T02:01:43.395575,10.545,can0  206  [16]  B3 0C DA 07 97 0C DA DC ED 07 BF 0C 9F 0C 00 00
2025-11-08T02:01:43.396544,10.546,can0  204  [16]  17 1A 50 46 50 46 50 46 FA 19 20 4E 30 75 00 00
2025-11-08T02:01:43.396615,10.546,can0  041  [04]  B5 00 02 00
2025-11-08T02:01:43.396663,10.546,can0  204  [16]  17 1A 50 46 50 46 50 46 FA 19 20 4E 30 75 00 00
2025-11-08T02:01:43.398041,10.548,can0  204  [16]  17 1A 50 46 50 46 50 46 FA 19 20 4E 30 75 00 00
2025-11-08T02:01:43.398098,10.548,can0  206  [16]  9F 0C D1 07 A7 0C 3A DF EB 07 BB 0C A7 0C 00 00
2025-11-08T02:01:43.398577,10.548,can0  204  [16]  17 1A 50 46 50 46 50 46 FA 19 20 4E 30 75 00 00
2025-11-08T02:01:43.399121,10.549,can0  204  [16]  17 1A 50 46 50 46 50 46 FA 19 20 4E 30 75 00 00
2025-11-08T02:01:43.399555,10.549,can0  041  [04]  E4 00 00 00
2025-11-08T02:01:43.400851,10.551,can0  206  [16]  97 0C D3 07 A3 0C 99 C6 E9 07 BF 0C AF 0C 00 00
2025-11-08T02:01:43.400899,10.551,can0  204  [16]  17 1A 50 46 50 46 50 46 FA 19 20 4E 30 75 00 00
2025-11-08T02:01:43.449618,10.599,can0   00  [05]  0c 8a f0 00 00 0
2025-11-08T02:01:44.015792,11.165,can0  204  [16]  17 1A 50 46 50 46 50 46 FA 19 20 4E 30 75 00 00
2025-11-08T02:01:44.016454,11.166,can0  001  [05]  C8 AF 00 00 00
2025-11-08T02:01:44.016918,11.167,can0  204  [16]  17 1A 50 46 50 46 50 46 FA 19 20 4E 30 75 00 00
2025-11-08T02:01:44.017507,11.167,can0  206  [16]  A3 0C D3 07 97 0C DA DC ED 07 C3 0C A7 0C 00 00
2025-11-08T02:01:44.018060,11.168,can0  204  [16]  17 1A 50 46 50 46 50 46 FA 19 20 4E 30 75 00 00
2025-11-08T02:01:44.019316,11.169,can0  041  [04]  3F 01 00 00
2025-11-08T02:01:44.019473,11.169,can0  204  [16]  17 1A 50 46 50 46 50 46 FA 19 20 4E 30 75 00 00
2025-11-08T02:01:44.019779,11.169,can0  204  [16]  17 1A 50 46 50 46 50 46 FA 19 20 4E 30 75 00 00
2025-11-08T02:01:44.020356,11.170,can0  206  [16]  9F 0C D3 07 A3 0C 99 C6 ED 07 BB 0C A7 0C 00 00
2025-11-08T02:01:44.020822,11.170,can0  204  [16]  17 1A 50 46 50 46 50 46 FA 19 20 4E 30 75 00 00
2025-11-08T02:01:44.021382,11.171,can0  204  [16]  17 1A 50 46 50 46 50 46 FA 19 20 4E 30 75 00 00
2025-11-08T02:01:44.021978,11.172,can0  206  [16]  9F 0C D6 07 AB 0C DA DC E9 07 B7 0C A3 0C 00 00
2025-11-08T02:01:44.023019,11.173,can0  204  [16]  17 1A 50 46 50 46 50 46 FA 19 20 4E 30 75 00 00
2025-11-08T02:01:44.023635,11.173,can0  041  [04]  3F 01 00 00
2025-11-08T02:01:44.024655,11.174,can0  204  [16]  17 1A 50 46 50 46 50 46 FA 19 20 4E 30 75 00 00
2025-11-08T02:01:44.025041,11.175,can0  204  [16]  17 1A 50 46 50 46 50 46 FA 19 20 4E 30 75 00 00
2025-11-08T02:01:44.025836,11.176,can0  206  [16]  A7 0C D6 07 9F 0C 99 C6 ED 07 BF 0C A3 0C 00 00
2025-11-08T02:01:44.026887,11.177,can0  204  [16]  17 1A 50 46 50 46 50 46 FA 19 20 4E 30 75 00 00
2025-11-08T02:01:44.642948,11.793,can0  204  [16]  17 1A 50 46 50 46 50 46 FA 19 20 4E 30 75 00 00
2025-11-08T02:01:44.643726,11.793,can0  041  [04]  3F 01 00 00
2025-11-08T02:01:44.646640,11.796,can0  204  [16]  17 1A 50 46 50 46 50 46 FA 19 20 4E 30 75 00 00
2025-11-08T02:01:44.646696,11.796,can0  206  [16]  8F 0C D6 07 9F 0C DA DC EB 07 BF 0C BB 0C 00 00
2025-11-08T02:01:44.646735,11.796,can0  204  [16]  17 1A 50 46 50 46 50 46 FA 19 20 4E 30 75 00 00
2025-11-08T02:01:44.646771,11.796,can0  204  [16]  17 1A 50 46 50 46 50 46 FA 19 20 4E 30 75 00 00
2025-11-08T02:01:44.647631,11.797,can0  206  [16]  AF 0C D6 07 9B 0C C5 E1 ED 07 C7 0C 9B 0C 00 00
2025-11-08T02:01:44.648442,11.798,can0  204  [16]  17 1A 50 46 50 46 50 46 FA 19 20 4E 30 75 00 00
2025-11-08T02:01:44.649134,11.799,can0  041  [04]  E4 00 00 00
2025-11-08T02:01:44.649907,11.800,can0  204  [16]  17 1A 50 46 50 46 50 46 FA 19 20 4E 30 75 00 00
2025-11-08T02:01:44.650685,11.800,can0  204  [16]  17 1A 50 46 50 46 50 46 FA 19 20 4E 30 75 00 00
2025-11-08T02:01:44.651476,11.801,can0  206  [16]  A7 0C D6 07 9F 0C 3A DF E9 07 BB 0C A3 0C 00 00
2025-11-08T02:01:44.652251,11.802,can0  204  [16]  17 1A 50 46 50 46 50 46 FA 19 20 4E 30 75 00 00
2025-11-08T02:01:44.653118,11.803,can0  204  [16]  17 1A 50 46 50 46 50 46 FA 19 20 4E 30 75 00 00
2025-11-08T02:01:44.654082,11.804,can0  041  [04]  E4 00 00 00
2025-11-08T02:01:44.654880,11.805,can0  204  [16]  17 1A 50 46 50 46 50 46 FA 19 20 4E 30 75 00 00
2025-11-08T02:01:45.321650,12.471,can0  206  [16]  AB 0C D6 07 97 0C DA DC E7 07 C3 0C A7 0C 00 00
2025-11-08T02:01:45.322810,12.472,can0  204  [16]  17 1A 50 46 50 46 50 46 FA 19 20 4E 30 75 00 00
2025-11-08T02:01:45.323625,12.473,can0  204  [16]  17 1A 50 46 50 46 50 46 FA 19 20 4E 30 75 00 00
2025-11-08T02:01:45.324439,12.474,can0  204  [16]  17 1A 50 46 50 46 50 46 FA 19 20 4E 30 75 00 00
2025-11-08T02:01:45.325285,12.475,can0  206  [16]  A3 0C D8 07 9F 0C 3A DF EB 07 CB 0C A3 0C 00 00
2025-11-08T02:01:45.326445,12.476,can0  204  [16]  17 1A 50 46 50 46 50 46 FA 19 20 4E 30 75 00 00
2025-11-08T02:01:45.327166,12.477,can0  041  [04]  3F 01 00 00
2025-11-08T02:01:45.328572,12.478,can0  204  [16]  17 1A 50 46 50 46 50 46 FA 19 20 4E 30 75 00 00
2025-11-08T02:01:45.329459,12.479,can0  206  [16]  A3 0C D6 07 9F 0C DA DC ED 07 BB 0C AB 0C 00 00
2025-11-08T02:01:45.330246,12.480,can0  204  [16]  17 1A 50 46 50 46 50 46 FA 19 20 4E 30 75 00 00
2025-11-08T02:01:45.331027,12.481,can0  204  [16]  17 1A 50 46 50 46 50 46 FA 19 20 4E 30 75 00 00
2025-11-08T02:01:45.331811,12.481,can0  204  [16]  17 1A 50 46 50 46 50 46 FA 19 20 4E 30 75 00 00
2025-11-08T02:01:45.334833,12.485,can0  206  [16]  A3 0C D6 07 9F 0C B1 E0 E9 07 C3 0C A3 0C 00 00
2025-11-08T02:01:45.337275,12.487,can0  041  [04]  02 00 00 00
2025-11-08T02:01:45.337338,12.487,can0  204  [16]  17 1A 50 46 50 46 50 46 FA 19 20 4E 30 75 00 00
2025-11-08T02:01:45.338140,12.488,can0  204  [16]  17 1A 50 46 50 46 50 46 FA 19 20 4E 30 75 00 00
2025-11-08T02:01:45.339319,12.489,can0  206  [16]  A3 0C D6 07 9F 0C DA DC ED 07 BB 0C A7 0C 00 00
2025-11-08T02:01:45.340324,12.490,can0  204  [16]  17 1A 50 46 50 46 50 46 FA 19 20 4E 30 75 00 00
2025-11-08T02:01:46.001156,13.151,can0  204  [16]  17 1A 50 46 50 46 50 46 FA 19 20 4E 30 75 00 00
2025-11-08T02:01:46.002720,13.152,can0  041  [04]  3F 01 00 00
2025-11-08T02:01:46.003574,13.153,can0  204  [16]  17 1A 50 46 50 46 50 46 FA 19 20 4E 30 75 00 00
2025-11-08T02:01:46.004299,13.154,can0  206  [16]  9F 0C D6 07 9F 0C DA DC ED 07 BF 0C AB 0C 00 00
2025-11-08T02:01:46.004987,13.155,can0  204  [16]  17 1A 50 46 50 46 50 46 FA 19 20 4E 30 75 00 00
2025-11-08T02:01:46.005925,13.156,can0  204  [16]  17 1A 50 46 50 46 50 46 FA 19 20 4E 30 75 00 00
2025-11-08T02:01:46.008822,13.158,can0  204  [16]  17 1A 50 46 50 46 50 46 FA 19 20 4E 30 75 00 00
2025-11-08T02:01:46.010034,13.160,can0  206  [16]  A3 0C D6 07 9B 0C 99 C6 E9 07 BF 0C AB 0C 00 00
2025-11-08T02:01:46.012983,13.163,can0  041  [04]  02 00 00 00
2025-11-08T02:01:46.015707,13.165,can0  204  [16]  17 1A 50 46 50 46 50 46 FA 19 20 4E 30 75 00 00
2025-11-08T02:01:46.017321,13.167,can0  204  [16]  17 1A 50 46 50 46 50 46 FA 19 20 4E 30 75 00 00
2025-11-08T02:01:46.018091,13.168,can0  206  [16]  9F 0C D3 07 9B 0C 99 C6 ED 07 C3 0C AB 0C 00 00
2025-11-08T02:01:46.018826,13.169,can0  204  [16]  17 1A 50 46 50 46 50 46 FA 19 20 4E 30 75 00 00
2025-11-08T02:01:46.019535,13.169,can0  204  [16]  17 1A 50 46 50 46 50 46 FA 19 20 4E 30 75 00 00
2025-11-08T02:01:46.020812,13.170,can0  204  [16]  17 1A 50 46 50 46 50 46 FA 19 20 4E 30 75 00 00
2025-11-08T02:01:46.021506,13.171,can0  041  [04]  02 00 02 00
2025-11-08T02:01:46.023195,13.173,can0  206  [16]  AB 0C D8 07 9B 0C B1 E0 EB 07 C3 0C A3 0C 00 00
2025-11-08T02:01:46.023935,13.174,can0  204  [16]  17 1A 50 46 50 46 50 46 FA 19 20 4E 30 75 00 00
2025-11-08T02:01:46.699709,13.849,can0  204  [16]  17 1A 50 46 50 46 50 46 FA 19 20 4E 30 75 00 00
2025-11-08T02:01:46.700861,13.851,can0  206  [16]  9F 0C D6 07 AB 0C DA DC EB 07 C3 0C A7 0C 00 00
2025-11-08T02:01:46.701485,13.851,can0  204  [16]  17 1A 50 46 50 46 50 46 FA 19 20 4E 30 75 00 00
2025-11-08T02:01:46.702233,13.852,can0  204  [16]  17 1A 50 46 50 46 50 46 FA 19 20 4E 30 75 00 00
2025-11-08T02:01:46.702893,13.853,can0  041  [04]  3F 01 02 00
2025-11-08T02:01:46.703591,13.853,can0  204  [16]  17 1A 50 46 50 46 50 46 FA 19 20 4E 30 75 00 00
2025-11-08T02:01:46.704316,13.854,can0  206  [16]  A7 0C D3 07 9F 0C 57 E3 ED 07 BF 0C A3 0C 00 00
2025-11-08T02:01:46.705058,13.855,can0  204  [16]  17 1A 50 46 50 46 50 46 FA 19 20 4E 30 75 00 00
2025-11-08T02:01:46.707882,13.858,can0  204  [16]  17 1A 50 46 50 46 50 46 FA 19 20 4E 30 75 00 00
2025-11-08T02:01:46.708841,13.859,can0  204  [16]  17 1A 50 46 50 46 50 46 FA 19 20 4E 30 75 00 00
2025-11-08T02:01:46.709815,13.859,can0  206  [16]  A3 0C D8 07 9F 0C 3A DF EB 07 B7 0C A7 0C 00 00
2025-11-08T02:01:46.710803,13.860,can0  041  [04]  E4 00 02 00
2025-11-08T02:01:46.712685,13.862,can0  204  [16]  17 1A 50 46 50 46 50 46 FA 19 20 4E 30 75 00 00
2025-11-08T02:01:46.713516,13.863,can0  204  [16]  17 1A 50 46 50 46 50 46 FA 19 20 4E 30 75 00 00
2025-11-08T02:01:46.714290,13.864,can0  206  [16]  9B 0C D6 07 9F 0C DA DC ED 07 BB 0C AF 0C 00 00
2025-11-08T02:01:47.388728,14.538,can0  204  [16]  17 1A 50 46 50 46 50 46 FA 19 20 4E 30 75 00 00
2025-11-08T02:01:47.389841,14.540,can0  204  [16]  17 1A 50 46 50 46 50 46 FA 19 20 4E 30 75 00 00
2025-11-08T02:01:47.390544,14.540,can0  041  [04]  E4 00 00 00
2025-11-08T02:01:47.391297,14.541,can0  204  [16]  17 1A 50 46 50 46 50 46 FA 19 20 4E 30 75 00 00
2025-11-08T02:01:47.392069,14.542,can0  206  [16]  A3 0C DA 07 97 0C DA DC EB 07 BF 0C AB 0C 00 00
2025-11-08T02:01:47.392909,14.543,can0  204  [16]  17 1A 50 46 50 46 50 46 FA 19 20 4E 30 75 00 00
2025-11-08T02:01:47.393644,14.543,can0  204  [16]  17 1A 50 46 50 46 50 46 FA 19 20 4E 30 75 00 00
2025-11-08T02:01:47.395005,14.545,can0  204  [16]  17 1A 50 46 50 46 50 46 FA 19 20 4E 30 75 00 00
2025-11-08T02:01:47.398086,14.548,can0  206  [16]  9F 0C D6 07 A3 0C 3A DF EB 07 C7 0C A7 0C 00 00
2025-11-08T02:01:47.399378,14.549,can0  204  [16]  17 1A 50 46 50 46 50 46 FA 19 20 4E 30 75 00 00
2025-11-08T02:01:47.401542,14.551,can0  041  [04]  3F 01 00 00
2025-11-08T02:01:47.403561,14.553,can0  204  [16]  17 1A 50 46 50 46 50 46 FA 19 20 4E 30 75 00 00
2025-11-08T02:01:47.405590,14.555,can0  206  [16]  A3 0C D6 07 97 0C DA DC EB 07 C7 0C A7 0C 00 00
2025-11-08T02:01:47.406260,14.556,can0  204  [16]  17 1A 50 46 50 46 50 46 FA 19 20 4E 30 75 00 00
2025-11-08T02:01:47.408827,14.559,can0  204  [16]  17 1A 50 46 50 46 50 46 FA 19 20 4E 30 75 00 00
2025-11-08T02:01:47.409620,14.559,can0  204  [16]  17 1A 50 46 50 46 50 46 FA 19 20 4E 30 75 00 00
2025-11-08T02:01:47.411600,14.561,can0  041  [04]  E4 00 00 00
2025-11-08T02:01:47.412551,14.562,can0  206  [16]  9F 0C D3 07 9F 0C DA DC EB 07 C3 0C A3 0C 00 00
2025-11-08T02:01:47.413329,14.563,can0  204  [16]  17 1A 50 46 50 46 50 46 FA 19 20 4E 30 75 00 00
2025-11-08T02:01:48.088172,15.238,can0  204  [16]  17 1A 50 46 50 46 50 46 FA 19 20 4E 30 75 00 00
2025-11-08T02:01:48.089013,15.239,can0  206  [16]  DB 0C D1 07 9F 0C 3A DF F8 07 C3 0C 6B 0C 00 00
2025-11-08T02:01:48.090628,15.240,can0  204  [16]  17 1A 50 46 50 46 50 46 FA 19 20 4E 30 75 00 00
2025-11-08T02:01:48.090682,15.240,can0  204  [16]  17 1A 50 46 50 46 50 46 FA 19 20 4E 30 75 00 00
2025-11-08T02:01:48.091410,15.241,can0  041  [04]  3F 01 00 00
2025-11-08T02:01:48.092178,15.242,can0  204  [16]  17 1A 50 46 50 46 50 46 FA 19 20 4E 30 75 00 00
2025-11-08T02:01:48.092967,15.243,can0  206  [16]  9F 0C CB 07 9F 0C DA DC ED 07 BF 0C AB 0C 00 00
2025-11-08T02:01:48.093786,15.243,can0  204  [16]  17 1A 50 46 50 46 50 46 FA 19 20 4E 30 75 00 00
2025-11-08T02:01:48.094572,15.244,can0  204  [16]  17 1A 50 46 50 46 50 46 FA 19 20 4E 30 75 00 00
2025-11-08T02:01:48.095323,15.245,can0  204  [16]  17 1A 50 46 50 46 50 46 FA 19 20 4E 30 75 00 00
2025-11-08T02:01:48.096148,15.246,can0  206  [16]  A3 0C D6 07 9F 0C DA DC E9 07 CF 0C A3 0C 00 00
2025-11-08T02:01:48.096847,15.247,can0  041  [04]  8B 00 00 00
2025-11-08T02:01:48.097607,15.247,can0  204  [16]  17 1A 50 46 50 46 50 46 FA 19 20 4E 30 75 00 00
2025-11-08T02:01:48.098366,15.248,can0  204  [16]  17 1A 50 46 50 46 50 46 FA 19 20 4E 30 75 00 00
2025-11-08T02:01:48.099135,15.249,can0  204  [16]  17 1A 50 46 50 46 50 46 FA 19 20 4E 30 75 00 00
2025-11-08T02:01:48.099936,15.250,can0  206  [16]  B7 0C D1 07 83 0C 3A DF EF 07 CF 0C A7 0C 00 00
2025-11-08T02:01:48.100659,15.250,can0  204  [16]  17 1A 50 46 50 46 50 46 FA 19 20 4E 30 75 00 00
2025-11-08T02:01:48.776048,15.926,can0  041  [04]  9F 00 02 00
2025-11-08T02:01:48.776807,15.926,can0  204  [16]  17 1A 50 46 50 46 50 46 FA 19 20 4E 30 75 00 00
2025-11-08T02:01:48.777837,15.928,can0  206  [16]  B7 0C D3 07 8B 0C DA DC EB 07 CF 0C 9B 0C 00 00
2025-11-08T02:01:48.778476,15.928,can0  204  [16]  17 1A 50 46 50 46 50 46 FA 19 20 4E 30 75 00 00
2025-11-08T02:01:48.779248,15.929,can0  204  [16]  17 1A 50 46 50 46 50 46 FA 19 20 4E 30 75 00 00
2025-11-08T02:01:48.779949,15.930,can0  204  [16]  17 1A 50 46 50 46 50 46 FA 19 20 4E 30 75 00 00
2025-11-08T02:01:48.780666,15.930,can0  206  [16]  9F 0C D8 07 8F 0C 99 C6 EB 07 CB 0C AB 0C 00 00
2025-11-08T02:01:48.781398,15.931,can0  204  [16]  17 1A 50 46 50 46 50 46 FA 19 20 4E 30 75 00 00
2025-11-08T02:01:48.782661,15.932,can0  041  [04]  5E 00 02 00
2025-11-08T02:01:48.784745,15.934,can0  204  [16]  17 1A 50 46 50 46 50 46 FA 19 20 4E 30 75 00 00
2025-11-08T02:01:48.784802,15.934,can0  206  [16]  B3 0C D6 07 9B 0C DA DC ED 07 C3 0C 9B 0C 00 00
2025-11-08T02:01:48.784838,15.935,can0  204  [16]  17 1A 50 46 50 46 50 46 FA 19 20 4E 30 75 00 00
2025-11-08T02:01:48.785391,15.935,can0  204  [16]  17 1A 50 46 50 46 50 46 FA 19 20 4E 30 75 00 00
2025-11-08T02:01:48.786140,15.936,can0  204  [16]  17 1A 50 46 50 46 50 46 FA 19 20 4E 30 75 00 00
2025-11-08T02:01:48.789484,15.939,can0  041  [04]  8B 00 02 00
2025-11-08T02:01:48.791496,15.941,can0  206  [16]  9F 0C DC 07 9B 0C 99 C6 EB 07 C7 0C AB 0C 00 00
2025-11-08T02:01:48.793811,15.943,can0  204  [16]  17 1A 50 46 50 46 50 46 FA 19 20 4E 30 75 00 00
2025-11-08T02:01:48.794632,15.944,can0  204  [16]  17 1A 50 46 50 46 50 46 FA 19 20 4E 30 75 00 00
2025-11-08T02:01:49.460923,16.611,can0  204  [16]  17 1A 50 46 50 46 50 46 FA 19 20 4E 30 75 00 00
2025-11-08T02:01:49.462196,16.612,can0  206  [16]  97 0C D8 07 A3 0C 3A DF EB 07 C7 0C AF 0C 00 00
2025-11-08T02:01:49.463065,16.613,can0  204  [16]  17 1A 50 46 50 46 50 46 FA 19 20 4E 30 75 00 00
2025-11-08T02:01:49.463810,16.613,can0  041  [04]  8B 00 02 00
2025-11-08T02:01:49.464641,16.614,can0  204  [16]  17 1A 50 46 50 46 50 46 FA 19 20 4E 30 75 00 00
2025-11-08T02:01:49.465477,16.615,can0  206  [16]  9B 0C D8 07 A7 0C DA DC F2 07 B7 0C AB 0C 00 00
2025-11-08T02:01:49.466856,16.617,can0  204  [16]  17 1A 50 46 50 46 50 46 FA 19 20 4E 30 75 00 00
2025-11-08T02:01:49.467947,16.618,can0  204  [16]  17 1A 50 46 50 46 50 46 FA 19 20 4E 30 75 00 00
2025-11-08T02:01:49.468955,16.619,can0  204  [16]  17 1A 50 46 50 46 50 46 FA 19 20 4E 30 75 00 00
2025-11-08T02:01:49.470064,16.620,can0  206  [16]  A7 0C D3 07 9B 0C 3A DF E9 07 CF 0C A3 0C 00 00
2025-11-08T02:01:49.470973,16.621,can0  041  [04]  9F 00 02 00
2025-11-08T02:01:49.472756,16.622,can0  204  [16]  17 1A 50 46 50 46 50 46 FA 19 20 4E 30 75 00 00
2025-11-08T02:01:49.473400,16.623,can0  204  [16]  17 1A 50 46 50 46 50 46 FA 19 20 4E 30 75 00 00
2025-11-08T02:01:49.474592,16.624,can0  204  [16]  17 1A 50 46 50 46 50 46 FA 19 20 4E 30 75 00 00
2025-11-08T02:01:49.475705,16.625,can0  206  [16]  9B 0C DC 07 9F 0C 3A DF E9 07 C7 0C AB 0C 00 00
2025-11-08T02:01:49.477743,16.627,can0  204  [16]  17 1A 50 46 50 46 50 46 FA 19 20 4E 30 75 00 00
2025-11-08T02:01:49.477790,16.627,can0  204  [16]  17 1A 50 46 50 46 50 46 FA 19 20 4E 30 75 00 00
2025-11-08T02:01:49.478695,16.628,can0  041  [04]  9F 00 02 00
2025-11-08T02:01:50.142911,17.293,can0  206  [16]  A7 0C D6 07 A7 0C DA DC ED 07 C3 0C 9F 0C 00 00
2025-11-08T02:01:50.144307,17.294,can0  204  [16]  17 1A 50 46 50 46 50 46 FA 19 20 4E 30 75 00 00
2025-11-08T02:01:50.145355,17.295,can0  204  [16]  17 1A 50 46 50 46 50 46 FA 19 20 4E 30 75 00 00
2025-11-08T02:01:50.146358,17.296,can0  204  [16]  17 1A 50 46 50 46 50 46 FA 19 20 4E 30 75 00 00
2025-11-08T02:01:50.147613,17.297,can0  206  [16]  A7 0C D3 07 97 0C DA DC EB 07 CF 0C A3 0C 00 00
2025-11-08T02:01:50.148726,17.298,can0  204  [16]  17 1A 50 46 50 46 50 46 FA 19 20 4E 30 75 00 00
2025-11-08T02:01:50.149654,17.299,can0  041  [04]  B5 00 00 00
2025-11-08T02:01:50.150757,17.300,can0  204  [16]  17 1A 50 46 50 46 50 46 FA 19 20 4E 30 75 00 00
2025-11-08T02:01:50.152162,17.302,can0  204  [16]  17 1A 50 46 50 46 50 46 FA 19 20 4E 30 75 00 00
2025-11-08T02:01:50.157451,17.307,can0  206  [16]  8B 0C D8 07 9B 0C DA DC EB 07 C7 0C BF 0C 00 00
2025-11-08T02:01:50.157508,17.307,can0  204  [16]  17 1A 50 46 50 46 50 46 FA 19 20 4E 30 75 00 00
2025-11-08T02:01:50.157543,17.307,can0  204  [16]  17 1A 50 46 50 46 50 46 FA 19 20 4E 30 75 00 00
2025-11-08T02:01:50.157985,17.308,can0  206  [16]  9F 0C D3 07 A7 0C B1 E0 EB 07 BB 0C A3 0C 00 00
2025-11-08T02:01:50.158758,17.308,can0  041  [04]  B5 00 00 00
2025-11-08T02:01:50.159895,17.310,can0  204  [16]  17 1A 50 46 50 46 50 46 FA 19 20 4E 30 75 00 00
2025-11-08T02:01:50.160751,17.310,can0  204  [16]  17 1A 50 46 50 46 50 46 FA 19 20 4E 30 75 00 00
2025-11-08T02:01:50.161593,17.311,can0  204  [16]  17 1A 50 46 50 46 50 46 FA 19 20 4E 30 75 00 00
2025-11-08T02:01:50.177999,17.328,can0  206  [16]  9B 0C D6 07 9F 0C 99 C6 ED 07 BF 0C AB 0C 00 00
2025-11-08T02:01:50.858124,18.008,can0  204  [16]  17 1A 50 46 50 46 50 46 FA 19 20 4E 30 75 00 00
2025-11-08T02:01:50.866344,18.016,can0  041  [04]  B5 00 02 00
2025-11-08T02:01:50.869605,18.019,can0  204  [16]  17 1A 50 46 50 46 50 46 FA 19 20 4E 30 75 00 00
2025-11-08T02:01:50.869700,18.019,can0  206  [16]  A3 0C D6 07 A7 0C 99 C6 EB 07 BF 0C 9F 0C 00 00
2025-11-08T02:01:50.869734,18.019,can0  204  [16]  17 1A 50 46 50 46 50 46 FA 19 20 4E 30 75 00 00
2025-11-08T02:01:50.870859,18.021,can0  204  [16]  17 1A 50 46 50 46 50 46 FA 19 20 4E 30 75 00 00
2025-11-08T02:01:50.871451,18.021,can0  204  [16]  17 1A 50 46 50 46 50 46 FA 19 20 4E 30 75 00 00
2025-11-08T02:01:50.877134,18.027,can0  206  [16]  9F 0C D3 07 9F 0C 3A DF E7 07 DF 0C AB 0C 00 00
2025-11-08T02:01:50.877589,18.027,can0  204  [16]  17 1A 50 46 50 46 50 46 FA 19 20 4E 30 75 00 00
2025-11-08T02:01:50.877633,18.027,can0  041  [04]  B5 00 02 00
2025-11-08T02:01:50.877676,18.027,can0  204  [16]  17 1A 50 46 50 46 50 46 FA 19 20 4E 30 75 00 00
2025-11-08T02:01:50.877716,18.027,can0  204  [16]  17 1A 50 46 50 46 50 46 FA 19 20 4E 30 75 00 00
2025-11-08T02:01:50.879112,18.029,can0  206  [16]  97 0C D6 07 A3 0C 99 C6 EB 07 BB 0C AF 0C 00 00
2025-11-08T02:01:50.879173,18.029,can0  204  [16]  17 1A 50 46 50 46 50 46 FA 19 20 4E 30 75 00 00
2025-11-08T02:01:50.882792,18.032,can0  204  [16]  17 1A 50 46 50 46 50 46 FA 19 20 4E 30 75 00 00
2025-11-08T02:01:50.882902,18.033,can0  041  [04]  9F 00 02 00
2025-11-08T02:01:50.882944,18.033,can0  206  [16]  9F 0C D6 07 97 0C DA DC ED 07 CB 0C AB 0C 00 00
2025-11-08T02:01:50.972101,18.122,can0   00  [05]  0c 8a f0 00 00 0
2025-11-08T02:01:51.572782,18.722,can0  204  [16]  17 1A 50 46 50 46 50 46 FA 19 20 4E 30 75 00 00
2025-11-08T02:01:51.575439,18.725,can0  204  [16]  17 1A 50 46 50 46 50 46 FA 19 20 4E 30 75 00 00
2025-11-08T02:01:51.576105,18.726,can0  204  [16]  17 1A 50 46 50 46 50 46 FA 19 20 4E 30 75 00 00
2025-11-08T02:01:51.578222,18.728,can0  206  [16]  A7 0C E5 07 9F 0C 3A DF EB 07 BB 0C A3 0C 00 00
2025-11-08T02:01:51.582296,18.732,can0  204  [16]  17 1A 50 46 50 46 50 46 FA 19 20 4E 30 75 00 00
2025-11-08T02:01:51.582362,18.732,can0  001  [05]  C8 AF 00 00 00
2025-11-08T02:01:51.582409,18.732,can0  041  [04]  8B 00 02 00
2025-11-08T02:01:51.584455,18.734,can0  204  [16]  17 1A 50 46 50 46 50 46 FA 19 20 4E 30 75 00 00
2025-11-08T02:01:51.584515,18.734,can0  204  [16]  17 1A 50 46 50 46 50 46 FA 19 20 4E 30 75 00 00
2025-11-08T02:01:51.585253,18.735,can0  206  [16]  A3 0C D3 07 9B 0C 3A DF EB 07 B7 0C A7 0C 00 00
2025-11-08T02:01:51.586437,18.736,can0  204  [16]  17 1A 50 46 50 46 50 46 FA 19 20 4E 30 75 00 00
2025-11-08T02:01:51.587043,18.737,can0  204  [16]  17 1A 50 46 50 46 50 46 FA 19 20 4E 30 75 00 00
2025-11-08T02:01:51.588674,18.738,can0  206  [16]  97 0C D8 07 A7 0C DA DC ED 07 BF 0C AB 0C 00 00
2025-11-08T02:01:51.593793,18.743,can0  041  [04]  9F 00 02 00
2025-11-08T02:01:51.593869,18.744,can0  204  [16]  17 1A 50 46 50 46 50 46 FA 19 20 4E 30 75 00 00
2025-11-08T02:01:51.593911,18.744,can0  204  [16]  17 1A 50 46 50 46 50 46 FA 19 20 4E 30 75 00 00
2025-11-08T02:01:51.593952,18.744,can0  204  [16]  17 1A 50 46 50 46 50 46 FA 19 20 4E 30 75 00 00
2025-11-08T02:01:51.596344,18.746,can0  206  [16]  9F 0C D3 07 9F 0C 3A DF EB 07 C7 0C AB 0C 00 00
2025-11-08T02:01:52.304285,19.454,can0  204  [16]  17 1A 50 46 50 46 50 46 FA 19 20 4E 30 75 00 00
2025-11-08T02:01:52.304371,19.454,can0  204  [16]  17 1A 50 46 50 46 50 46 FA 19 20 4E 30 75 00 00
2025-11-08T02:01:52.304760,19.454,can0  041  [04]  9F 00 02 00
2025-11-08T02:01:52.306820,19.456,can0  206  [16]  9F 0C D6 07 9F 0C DA DC E9 07 C3 0C AB 0C 00 00
2025-11-08T02:01:52.309426,19.459,can0  204  [16]  17 1A 50 46 50 46 50 46 FA 19 20 4E 30 75 00 00
2025-11-08T02:01:52.309474,19.459,can0  204  [16]  17 1A 50 46 50 46 50 46 FA 19 20 4E 30 75 00 00
2025-11-08T02:01:52.309510,19.459,can0  204  [16]  17 1A 50 46 50 46 50 46 FA 19 20 4E 30 75 00 00
2025-11-08T02:01:52.309544,19.459,can0  206  [16]  A3 0C D6 07 A3 0C DA DC ED 07 BB 0C A7 0C 00 00
2025-11-08T02:01:52.309578,19.459,can0  204  [16]  17 1A 50 46 50 46 50 46 FA 19 20 4E 30 75 00 00
2025-11-08T02:01:52.309614,19.459,can0  041  [04]  8B 00 00 00
2025-11-08T02:01:52.309648,19.459,can0  204  [16]  17 1A 50 46 50 46 50 46 FA 19 20 4E 30 75 00 00
2025-11-08T02:01:52.310235,19.460,can0  204  [16]  17 1A 50 46 50 46 50 46 FA 19 20 4E 30 75 00 00
2025-11-08T02:01:52.310822,19.460,can0  206  [16]  A3 0C D6 07 97 0C 99 C6 ED 07 C7 0C A7 0C 00 00
2025-11-08T02:01:52.311453,19.461,can0  204  [16]  17 1A 50 46 50 46 50 46 FA 19 20 4E 30 75 00 00
2025-11-08T02:01:52.312073,19.462,can0  204  [16]  17 1A 50 46 50 46 50 46 FA 19 20 4E 30 75 00 00
2025-11-08T02:01:52.312816,19.462,can0  041  [04]  8B 00 02 00
2025-11-08T02:01:52.314033,19.464,can0  206  [16]  A3 0C D8 07 9F 0C F4 E3 F2 07 C3 0C A7 0C 00 00
2025-11-08T02:01:52.317757,19.467,can0  204  [16]  17 1A 50 46 50 46 50 46 FA 19 20 4E 30 75 00 00
2025-11-08T02:01:52.317820,19.467,can0  204  [16]  17 1A 50 46 50 46 50 46 FA 19 20 4E 30 75 00 00
2025-11-08T02:01:52.317861,19.468,can0  204  [16]  17 1A 50 46 50 46 50 46 FA 19 20 4E 30 75 00 00
2025-11-08T02:01:52.317901,19.468,can0  206  [16]  93 0C DA 07 AF 0C 3A DF EF 07 BF 0C A7 0C 00 00
2025-11-08T02:01:52.996387,20.146,can0  204  [16]  17 1A 50 46 50 46 50 46 FA 19 20 4E 30 75 00 00
2025-11-08T02:01:52.998122,20.148,can0  204  [16]  17 1A 50 46 50 46 50 46 FA 19 20 4E 30 75 00 00
2025-11-08T02:01:52.999013,20.149,can0  041  [04]  2F 00 02 00
2025-11-08T02:01:53.000026,20.150,can0  204  [16]  17 1A 50 46 50 46 50 46 FA 19 20 4E 30 75 00 00
2025-11-08T02:01:53.000826,20.151,can0  206  [16]  A3 0C D6 07 9B 0C DA DC EB 07 C7 0C A7 0C 00 00
2025-11-08T02:01:53.001618,20.151,can0  204  [16]  17 1A 50 46 50 46 50 46 FA 19 20 4E 30 75 00 00
2025-11-08T02:01:53.002501,20.152,can0  204  [16]  17 1A 50 46 50 46 50 46 FA 19 20 4E 30 75 00 00
2025-11-08T02:01:53.003369,20.153,can0  206  [16]  A3 0C CF 07 9F 0C 3A DF EB 07 BF 0C A7 0C 00 00
2025-11-08T02:01:53.004534,20.154,can0  204  [16]  17 1A 50 46 50 46 50 46 FA 19 20 4E 30 75 00 00
2025-11-08T02:01:53.005390,20.155,can0  041  [04]  2F 00 02 00
2025-11-08T02:01:53.006638,20.156,can0  204  [16]  17 1A 50 46 50 46 50 46 FA 19 20 4E 30 75 00 00
2025-11-08T02:01:53.007728,20.157,can0  204  [16]  17 1A 50 46 50 46 50 46 FA 19 20 4E 30 75 00 00
2025-11-08T02:01:53.008821,20.158,can0  206  [16]  9B 0C CD 07 9F 0C 99 C6 ED 07 C3 0C AB 0C 00 00
2025-11-08T02:01:53.010630,20.160,can0  204  [16]  17 1A 50 46 50 46 50 46 FA 19 20 4E 30 75 00 00
2025-11-08T02:01:53.010696,20.160,can0  204  [16]  17 1A 50 46 50 46 50 46 FA 19 20 4E 30 75 00 00
2025-11-08T02:01:53.011204,20.161,can0  041  [04]  8B 00 02 00
2025-11-08T02:01:53.012067,20.162,can0  204  [16]  17 1A 50 46 50 46 50 46 FA 19 20 4E 30 75 00 00
2025-11-08T02:01:53.013705,20.163,can0  206  [16]  A7 0C D6 07 97 0C DA DC ED 07 C7 0C A3 0C 00 00
2025-11-08T02:01:53.015008,20.165,can0  204  [16]  17 1A 50 46 50 46 50 46 FA 19 20 4E 30 75 00 00
2025-11-08T02:01:53.680003,20.830,can0  204  [16]  17 1A 50 46 50 46 50 46 FA 19 20 4E 30 75 00 00
2025-11-08T02:01:53.681310,20.831,can0  206  [16]  87 0C D6 07 AF 0C 99 C6 EB 07 C7 0C AB 0C 00 00
2025-11-08T02:01:53.682260,20.832,can0  204  [16]  17 1A 50 46 50 46 50 46 FA 19 20 4E 30 75 00 00
2025-11-08T02:01:53.683184,20.833,can0  041  [04]  8B 00 02 00
2025-11-08T02:01:53.684087,20.834,can0  204  [16]  17 1A 50 46 50 46 50 46 FA 19 20 4E 30 75 00 00
2025-11-08T02:01:53.685179,20.835,can0  204  [16]  17 1A 50 46 50 46 50 46 FA 19 20 4E 30 75 00 00
2025-11-08T02:01:53.686088,20.836,can0  206  [16]  9B 0C D6 07 AB 0C 3A DF EF 07 C7 0C A3 0C 00 00
2025-11-08T02:01:53.687009,20.837,can0  204  [16]  17 1A 50 46 50 46 50 46 FA 19 20 4E 30 75 00 00
2025-11-08T02:01:53.687989,20.838,can0  204  [16]  17 1A 50 46 50 46 50 46 FA 19 20 4E 30 75 00 00
2025-11-08T02:01:53.688906,20.839,can0  204  [16]  17 1A 50 46 50 46 50 46 FA 19 20 4E 30 75 00 00
2025-11-08T02:01:53.689901,20.840,can0  206  [16]  AB 0C D6 07 9B 0C DA DC E9 07 BB 0C A3 0C 00 00
2025-11-08T02:01:53.691197,20.841,can0  041  [04]  B5 00 02 00
2025-11-08T02:01:53.692241,20.842,can0  204  [16]  17 1A 50 46 50 46 50 46 FA 19 20 4E 30 75 00 00
2025-11-08T02:01:53.694810,20.844,can0  204  [16]  17 1A 50 46 50 46 50 46 FA 19 20 4E 30 75 00 00
2025-11-08T02:01:53.694872,20.845,can0  206  [16]  9F 0C D3 07 9B 0C B1 E0 EB 07 CF 0C AB 0C 00 00
2025-11-08T02:01:53.695442,20.845,can0  204  [16]  17 1A 50 46 50 46 50 46 FA 19 20 4E 30 75 00 00
2025-11-08T02:01:53.696427,20.846,can0  204  [16]  17 1A 50 46 50 46 50 46 FA 19 20 4E 30 75 00 00
2025-11-08T02:01:54.294070,21.444,can0  041  [04]  B5 00 02 00
2025-11-08T02:01:54.295462,21.445,can0  204  [16]  17 1A 50 46 50 46 50 46 FA 19 20 4E 30 75 00 00
2025-11-08T02:01:54.296525,21.446,can0  206  [16]  A7 0C D6 07 93 0C 99 C6 EB 07 C3 0C A7 0C 00 00
2025-11-08T02:01:54.297779,21.447,can0  204  [16]  17 1A 50 46 50 46 50 46 FA 19 20 4E 30 75 00 00
2025-11-08T02:01:54.299274,21.449,can0  204  [16]  17 1A 50 46 50 46 50 46 FA 19 20 4E 30 75 00 00
2025-11-08T02:01:54.300314,21.450,can0  204  [16]  17 1A 50 46 50 46 50 46 FA 19 20 4E 30 75 00 00
2025-11-08T02:01:54.301498,21.451,can0  206  [16]  A7 0C D6 07 97 0C DA DC EF 07 BF 0C A3 0C 00 00
2025-11-08T02:01:54.302454,21.452,can0  041  [04]  B5 00 02 00
2025-11-08T02:01:54.303463,21.453,can0  204  [16]  17 1A 50 46 50 46 50 46 FA 19 20 4E 30 75 00 00
2025-11-08T02:01:54.304586,21.454,can0  204  [16]  17 1A 50 46 50 46 50 46 FA 19 20 4E 30 75 00 00
2025-11-08T02:01:54.305612,21.455,can0  206  [16]  9F 0C BA 07 BF 0C 99 C6 EB 07 8B 0C AB 0C 00 00
2025-11-08T02:01:54.306632,21.456,can0  204  [16]  17 1A 50 46 50 46 50 46 FA 19 20 4E 30 75 00 00
2025-11-08T02:01:54.307634,21.457,can0  204  [16]  17 1A 50 46 50 46 50 46 FA 19 20 4E 30 75 00 00
2025-11-08T02:01:54.309813,21.459,can0  041  [04]  B5 00 00 00
2025-11-08T02:01:54.310182,21.460,can0  204  [16]  17 1A 50 46 50 46 50 46 FA 19 20 4E 30 75 00 00
2025-11-08T02:01:54.312145,21.462,can0  206  [16]  A3 0C D8 07 9B 0C B1 E0 ED 07 C7 0C AB 0C 00 00
2025-11-08T02:01:54.929745,22.079,can0  204  [16]  17 1A 50 46 50 46 50 46 FA 19 20 4E 30 75 00 00
2025-11-08T02:01:54.930334,22.080,can0  204  [16]  17 1A 50 46 50 46 50 46 FA 19 20 4E 30 75 00 00
2025-11-08T02:01:54.931445,22.081,can0  206  [16]  C7 0C D3 07 A3 0C B1 E0 ED 07 BB 0C 83 0C 00 00
2025-11-08T02:01:54.933996,22.084,can0  204  [16]  17 1A 50 46 50 46 50 46 FA 19 20 4E 30 75 00 00
2025-11-08T02:01:54.934168,22.084,can0  204  [16]  17 1A 50 46 50 46 50 46 FA 19 20 4E 30 75 00 00
2025-11-08T02:01:54.934314,22.084,can0  041  [04]  2F 00 00 00
2025-11-08T02:01:54.934600,22.084,can0  204  [16]  17 1A 50 46 50 46 50 46 FA 19 20 4E 30 75 00 00
2025-11-08T02:01:54.935340,22.085,can0  206  [16]  9F 0C D3 07 9F 0C 2E E6 E9 07 B7 0C AB 0C 00 00
2025-11-08T02:01:54.936300,22.086,can0  204  [16]  17 1A 50 46 50 46 50 46 FA 19 20 4E 30 75 00 00
2025-11-08T02:01:54.937169,22.087,can0  204  [16]  17 1A 50 46 50 46 50 46 FA 19 20 4E 30 75 00 00
2025-11-08T02:01:54.937896,22.088,can0  204  [16]  17 1A 50 46 50 46 50 46 FA 19 20 4E 30 75 00 00
2025-11-08T02:01:54.938516,22.088,can0  206  [16]  A7 0C D1 07 AB 0C DA DC EF 07 C3 0C A3 0C 00 00
2025-11-08T02:01:54.940860,22.091,can0  041  [04]  02 00 02 00
2025-11-08T02:01:54.947855,22.098,can0  204  [16]  17 1A 50 46 50 46 50 46 FA 19 20 4E 30 75 00 00
2025-11-08T02:01:54.951734,22.102,can0  204  [16]  17 1A 50 46 50 46 50 46 FA 19 20 4E 30 75 00 00
2025-11-08T02:01:54.951923,22.102,can0  206  [16]  9F 0C D8 07 9B 0C 3A DF EB 07 C7 0C AB 0C 00 00
2025-11-08T02:01:54.951966,22.102,can0  204  [16]  17 1A 50 46 50 46 50 46 FA 19 20 4E 30 75 00 00
2025-11-08T02:01:54.952902,22.103,can0  204  [16]  17 1A 50 46 50 46 50 46 FA 19 20 4E 30 75 00 00
2025-11-08T02:01:55.559694,22.709,can0  041  [04]  E4 00 02 00
2025-11-08T02:01:55.560185,22.710,can0  204  [16]  17 1A 50 46 50 46 50 46 FA 19 20 4E 30 75 00 00
2025-11-08T02:01:55.561440,22.711,can0  206  [16]  9F 0C D6 07 A3 0C 3A DF EB 07 C3 0C A7 0C 00 00
2025-11-08T02:01:55.562551,22.712,can0  204  [16]  17 1A 50 46 50 46 50 46 FA 19 20 4E 30 75 00 00
2025-11-08T02:01:55.564263,22.714,can0  204  [16]  17 1A 50 46 50 46 50 46 FA 19 20 4E 30 75 00 00
2025-11-08T02:01:55.565293,22.715,can0  204  [16]  17 1A 50 46 50 46 50 46 FA 19 20 4E 30 75 00 00
2025-11-08T02:01:55.579512,22.729,can0  206  [16]  9F 0C D3 07 9B 0C 3A DF E9 07 C7 0C AB 0C 00 00
2025-11-08T02:01:55.579735,22.729,can0  041  [04]  B5 00 00 00
2025-11-08T02:01:55.579893,22.730,can0  204  [16]  17 1A 50 46 50 46 50 46 FA 19 20 4E 30 75 00 00
2025-11-08T02:01:55.586904,22.737,can0  204  [16]  17 1A 50 46 50 46 50 46 FA 19 20 4E 30 75 00 00
2025-11-08T02:01:55.597978,22.748,can0  204  [16]  17 1A 50 46 50 46 50 46 FA 19 20 4E 30 75 00 00
2025-11-08T02:01:55.598176,22.748,can0  206  [16]  A7 0C D8 07 9B 0C 3A DF ED 07 BF 0C A7 0C 00 00
2025-11-08T02:01:55.598221,22.748,can0  204  [16]  17 1A 50 46 50 46 50 46 FA 19 20 4E 30 75 00 00
2025-11-08T02:01:55.608993,22.759,can0  204  [16]  17 1A 50 46 50 46 50 46 FA 19 20 4E 30 75 00 00
2025-11-08T02:01:55.609170,22.759,can0  041  [04]  8B 00 00 00
2025-11-08T02:01:55.609318,22.759,can0  206  [16]  A7 0C D3 07 93 0C DA DC ED 07 CB 0C A7 0C 00 00
2025-11-08T02:01:56.370490,23.520,can0  204  [16]  17 1A 50 46 50 46 50 46 FA 19 20 4E 30 75 00 00
2025-11-08T02:01:56.371599,23.521,can0  204  [16]  17 1A 50 46 50 46 50 46 FA 19 20 4E 30 75 00 00
2025-11-08T02:01:56.372225,23.522,can0  204  [16]  17 1A 50 46 50 46 50 46 FA 19 20 4E 30 75 00 00
2025-11-08T02:01:56.372945,23.523,can0  206  [16]  9B 0C D3 07 A3 0C B1 E0 ED 07 BF 0C AB 0C 00 00
2025-11-08T02:01:56.373646,23.523,can0  204  [16]  17 1A 50 46 50 46 50 46 FA 19 20 4E 30 75 00 00
2025-11-08T02:01:56.374214,23.524,can0  041  [04]  3F 01 00 00
2025-11-08T02:01:56.376673,23.526,can0  204  [16]  17 1A 50 46 50 46 50 46 FA 19 20 4E 30 75 00 00
2025-11-08T02:01:56.376737,23.526,can0  204  [16]  17 1A 50 46 50 46 50 46 FA 19 20 4E 30 75 00 00
2025-11-08T02:01:56.376779,23.526,can0  206  [16]  A7 0C D6 07 93 0C DA DC EB 07 D7 0C 9B 0C 00 00
2025-11-08T02:01:56.376818,23.526,can0  204  [16]  17 1A 50 46 50 46 50 46 FA 19 20 4E 30 75 00 00
2025-11-08T02:01:56.377456,23.527,can0  204  [16]  17 1A 50 46 50 46 50 46 FA 19 20 4E 30 75 00 00
2025-11-08T02:01:56.378123,23.528,can0  206  [16]  A7 0C D8 07 A3 0C C5 E1 ED 07 BF 0C 9F 0C 00 00
2025-11-08T02:01:56.378673,23.528,can0  041  [04]  3F 01 00 00
2025-11-08T02:01:56.379284,23.529,can0  204  [16]  17 1A 50 46 50 46 50 46 FA 19 20 4E 30 75 00 00
2025-11-08T02:01:56.394622,23.544,can0  204  [16]  17 1A 50 46 50 46 50 46 FA 19 20 4E 30 75 00 00
2025-11-08T02:01:56.396048,23.546,can0  204  [16]  17 1A 50 46 50 46 50 46 FA 19 20 4E 30 75 00 00
2025-11-08T02:01:56.396119,23.546,can0  206  [16]  A3 0C D3 07 9F 0C 99 C6 EB 07 C3 0C A7 0C 00 00
2025-11-08T02:01:56.396162,23.546,can0  204  [16]  17 1A 50 46 50 46 50 46 FA 19 20 4E 30 75 00 00
2025-11-08T02:01:56.396201,23.546,can0  041  [04]  5E 00 00 00
2025-11-08T02:01:56.396241,23.546,can0  204  [16]  17 1A 50 46 50 46 50 46 FA 19 20 4E 30 75 00 00
2025-11-08T02:01:57.001007,24.151,can0  206  [16]  B7 0C D3 07 9B 0C B1 E0 EF 07 BB 0C 9B 0C 00 00
2025-11-08T02:01:57.001751,24.151,can0  204  [16]  17 1A 50 46 50 46 50 46 FA 19 20 4E 30 75 00 00
2025-11-08T02:01:57.002882,24.153,can0  204  [16]  17 1A 50 46 50 46 50 46 FA 19 20 4E 30 75 00 00
2025-11-08T02:01:57.003907,24.154,can0  204  [16]  17 1A 50 46 50 46 50 46 FA 19 20 4E 30 75 00 00
2025-11-08T02:01:57.005467,24.155,can0  206  [16]  A3 0C D8 07 9F 0C 99 C6 EB 07 BB 0C A7 0C 00 00
2025-11-08T02:01:57.006804,24.156,can0  204  [16]  17 1A 50 46 50 46 50 46 FA 19 20 4E 30 75 00 00
2025-11-08T02:01:57.007890,24.158,can0  041  [04]  B5 00 00 00
2025-11-08T02:01:57.009031,24.159,can0  204  [16]  17 1A 50 46 50 46 50 46 FA 19 20 4E 30 75 00 00
2025-11-08T02:01:57.010582,24.160,can0  204  [16]  17 1A 50 46 50 46 50 46 FA 19 20 4E 30 75 00 00
2025-11-08T02:01:57.011698,24.161,can0  206  [16]  9F 0C D1 07 73 0C 99 C6 ED 07 F0 0C AB 0C 00 00
2025-11-08T02:01:57.012759,24.162,can0  204  [16]  17 1A 50 46 50 46 50 46 FA 19 20 4E 30 75 00 00
2025-11-08T02:01:57.013784,24.163,can0  204  [16]  17 1A 50 46 50 46 50 46 FA 19 20 4E 30 75 00 00
2025-11-08T02:01:57.015203,24.165,can0  041  [04]  8B 00 00 00
2025-11-08T02:01:57.016333,24.166,can0  204  [16]  17 1A 50 46 50 46 50 46 FA 19 20 4E 30 75 00 00
2025-11-08T02:01:57.017414,24.167,can0  206  [16]  97 0C D8 07 9B 0C DA DC E5 07 C3 0C B3 0C 00 00
2025-11-08T02:01:57.714221,24.864,can0  204  [16]  17 1A 50 46 50 46 50 46 FA 19 20 4E 30 75 00 00
2025-11-08T02:01:57.715148,24.865,can0  204  [16]  17 1A 50 46 50 46 50 46 FA 19 20 4E 30 75 00 00
2025-11-08T02:01:57.716297,24.866,can0  206  [16]  9F 0C DA 07 9B 0C DA DC EB 07 C3 0C AB 0C 00 00
2025-11-08T02:01:57.717212,24.867,can0  204  [16]  17 1A 50 46 50 46 50 46 FA 19 20 4E 30 75 00 00
2025-11-08T02:01:57.718013,24.868,can0  041  [04]  B5 00 00 00
2025-11-08T02:01:57.720177,24.870,can0  204  [16]  17 1A 50 46 50 46 50 46 FA 19 20 4E 30 75 00 00
2025-11-08T02:01:57.722692,24.872,can0  204  [16]  17 1A 50 46 50 46 50 46 FA 19 20 4E 30 75 00 00
2025-11-08T02:01:57.723634,24.873,can0  206  [16]  AB 0C D3 07 A3 0C 99 C6 ED 07 BF 0C 9F 0C 00 00
2025-11-08T02:01:57.726734,24.876,can0  204  [16]  17 1A 50 46 50 46 50 46 FA 19 20 4E 30 75 00 00
2025-11-08T02:01:57.735907,24.886,can0  204  [16]  17 1A 50 46 50 46 50 46 FA 19 20 4E 30 75 00 00
2025-11-08T02:01:57.736107,24.886,can0  206  [16]  A7 0C DA 07 9B 0C DA DC EB 07 C3 0C A7 0C 00 00
2025-11-08T02:01:57.736338,24.886,can0  041  [04]  8B 00 00 00
2025-11-08T02:01:57.736499,24.886,can0  204  [16]  17 1A 50 46 50 46 50 46 FA 19 20 4E 30 75 00 00
2025-11-08T02:01:57.737656,24.887,can0  204  [16]  17 1A 50 46 50 46 50 46 FA 19 20 4E 30 75 00 00
2025-11-08T02:01:57.739008,24.889,can0  204  [16]  17 1A 50 46 50 46 50 46 FA 19 20 4E 30 75 00 00
2025-11-08T02:01:57.739780,24.889,can0  206  [16]  9B 0C D8 07 AB 0C DA DC EB 07 BF 0C A7 0C 00 00
2025-11-08T02:01:57.740719,24.890,can0  204  [16]  17 1A 50 46 50 46 50 46 FA 19 20 4E 30 75 00 00
2025-11-08T02:01:57.742367,24.892,can0  204  [16]  17 1A 50 46 50 46 50 46 FA 19 20 4E 30 75 00 00
2025-11-08T02:01:57.742439,24.892,can0  041  [04]  B5 00 00 00
2025-11-08T02:01:58.378065,25.528,can0  204  [16]  17 1A 50 46 50 46 50 46 FA 19 20 4E 30 75 00 00
2025-11-08T02:01:58.379187,25.529,can0  206  [16]  A7 0C CD 07 A7 0C DA DC E9 07 B7 0C A3 0C 00 00
2025-11-08T02:01:58.380180,25.530,can0  204  [16]  17 1A 50 46 50 46 50 46 FA 19 20 4E 30 75 00 00
2025-11-08T02:01:58.381098,25.531,can0  204  [16]  17 1A 50 46 50 46 50 46 FA 19 20 4E 30 75 00 00
2025-11-08T02:01:58.382020,25.532,can0  206  [16]  9F 0C DA 07 9F 0C DA DC E7 07 CB 0C A7 0C 00 00
2025-11-08T02:01:58.382894,25.533,can0  204  [16]  17 1A 50 46 50 46 50 46 FA 19 20 4E 30 75 00 00
2025-11-08T02:01:58.383717,25.533,can0  041  [04]  8B 00 00 00
2025-11-08T02:01:58.385110,25.535,can0  204  [16]  17 1A 50 46 50 46 50 46 FA 19 20 4E 30 75 00 00
2025-11-08T02:01:58.391822,25.542,can0  204  [16]  17 1A 50 46 50 46 50 46 FA 19 20 4E 30 75 00 00
2025-11-08T02:01:58.391880,25.542,can0  206  [16]  AB 0C D6 07 9F 0C 3A DF E9 07 BB 0C 9F 0C 00 00
2025-11-08T02:01:58.391919,25.542,can0  204  [16]  17 1A 50 46 50 46 50 46 FA 19 20 4E 30 75 00 00
2025-11-08T02:01:58.397621,25.547,can0  204  [16]  17 1A 50 46 50 46 50 46 FA 19 20 4E 30 75 00 00
2025-11-08T02:01:58.397860,25.548,can0  041  [04]  5E 00 00 00
2025-11-08T02:01:58.398050,25.548,can0  206  [16]  9F 0C D8 07 9F 0C B1 E0 ED 07 C3 0C A7 0C 00 00
2025-11-08T02:01:58.398238,25.548,can0  204  [16]  17 1A 50 46 50 46 50 46 FA 19 20 4E 30 75 00 00
2025-11-08T02:01:58.398946,25.549,can0  204  [16]  17 1A 50 46 50 46 50 46 FA 19 20 4E 30 75 00 00
2025-11-08T02:01:58.399596,25.549,can0  204  [16]  17 1A 50 46 50 46 50 46 FA 19 20 4E 30 75 00 00
2025-11-08T02:01:58.400808,25.550,can0  206  [16]  9F 0C D1 07 9F 0C 99 C6 E9 07 CB 0C A7 0C 00 00
2025-11-08T02:01:59.054243,26.204,can0  204  [16]  17 1A 50 46 50 46 50 46 FA 19 20 4E 30 75 00 00
2025-11-08T02:01:59.055206,26.205,can0  041  [04]  8B 00 00 00
2025-11-08T02:01:59.056094,26.206,can0  204  [16]  17 1A 50 46 50 46 50 46 FA 19 20 4E 30 75 00 00
2025-11-08T02:01:59.056956,26.207,can0  204  [16]  17 1A 50 46 50 46 50 46 FA 19 20 4E 30 75 00 00
2025-11-08T02:01:59.057867,26.208,can0  206  [16]  AB 0C D6 07 97 0C DA DC EB 07 CB 0C A3 0C 00 00
2025-11-08T02:01:59.060203,26.210,can0  204  [16]  17 1A 50 46 50 46 50 46 FA 19 20 4E 30 75 00 00
2025-11-08T02:01:59.060265,26.210,can0  204  [16]  17 1A 50 46 50 46 50 46 FA 19 20 4E 30 75 00 00
2025-11-08T02:01:59.060307,26.210,can0  204  [16]  17 1A 50 46 50 46 50 46 FA 19 20 4E 30 75 00 00
2025-11-08T02:01:59.061798,26.211,can0  206  [16]  A3 0C D6 07 9F 0C DA DC ED 07 C3 0C A3 0C 00 00
2025-11-08T02:01:59.061863,26.212,can0  041  [04]  8B 00 00 00
2025-11-08T02:01:59.064188,26.214,can0  204  [16]  17 1A 50 46 50 46 50 46 FA 19 20 4E 30 75 00 00
2025-11-08T02:01:59.064805,26.214,can0  204  [16]  17 1A 50 46 50 46 50 46 FA 19 20 4E 30 75 00 00
2025-11-08T02:01:59.064853,26.215,can0  206  [16]  A3 0C D3 07 9F 0C 99 C6 EF 07 B7 0C A7 0C 00 00
2025-11-08T02:01:59.068255,26.218,can0  204  [16]  17 1A 50 46 50 46 50 46 FA 19 20 4E 30 75 00 00
2025-11-08T02:01:59.068331,26.218,can0  204  [16]  17 1A 50 46 50 46 50 46 FA 19 20 4E 30 75 00 00
2025-11-08T02:01:59.704427,26.854,can0  041  [04]  8B 00 00 00
2025-11-08T02:01:59.705507,26.855,can0  204  [16]  17 1A 50 46 50 46 50 46 FA 19 20 4E 30 75 00 00
2025-11-08T02:01:59.706428,26.856,can0  206  [16]  AB 0C D6 07 97 0C 3A DF EB 07 CB 0C A3 0C 00 00
2025-11-08T02:01:59.708636,26.858,can0  204  [16]  17 1A 50 46 50 46 50 46 FA 19 20 4E 30 75 00 00
2025-11-08T02:01:59.708685,26.858,can0  204  [16]  17 1A 50 46 50 46 50 46 FA 19 20 4E 30 75 00 00
2025-11-08T02:01:59.708726,26.858,can0  206  [16]  B3 0C D6 07 9B 0C DA DC E9 07 BF 0C 97 0C 00 00
2025-11-08T02:01:59.709641,26.859,can0  204  [16]  17 1A 50 46 50 46 50 46 FA 19 20 4E 30 75 00 00
2025-11-08T02:01:59.712203,26.862,can0  041  [04]  8B 00 02 00
2025-11-08T02:01:59.713965,26.864,can0  204  [16]  17 1A 50 46 50 46 50 46 FA 19 20 4E 30 75 00 00
2025-11-08T02:01:59.717614,26.867,can0  204  [16]  17 1A 50 46 50 46 50 46 FA 19 20 4E 30 75 00 00
2025-11-08T02:01:59.719075,26.869,can0  206  [16]  A7 0C D8 07 9B 0C 99 C6 EB 07 C7 0C A3 0C 00 00
2025-11-08T02:01:59.720845,26.871,can0  204  [16]  17 1A 50 46 50 46 50 46 FA 19 20 4E 30 75 00 00
2025-11-08T02:01:59.723192,26.873,can0  204  [16]  17 1A 50 46 50 46 50 46 FA 19 20 4E 30 75 00 00
2025-11-08T02:01:59.724082,26.874,can0  041  [04]  8B 00 02 00
2025-11-08T02:01:59.726416,26.876,can0  204  [16]  17 1A 50 46 50 46 50 46 FA 19 20 4E 30 75 00 00
2025-11-08T02:01:59.728325,26.878,can0  206  [16]  9B 0C D8 07 A3 0C 3A DF E5 07 C7 0C AB 0C 00 00
2025-11-08T02:01:59.729331,26.879,can0  204  [16]  17 1A 50 46 50 46 50 46 FA 19 20 4E 30 75 00 00
2025-11-08T02:01:59.731391,26.881,can0  204  [16]  17 1A 50 46 50 46 50 46 FA 19 20 4E 30 75 00 00
2025-11-08T02:02:00.374043,27.524,can0  206  [16]  A3 0C D3 07 9F 0C DA DC EB 07 BB 0C A7 0C 00 00
2025-11-08T02:02:00.375438,27.525,can0  204  [16]  17 1A 50 46 50 46 50 46 FA 19 20 4E 30 75 00 00
2025-11-08T02:02:00.376486,27.526,can0  204  [16]  17 1A 50 46 50 46 50 46 FA 19 20 4E 30 75 00 00
2025-11-08T02:02:00.377428,27.527,can0  041  [04]  E4 00 02 00
2025-11-08T02:02:00.378571,27.528,can0  204  [16]  17 1A 50 46 50 46 50 46 FA 19 20 4E 30 75 00 00
2025-11-08T02:02:00.380544,27.530,can0  206  [16]  9B 0C D6 07 9B 0C 99 C6 ED 07 CB 0C AB 0C 00 00
2025-11-08T02:02:00.380897,27.531,can0  204  [16]  17 1A 50 46 50 46 50 46 FA 19 20 4E 30 75 00 00
2025-11-08T02:02:00.383148,27.533,can0  204  [16]  17 1A 50 46 50 46 50 46 FA 19 20 4E 30 75 00 00
2025-11-08T02:02:00.384558,27.534,can0  204  [16]  17 1A 50 46 50 46 50 46 FA 19 20 4E 30 75 00 00
2025-11-08T02:02:00.389670,27.539,can0  206  [16]  9B 0C D6 07 9F 0C DA DC EF 07 C3 0C AF 0C 00 00
2025-11-08T02:02:00.389839,27.540,can0  041  [04]  E4 00 02 00
2025-11-08T02:02:00.390422,27.540,can0  204  [16]  17 1A 50 46 50 46 50 46 FA 19 20 4E 30 75 00 00
2025-11-08T02:02:00.392243,27.542,can0  204  [16]  17 1A 50 46 50 46 50 46 FA 19 20 4E 30 75 00 00
2025-11-08T02:02:00.397156,27.547,can0  206  [16]  9F 0C D6 07 9B 0C 3A DF E9 07 BF 0C AB 0C 00 00
2025-11-08T02:02:00.398710,27.548,can0  204  [16]  17 1A 50 46 50 46 50 46 FA 19 20 4E 30 75 00 00
2025-11-08T02:02:00.403347,27.553,can0  204  [16]  17 1A 50 46 50 46 50 46 FA 19 20 4E 30 75 00 00
2025-11-08T02:02:00.404339,27.554,can0  041  [04]  E4 00 02 00
2025-11-08T02:02:00.408356,27.558,can0  204  [16]  17 1A 50 46 50 46 50 46 FA 19 20 4E 30 75 00 00
2025-11-08T02:02:00.409281,27.559,can0  206  [16]  9F 0C D6 07 9F 0C 99 C6 ED 07 BF 0C AB 0C 00 00
2025-11-08T02:02:01.209790,28.359,can0  204  [16]  17 1A 50 46 50 46 50 46 FA 19 20 4E 30 75 00 00
2025-11-08T02:02:01.211222,28.361,can0  204  [16]  17 1A 50 46 50 46 50 46 FA 19 20 4E 30 75 00 00
2025-11-08T02:02:01.212345,28.362,can0  206  [16]  9B 0C D6 07 A3 0C DA DC E9 07 BB 0C AF 0C 00 00
2025-11-08T02:02:01.213448,28.363,can0  204  [16]  17 1A 50 46 50 46 50 46 FA 19 20 4E 30 75 00 00
2025-11-08T02:02:01.214842,28.365,can0  204  [16]  17 1A 50 46 50 46 50 46 FA 19 20 4E 30 75 00 00
2025-11-08T02:02:01.215881,28.366,can0  041  [04]  E4 00 02 00
2025-11-08T02:02:01.216996,28.367,can0  204  [16]  17 1A 50 46 50 46 50 46 FA 19 20 4E 30 75 00 00
2025-11-08T02:02:01.218017,28.368,can0  206  [16]  A3 0C D8 07 9F 0C DA DC ED 07 BB 0C A7 0C 00 00
2025-11-08T02:02:01.219595,28.369,can0  204  [16]  17 1A 50 46 50 46 50 46 FA 19 20 4E 30 75 00 00
2025-11-08T02:02:01.221063,28.371,can0  204  [16]  17 1A 50 46 50 46 50 46 FA 19 20 4E 30 75 00 00
2025-11-08T02:02:01.222097,28.372,can0  204  [16]  17 1A 50 46 50 46 50 46 FA 19 20 4E 30 75 00 00
2025-11-08T02:02:01.223086,28.373,can0  206  [16]  AB 0C D8 07 A3 0C DA DC ED 07 BF 0C 9B 0C 00 00
2025-11-08T02:02:01.223940,28.374,can0  041  [04]  E4 00 00 00
2025-11-08T02:02:01.224880,28.375,can0  204  [16]  17 1A 50 46 50 46 50 46 FA 19 20 4E 30 75 00 00
2025-11-08T02:02:01.226404,28.376,can0  204  [16]  17 1A 50 46 50 46 50 46 FA 19 20 4E 30 75 00 00
2025-11-08T02:02:01.227456,28.377,can0  206  [16]  9F 0C D3 07 9B 0C 3A DF E9 07 C3 0C AB 0C 00 00
2025-11-08T02:02:01.228416,28.378,can0  204  [16]  17 1A 50 46 50 46 50 46 FA 19 20 4E 30 75 00 00
2025-11-08T02:02:01.229380,28.379,can0  204  [16]  17 1A 50 46 50 46 50 46 FA 19 20 4E 30 75 00 00
2025-11-08T02:02:01.230986,28.381,can0  041  [04]  8B 00 00 00
2025-11-08T02:02:01.232357,28.382,can0  204  [16]  17 1A 50 46 50 46 50 46 FA 19 20 4E 30 75 00 00
2025-11-08T02:02:01.234472,28.384,can0  206  [16]  9B 0C D3 07 9B 0C 99 C6 EB 07 BB 0C AF 0C 00 00
2025-11-08T02:02:01.901214,29.051,can0  204  [16]  17 1A 50 46 50 46 50 46 FA 19 20 4E 30 75 00 00
2025-11-08T02:02:01.908305,29.058,can0  204  [16]  17 1A 50 46 50 46 50 46 FA 19 20 4E 30 75 00 00
2025-11-08T02:02:01.918228,29.068,can0  204  [16]  17 1A 50 46 50 46 50 46 FA 19 20 4E 30 75 00 00
2025-11-08T02:02:01.918331,29.068,can0  206  [16]  9F 0C D3 07 9F 0C 99 C6 EB 07 BF 0C AB 0C 00 00
2025-11-08T02:02:01.918821,29.068,can0  041  [04]  8B 00 02 00
2025-11-08T02:02:01.918877,29.069,can0  204  [16]  17 1A 50 46 50 46 50 46 FA 19 20 4E 30 75 00 00
2025-11-08T02:02:01.922100,29.072,can0  204  [16]  17 1A 50 46 50 46 50 46 FA 19 20 4E 30 75 00 00
2025-11-08T02:02:01.923115,29.073,can0  206  [16]  97 0C D6 07 9F 0C 99 C6 E9 07 BB 0C B3 0C 00 00
2025-11-08T02:02:01.923840,29.074,can0  204  [16]  17 1A 50 46 50 46 50 46 FA 19 20 4E 30 75 00 00
2025-11-08T02:02:01.924527,29.074,can0  204  [16]  17 1A 50 46 50 46 50 46 FA 19 20 4E 30 75 00 00
2025-11-08T02:02:01.925940,29.076,can0  204  [16]  17 1A 50 46 50 46 50 46 FA 19 20 4E 30 75 00 00
2025-11-08T02:02:01.926573,29.076,can0  041  [04]  E4 00 02 00
2025-11-08T02:02:01.927258,29.077,can0  206  [16]  A3 0C D8 07 9B 0C C5 E1 EB 07 C3 0C AB 0C 00 00
2025-11-08T02:02:01.928511,29.078,can0  204  [16]  17 1A 50 46 50 46 50 46 FA 19 20 4E 30 75 00 00
2025-11-08T02:02:01.934484,29.084,can0  204  [16]  17 1A 50 46 50 46 50 46 FA 19 20 4E 30 75 00 00
2025-11-08T02:02:01.936626,29.086,can0  204  [16]  17 1A 50 46 50 46 50 46 FA 19 20 4E 30 75 00 00
2025-11-08T02:02:01.938466,29.088,can0  206  [16]  97 0C D6 07 9F 0C 99 C6 09 08 C3 0C B3 0C 00 00
2025-11-08T02:02:02.619679,29.769,can0  204  [16]  17 1A 50 46 50 46 50 46 FA 19 20 4E 30 75 00 00
2025-11-08T02:02:02.620233,29.770,can0  041  [04]  E4 00 02 00
2025-11-08T02:02:02.620852,29.771,can0  204  [16]  17 1A 50 46 50 46 50 46 FA 19 20 4E 30 75 00 00
2025-11-08T02:02:02.621592,29.771,can0  206  [16]  A3 0C D8 07 9F 0C DA DC ED 07 BF 0C A3 0C 00 00
2025-11-08T02:02:02.622392,29.772,can0  204  [16]  17 1A 50 46 50 46 50 46 FA 19 20 4E 30 75 00 00
2025-11-08T02:02:02.623096,29.773,can0  204  [16]  17 1A 50 46 50 46 50 46 FA 19 20 4E 30 75 00 00
2025-11-08T02:02:02.624075,29.774,can0  204  [16]  17 1A 50 46 50 46 50 46 FA 19 20 4E 30 75 00 00
2025-11-08T02:02:02.626591,29.776,can0  206  [16]  CF 0C D1 07 77 0C DA DC ED 07 BB 0C A3 0C 00 00
2025-11-08T02:02:02.626642,29.776,can0  041  [04]  E4 00 02 00
2025-11-08T02:02:02.626684,29.776,can0  204  [16]  17 1A 50 46 50 46 50 46 FA 19 20 4E 30 75 00 00
2025-11-08T02:02:02.627666,29.777,can0  204  [16]  17 1A 50 46 50 46 50 46 FA 19 20 4E 30 75 00 00
2025-11-08T02:02:02.628582,29.778,can0  206  [16]  A7 0C D6 07 9B 0C 3A DF ED 07 BF 0C A7 0C 00 00
2025-11-08T02:02:02.629469,29.779,can0  204  [16]  17 1A 50 46 50 46 50 46 FA 19 20 4E 30 75 00 00
2025-11-08T02:02:02.630356,29.780,can0  204  [16]  17 1A 50 46 50 46 50 46 FA 19 20 4E 30 75 00 00
2025-11-08T02:02:02.631180,29.781,can0  041  [04]  B5 00 02 00
2025-11-08T02:02:02.632729,29.782,can0  204  [16]  17 1A 50 46 50 46 50 46 FA 19 20 4E 30 75 00 00
2025-11-08T02:02:02.632986,29.783,can0  206  [16]  9F 0C D6 07 9F 0C 99 C6 ED 07 BF 0C AB 0C 00 00
2025-11-08T02:02:02.633615,29.783,can0  204  [16]  17 1A 50 46 50 46 50 46 FA 19 20 4E 30 75 00 00
2025-11-08T02:02:02.635901,29.786,can0  204  [16]  17 1A 50 46 50 46 50 46 FA 19 20 4E 30 75 00 00
2025-11-08T02:02:03.280295,30.430,can0  204  [16]  17 1A 50 46 50 46 50 46 FA 19 20 4E 30 75 00 00
2025-11-08T02:02:03.281477,30.431,can0  206  [16]  AF 0C D3 07 9B 0C 99 C6 EB 07 C7 0C 9B 0C 00 00
2025-11-08T02:02:03.282433,30.432,can0  204  [16]  17 1A 50 46 50 46 50 46 FA 19 20 4E 30 75 00 00
2025-11-08T02:02:03.283417,30.433,can0  041  [04]  B5 00 02 00
2025-11-08T02:02:03.284326,30.434,can0  204  [16]  17 1A 50 46 50 46 50 46 FA 19 20 4E 30 75 00 00
2025-11-08T02:02:03.285259,30.435,can0  204  [16]  17 1A 50 46 50 46 50 46 FA 19 20 4E 30 75 00 00
2025-11-08T02:02:03.286108,30.436,can0  206  [16]  9F 0C D8 07 9B 0C DA DC EF 07 CB 0C AB 0C 00 00
2025-11-08T02:02:03.287102,30.437,can0  204  [16]  17 1A 50 46 50 46 50 46 FA 19 20 4E 30 75 00 00
2025-11-08T02:02:03.288013,30.438,can0  204  [16]  17 1A 50 46 50 46 50 46 FA 19 20 4E 30 75 00 00
2025-11-08T02:02:03.288843,30.439,can0  041  [04]  B5 00 02 00
2025-11-08T02:02:03.291471,30.441,can0  206  [16]  9F 0C D3 07 93 0C DA DC E9 07 BB 0C A7 0C 00 00
2025-11-08T02:02:03.291527,30.441,can0  204  [16]  17 1A 50 46 50 46 50 46 FA 19 20 4E 30 75 00 00
2025-11-08T02:02:03.292204,30.442,can0  204  [16]  17 1A 50 46 50 46 50 46 FA 19 20 4E 30 75 00 00
2025-11-08T02:02:03.294292,30.444,can0  204  [16]  17 1A 50 46 50 46 50 46 FA 19 20 4E 30 75 00 00
2025-11-08T02:02:03.296348,30.446,can0  206  [16]  9F 0C D1 07 9F 0C 99 C6 E5 07 BB 0C AB 0C 00 00
2025-11-08T02:02:03.298493,30.448,can0  204  [16]  17 1A 50 46 50 46 50 46 FA 19 20 4E 30 75 00 00
2025-11-08T02:02:03.299373,30.449,can0  041  [04]  B5 00 02 00
2025-11-08T02:02:03.300313,30.450,can0  204  [16]  17 1A 50 46 50 46 50 46 FA 19 20 4E 30 75 00 00
2025-11-08T02:02:03.945330,31.095,can0  206  [16]  9F 0C D1 07 9B 0C 99 C6 ED 07 C3 0C AB 0C 00 00
2025-11-08T02:02:03.946059,31.096,can0  204  [16]  17 1A 50 46 50 46 50 46 FA 19 20 4E 30 75 00 00
2025-11-08T02:02:03.947184,31.097,can0  204  [16]  17 1A 50 46 50 46 50 46 FA 19 20 4E 30 75 00 00
2025-11-08T02:02:03.948279,31.098,can0  204  [16]  17 1A 50 46 50 46 50 46 FA 19 20 4E 30 75 00 00
2025-11-08T02:02:03.949892,31.100,can0  206  [16]  A7 0C D6 07 9B 0C 99 C6 ED 07 BF 0C A7 0C 00 00
2025-11-08T02:02:03.950928,31.101,can0  041  [04]  B5 00 05 00
2025-11-08T02:02:03.952772,31.102,can0  204  [16]  17 1A 50 46 50 46 50 46 FA 19 20 4E 30 75 00 00
2025-11-08T02:02:03.953077,31.103,can0  204  [16]  17 1A 50 46 50 46 50 46 FA 19 20 4E 30 75 00 00
2025-11-08T02:02:03.954736,31.104,can0  204  [16]  17 1A 50 46 50 46 50 46 FA 19 20 4E 30 75 00 00
2025-11-08T02:02:03.955102,31.105,can0  206  [16]  9F 0C D3 07 A7 0C B1 E0 ED 07 B3 0C AB 0C 00 00
2025-11-08T02:02:03.960465,31.110,can0  204  [16]  17 1A 50 46 50 46 50 46 FA 19 20 4E 30 75 00 00
2025-11-08T02:02:03.960532,31.110,can0  204  [16]  17 1A 50 46 50 46 50 46 FA 19 20 4E 30 75 00 00
2025-11-08T02:02:03.960582,31.110,can0  041  [04]  AA 00 05 00
2025-11-08T02:02:03.960620,31.110,can0  204  [16]  17 1A 50 46 50 46 50 46 FA 19 20 4E 30 75 00 00
2025-11-08T02:02:03.960655,31.110,can0  206  [16]  9B 0C D3 07 A3 0C 3A DF E3 07 C7 0C A7 0C 00 00
2025-11-08T02:02:04.612655,31.762,can0  204  [16]  17 1A 50 46 50 46 50 46 FA 19 20 4E 30 75 00 00
2025-11-08T02:02:04.614389,31.764,can0  204  [16]  17 1A 50 46 50 46 50 46 FA 19 20 4E 30 75 00 00
2025-11-08T02:02:04.615911,31.766,can0  206  [16]  9F 0C D3 07 AF 0C DA DC ED 07 AF 0C AB 0C 00 00
2025-11-08T02:02:04.616524,31.766,can0  204  [16]  17 1A 50 46 50 46 50 46 FA 19 20 4E 30 75 00 00
2025-11-08T02:02:04.620453,31.770,can0  041  [04]  B5 00 05 00
2025-11-08T02:02:04.620503,31.770,can0  204  [16]  17 1A 50 46 50 46 50 46 FA 19 20 4E 30 75 00 00
2025-11-08T02:02:04.620540,31.770,can0  204  [16]  17 1A 50 46 50 46 50 46 FA 19 20 4E 30 75 00 00
2025-11-08T02:02:04.621229,31.771,can0  206  [16]  9F 0C D3 07 A3 0C 99 C6 EB 07 BF 0C AB 0C 00 00
2025-11-08T02:02:04.621931,31.772,can0  204  [16]  17 1A 50 46 50 46 50 46 FA 19 20 4E 30 75 00 00
2025-11-08T02:02:04.622245,31.772,can0  204  [16]  17 1A 50 46 50 46 50 46 FA 19 20 4E 30 75 00 00
2025-11-08T02:02:04.622903,31.773,can0  041  [04]  B5 00 05 00
2025-11-08T02:02:04.623627,31.773,can0  206  [16]  9F 0C DA 07 9F 0C DA DC ED 07 C7 0C AB 0C 00 00
2025-11-08T02:02:04.624347,31.774,can0  204  [16]  17 1A 50 46 50 46 50 46 FA 19 20 4E 30 75 00 00
2025-11-08T02:02:04.628586,31.778,can0  204  [16]  17 1A 50 46 50 46 50 46 FA 19 20 4E 30 75 00 00
2025-11-08T02:02:04.628649,31.778,can0  204  [16]  17 1A 50 46 50 46 50 46 FA 19 20 4E 30 75 00 00
2025-11-08T02:02:04.629039,31.779,can0  206  [16]  A3 0C D8 07 BF 0C A0 E2 E9 07 A3 0C A3 0C 00 00
2025-11-08T02:02:04.629099,31.779,can0  204  [16]  17 1A 50 46 50 46 50 46 FA 19 20 4E 30 75 00 00
2025-11-08T02:02:05.315901,32.466,can0  041  [04]  B5 00 05 00
2025-11-08T02:02:05.316487,32.466,can0  204  [16]  17 1A 50 46 50 46 50 46 FA 19 20 4E 30 75 00 00
2025-11-08T02:02:05.319575,32.469,can0  204  [16]  17 1A 50 46 50 46 50 46 FA 19 20 4E 30 75 00 00
2025-11-08T02:02:05.319625,32.469,can0  206  [16]  83 0C D8 07 A3 0C B1 E0 E3 07 C3 0C C3 0C 00 00
2025-11-08T02:02:05.319662,32.469,can0  204  [16]  17 1A 50 46 50 46 50 46 FA 19 20 4E 30 75 00 00
2025-11-08T02:02:05.319698,32.469,can0  204  [16]  17 1A 50 46 50 46 50 46 FA 19 20 4E 30 75 00 00
2025-11-08T02:02:05.320619,32.470,can0  206  [16]  A7 0C D6 07 9B 0C 7E E4 ED 07 BF 0C A3 0C 00 00
2025-11-08T02:02:05.324178,32.474,can0  204  [16]  17 1A 50 46 50 46 50 46 FA 19 20 4E 30 75 00 00
2025-11-08T02:02:05.324240,32.474,can0  041  [04]  B5 00 05 00
2025-11-08T02:02:05.324277,32.474,can0  204  [16]  17 1A 50 46 50 46 50 46 FA 19 20 4E 30 75 00 00
2025-11-08T02:02:05.324313,32.474,can0  204  [16]  17 1A 50 46 50 46 50 46 FA 19 20 4E 30 75 00 00
2025-11-08T02:02:05.324985,32.475,can0  206  [16]  A3 0C D6 07 A3 0C DA DC EB 07 BB 0C A7 0C 00 00
2025-11-08T02:02:05.325908,32.476,can0  204  [16]  17 1A 50 46 50 46 50 46 FA 19 20 4E 30 75 00 00
2025-11-08T02:02:05.326864,32.477,can0  204  [16]  17 1A 50 46 50 46 50 46 FA 19 20 4E 30 75 00 00
2025-11-08T02:02:05.328604,32.478,can0  041  [04]  B5 00 02 00
2025-11-08T02:02:05.329087,32.479,can0  204  [16]  17 1A 50 46 50 46 50 46 FA 19 20 4E 30 75 00 00
2025-11-08T02:02:05.331188,32.481,can0  206  [16]  9B 0C C7 07 9F 0C 3A DF ED 07 B7 0C AF 0C 00 00
2025-11-08T02:02:05.994905,33.145,can0  204  [16]  17 1A 50 46 50 46 50 46 FA 19 20 4E 30 75 00 00
2025-11-08T02:02:05.996213,33.146,can0  204  [16]  17 1A 50 46 50 46 50 46 FA 19 20 4E 30 75 00 00
2025-11-08T02:02:05.997231,33.147,can0  206  [16]  A3 0C D6 07 9B 0C DA DC ED 07 BF 0C A7 0C 00 00
2025-11-08T02:02:05.998178,33.148,can0  204  [16]  17 1A 50 46 50 46 50 46 FA 19 20 4E 30 75 00 00
2025-11-08T02:02:05.998830,33.149,can0  041  [04]  B5 00 02 00
2025-11-08T02:02:05.999758,33.149,can0  204  [16]  17 1A 50 46 50 46 50 46 FA 19 20 4E 30 75 00 00
2025-11-08T02:02:06.000693,33.150,can0  204  [16]  17 1A 50 46 50 46 50 46 FA 19 20 4E 30 75 00 00
2025-11-08T02:02:06.004387,33.154,can0  206  [16]  9B 0C D6 07 A3 0C 99 C6 EB 07 C3 0C AB 0C 00 00
2025-11-08T02:02:06.004443,33.154,can0  204  [16]  17 1A 50 46 50 46 50 46 FA 19 20 4E 30 75 00 00
2025-11-08T02:02:06.004474,33.154,can0  204  [16]  17 1A 50 46 50 46 50 46 FA 19 20 4E 30 75 00 00
2025-11-08T02:02:06.004980,33.155,can0  041  [04]  9F 00 02 00
2025-11-08T02:02:06.006355,33.156,can0  204  [16]  17 1A 50 46 50 46 50 46 FA 19 20 4E 30 75 00 00
2025-11-08T02:02:06.010731,33.160,can0  206  [16]  AF 0C D3 07 87 0C DA DC E9 07 C3 0C AB 0C 00 00
2025-11-08T02:02:06.010808,33.160,can0  204  [16]  17 1A 50 46 50 46 50 46 FA 19 20 4E 30 75 00 00
2025-11-08T02:02:06.010838,33.161,can0  204  [16]  17 1A 50 46 50 46 50 46 FA 19 20 4E 30 75 00 00
2025-11-08T02:02:06.015153,33.165,can0  206  [16]  A7 0C D6 07 9F 0C 99 C6 EB 07 BF 0C A3 0C 00 00
2025-11-08T02:02:06.016690,33.166,can0  204  [16]  17 1A 50 46 50 46 50 46 FA 19 20 4E 30 75 00 00
2025-11-08T02:02:06.018153,33.168,can0  204  [16]  17 1A 50 46 50 46 50 46 FA 19 20 4E 30 75 00 00
2025-11-08T02:02:06.019368,33.169,can0  041  [04]  8B 00 02 00
2025-11-08T02:02:06.020591,33.170,can0  204  [16]  17 1A 50 46 50 46 50 46 FA 19 20 4E 30 75 00 00
2025-11-08T02:02:06.021886,33.172,can0  206  [16]  9F 0C D6 07 A7 0C 99 C6 EB 07 C3 0C A7 0C 00 00
2025-11-08T02:02:06.766156,33.916,can0  204  [16]  17 1A 50 46 50 46 50 46 FA 19 20 4E 30 75 00 00
2025-11-08T02:02:06.767507,33.917,can0  204  [16]  17 1A 50 46 50 46 50 46 FA 19 20 4E 30 75 00 00
2025-11-08T02:02:06.768484,33.918,can0  206  [16]  9F 0C D3 07 9F 0C 99 C6 ED 07 C3 0C AB 0C 00 00
2025-11-08T02:02:06.769401,33.919,can0  204  [16]  17 1A 50 46 50 46 50 46 FA 19 20 4E 30 75 00 00
2025-11-08T02:02:06.770209,33.920,can0  041  [04]  8B 00 02 00
2025-11-08T02:02:06.771969,33.922,can0  204  [16]  17 1A 50 46 50 46 50 46 FA 19 20 4E 30 75 00 00
2025-11-08T02:02:06.773065,33.923,can0  204  [16]  17 1A 50 46 50 46 50 46 FA 19 20 4E 30 75 00 00
2025-11-08T02:02:06.773118,33.923,can0  206  [16]  B3 0C D3 07 97 0C DA DC EB 07 C7 0C 9B 0C 00 00
2025-11-08T02:02:06.773989,33.924,can0  204  [16]  17 1A 50 46 50 46 50 46 FA 19 20 4E 30 75 00 00
2025-11-08T02:02:06.776755,33.926,can0  204  [16]  17 1A 50 46 50 46 50 46 FA 19 20 4E 30 75 00 00
2025-11-08T02:02:06.776815,33.926,can0  041  [04]  9F 00 02 00
2025-11-08T02:02:06.777343,33.927,can0  204  [16]  17 1A 50 46 50 46 50 46 FA 19 20 4E 30 75 00 00
2025-11-08T02:02:06.778463,33.928,can0  206  [16]  A7 0C D6 07 A3 0C 3A DF E9 07 BF 0C A3 0C 00 00
2025-11-08T02:02:06.781405,33.931,can0  204  [16]  17 1A 50 46 50 46 50 46 FA 19 20 4E 30 75 00 00
2025-11-08T02:02:06.781455,33.931,can0  204  [16]  17 1A 50 46 50 46 50 46 FA 19 20 4E 30 75 00 00
2025-11-08T02:02:06.782087,33.932,can0  206  [16]  A7 0C D6 07 93 0C 3A DF EB 07 CB 0C A3 0C 00 00
2025-11-08T02:02:06.785479,33.935,can0  204  [16]  17 1A 50 46 50 46 50 46 FA 19 20 4E 30 75 00 00
2025-11-08T02:02:07.431259,34.581,can0  041  [04]  B5 00 02 00
2025-11-08T02:02:07.432398,34.582,can0  204  [16]  17 1A 50 46 50 46 50 46 FA 19 20 4E 30 75 00 00
2025-11-08T02:02:07.445473,34.595,can0  204  [16]  17 1A 50 46 50 46 50 46 FA 19 20 4E 30 75 00 00
2025-11-08T02:02:07.456641,34.606,can0  206  [16]  9B 0C D6 07 A7 0C A0 E2 ED 07 BB 0C A7 0C 00 00
2025-11-08T02:02:07.456922,34.607,can0  204  [16]  17 1A 50 46 50 46 50 46 FA 19 20 4E 30 75 00 00
2025-11-08T02:02:07.457054,34.607,can0  204  [16]  17 1A 50 46 50 46 50 46 FA 19 20 4E 30 75 00 00
2025-11-08T02:02:07.457184,34.607,can0  204  [16]  17 1A 50 46 50 46 50 46 FA 19 20 4E 30 75 00 00
2025-11-08T02:02:07.457310,34.607,can0  206  [16]  B3 0C D6 07 97 0C 99 C6 ED 07 C7 0C 9B 0C 00 00
2025-11-08T02:02:07.457346,34.607,can0  041  [04]  B5 00 02 00
2025-11-08T02:02:07.457382,34.607,can0  204  [16]  17 1A 50 46 50 46 50 46 FA 19 20 4E 30 75 00 00
2025-11-08T02:02:07.457414,34.607,can0  204  [16]  17 1A 50 46 50 46 50 46 FA 19 20 4E 30 75 00 00
2025-11-08T02:02:07.457457,34.607,can0  206  [16]  9B 0C D1 07 9F 0C 3A DF ED 07 C3 0C AF 0C 00 00
2025-11-08T02:02:07.457492,34.607,can0  204  [16]  17 1A 50 46 50 46 50 46 FA 19 20 4E 30 75 00 00
2025-11-08T02:02:07.457520,34.607,can0  204  [16]  17 1A 50 46 50 46 50 46 FA 19 20 4E 30 75 00 00
2025-11-08T02:02:07.457551,34.607,can0  041  [04]  B5 00 02 00
2025-11-08T02:02:07.457582,34.607,can0  204  [16]  17 1A 50 46 50 46 50 46 FA 19 20 4E 30 75 00 00
2025-11-08T02:02:07.457610,34.607,can0  206  [16]  9B 0C DA 07 8F 0C 3A DF ED 07 D3 0C AB 0C 00 00
2025-11-08T02:02:07.457640,34.607,can0  204  [16]  17 1A 50 46 50 46 50 46 FA 19 20 4E 30 75 00 00
