Timestamp,Elapsed_Time_s,CAN_Message
2025-11-08T01:11:59.418420,1.413,can0  206  [16]  A7 0C D1 07 9F 0C 3A DF ED 07 BF 0C A3 0C 00 00
2025-11-08T01:11:59.419850,1.414,can0  204  [16]  8D 2E 50 46 50 46 50 46 E0 2E 40 9C 30 75 F4 01
2025-11-08T01:12:00.373332,2.367,can0  204  [16]  8D 2E 50 46 50 46 50 46 E0 2E 40 9C 30 75 F4 01
2025-11-08T01:12:00.375599,2.370,can0  204  [16]  8D 2E 50 46 50 46 50 46 E0 2E 40 9C 30 75 F4 01
2025-11-08T01:12:00.375657,2.370,can0  041  [04]  2F 00 00 00
2025-11-08T01:12:00.377017,2.371,can0  206  [16]  A7 0C D1 07 A3 0C 3A DF E7 07 BF 0C A3 0C 00 00
2025-11-08T01:12:00.377939,2.372,can0  204  [16]  8D 2E 50 46 50 46 50 46 E0 2E 40 9C 30 75 F4 01
2025-11-08T01:12:00.390239,2.384,can0  204  [16]  8D 2E 50 46 50 46 50 46 E0 2E 40 9C 30 75 F4 01
2025-11-08T01:12:00.390303,2.384,can0  204  [16]  8D 2E 50 46 50 46 50 46 E0 2E 40 9C 30 75 F4 01
2025-11-08T01:12:00.390345,2.384,can0  206  [16]  A3 0C CF 07 9B 0C 99 C6 E7 07 CF 0C A7 0C 00 00
2025-11-08T01:12:00.390391,2.384,can0  204  [16]  8D 2E 50 46 50 46 50 46 E0 2E 40 9C 30 75 F4 01
2025-11-08T01:12:00.390435,2.385,can0  041  [04]  2F 00 02 00
2025-11-08T01:12:00.390475,2.385,can0  204  [16]  8D 2E 50 46 50 46 50 46 E0 2E 40 9C 30 75 F4 01
2025-11-08T01:12:00.390518,2.385,can0  206  [16]  A7 0C D1 07 A3 0C DA DC E7 07 C3 0C 9F 0C 00 00
2025-11-08T01:12:00.390558,2.385,can0  204  [16]  8D 2E 50 46 50 46 50 46 E0 2E 40 9C 30 75 F4 01
2025-11-08T01:12:00.390599,2.385,can0  204  [16]  8D 2E 50 46 50 46 50 46 E0 2E 40 9C 30 75 F4 01
2025-11-08T01:12:00.394505,2.389,can0  204  [16]  8D 2E 50 46 50 46 50 46 E0 2E 40 9C 30 75 F4 01
2025-11-08T01:12:00.396983,2.391,can0  206  [16]  7B 0C CD 07 9B 0C DA DC E9 07 C7 0C CF 0C 00 00
2025-11-08T01:12:00.398472,2.393,can0  041  [04]  2F 00 02 00
2025-11-08T01:12:00.400605,2.395,can0  204  [16]  8D 2E 50 46 50 46 50 46 E0 2E 40 9C 30 75 F4 01
2025-11-08T01:12:00.402436,2.397,can0  204  [16]  8D 2E 50 46 50 46 50 46 E0 2E 40 9C 30 75 F4 01
2025-11-08T01:12:00.410945,2.405,can0  204  [16]  8D 2E 50 46 50 46 50 46 E0 2E 40 9C 30 75 F4 01
2025-11-08T01:12:00.411156,2.405,can0  206  [16]  B7 0C D3 07 9F 0C DA DC E9 07 BB 0C 97 0C 00 00
2025-11-08T01:12:00.411314,2.405,can0  204  [16]  8D 2E 50 46 50 46 50 46 E0 2E 40 9C 30 75 F4 01
2025-11-08T01:12:00.411357,2.405,can0  204  [16]  8D 2E 50 46 50 46 50 46 E0 2E 40 9C 30 75 F4 01
2025-11-08T01:12:00.411466,2.406,can0  041  [04]  2F 00 02 00
2025-11-08T01:12:00.411509,2.406,can0  206  [16]  9F 0C CF 07 9B 0C 3A DF E5 07 C7 0C AF 0C 00 00
2025-11-08T01:12:00.413631,2.408,can0  204  [16]  8D 2E 50 46 50 46 50 46 E0 2E 40 9C 30 75 F4 01
2025-11-08T01:12:00.414394,2.408,can0  204  [16]  8D 2E 50 46 50 46 50 46 E0 2E 40 9C 30 75 F4 01
2025-11-08T01:12:01.517937,3.512,can0  204  [16]  8D 2E 50 46 50 46 50 46 E0 2E 40 9C 30 75 F4 01
2025-11-08T01:12:01.519892,3.514,can0  206  [16]  A3 0C D6 07 9B 0C DA DC E7 07 C3 0C AB 0C 00 00
2025-11-08T01:12:01.520782,3.515,can0  204  [16]  8D 2E 50 46 50 46 50 46 E0 2E 40 9C 30 75 F4 01
2025-11-08T01:12:01.521452,3.516,can0  041  [04]  2F 00 00 00
2025-11-08T01:12:01.522192,3.516,can0  204  [16]  8D 2E 50 46 50 46 50 46 E0 2E 40 9C 30 75 F4 01
2025-11-08T01:12:01.523962,3.518,can0  204  [16]  8D 2E 50 46 50 46 50 46 E0 2E 40 9C 30 75 F4 01
2025-11-08T01:12:01.524123,3.518,can0  206  [16]  A7 0C CF 07 93 0C 99 C6 E9 07 C7 0C AB 0C 00 00
2025-11-08T01:12:01.524391,3.518,can0  204  [16]  8D 2E 50 46 50 46 50 46 E0 2E 40 9C 30 75 F4 01
2025-11-08T01:12:01.525089,3.519,can0  204  [16]  8D 2E 50 46 50 46 50 46 E0 2E 40 9C 30 75 F4 01
2025-11-08T01:12:01.526353,3.520,can0  206  [16]  9F 0C D1 07 B3 0C 57 E3 EB 07 AF 0C AB 0C 00 00
2025-11-08T01:12:01.527322,3.521,can0  041  [04]  02 00 02 00
2025-11-08T01:12:01.528230,3.522,can0  204  [16]  8D 2E 50 46 50 46 50 46 E0 2E 40 9C 30 75 F4 01
2025-11-08T01:12:01.529244,3.523,can0  204  [16]  8D 2E 50 46 50 46 50 46 E0 2E 40 9C 30 75 F4 01
2025-11-08T01:12:01.530195,3.524,can0  204  [16]  8D 2E 50 46 50 46 50 46 E0 2E 40 9C 30 75 F4 01
2025-11-08T01:12:01.531296,3.525,can0  206  [16]  9B 0C D1 07 9F 0C 57 E3 EB 07 C3 0C AF 0C 00 00
2025-11-08T01:12:01.533188,3.527,can0  204  [16]  8D 2E 50 46 50 46 50 46 E0 2E 40 9C 30 75 F4 01
2025-11-08T01:12:01.534444,3.529,can0  204  [16]  8D 2E 50 46 50 46 50 46 E0 2E 40 9C 30 75 F4 01
2025-11-08T01:12:01.537070,3.531,can0  041  [04]  2F 00 02 00
2025-11-08T01:12:01.537904,3.532,can0  204  [16]  8D 2E 50 46 50 46 50 46 E0 2E 40 9C 30 75 F4 01
2025-11-08T01:12:01.538751,3.533,can0  206  [16]  A3 0C D1 07 9F 0C DA DC E5 07 BF 0C A7 0C 00 00
2025-11-08T01:12:01.540249,3.534,can0  204  [16]  8D 2E 50 46 50 46 50 46 E0 2E 40 9C 30 75 F4 01
2025-11-08T01:12:01.541293,3.535,can0  204  [16]  8D 2E 50 46 50 46 50 46 E0 2E 40 9C 30 75 F4 01
2025-11-08T01:12:01.542157,3.536,can0  206  [16]  9F 0C D8 07 9F 0C 57 E3 E7 07 A3 0C AB 0C 00 00
2025-11-08T01:12:01.542908,3.537,can0  204  [16]  8D 2E 50 46 50 46 50 46 E0 2E 40 9C 30 75 F4 01
2025-11-08T01:12:01.543752,3.538,can0  041  [04]  2F 00 02 00
2025-11-08T01:12:01.544539,3.539,can0  204  [16]  8D 2E 50 46 50 46 50 46 E0 2E 40 9C 30 75 F4 01
2025-11-08T01:12:01.545349,3.539,can0  204  [16]  8D 2E 50 46 50 46 50 46 E0 2E 40 9C 30 75 F4 01
2025-11-08T01:12:01.547309,3.541,can0  206  [16]  AF 0C CD 07 93 0C DA DC F6 07 BF 0C A7 0C 00 00
2025-11-08T01:12:01.548222,3.542,can0  204  [16]  8D 2E 50 46 50 46 50 46 E0 2E 40 9C 30 75 F4 01
2025-11-08T01:12:02.341515,4.336,can0  204  [16]  8D 2E 50 46 50 46 50 46 E0 2E 40 9C 30 75 F4 01
2025-11-08T01:12:02.341592,4.336,can0  041  [04]  2F 00 02 00
2025-11-08T01:12:02.341629,4.336,can0  204  [16]  8D 2E 50 46 50 46 50 46 E0 2E 40 9C 30 75 F4 01
2025-11-08T01:12:02.341662,4.336,can0  206  [16]  97 0C D1 07 A3 0C DA DC EB 07 B7 0C AB 0C 00 00
2025-11-08T01:12:02.342417,4.336,can0  204  [16]  8D 2E 50 46 50 46 50 46 E0 2E 40 9C 30 75 F4 01
2025-11-08T01:12:02.343569,4.338,can0  204  [16]  8D 2E 50 46 50 46 50 46 E0 2E 40 9C 30 75 F4 01
2025-11-08T01:12:02.344417,4.338,can0  206  [16]  9B 0C CF 07 A3 0C B1 E0 E7 07 C7 0C A7 0C 00 00
2025-11-08T01:12:02.345311,4.339,can0  204  [16]  8D 2E 50 46 50 46 50 46 E0 2E 40 9C 30 75 F4 01
2025-11-08T01:12:02.346358,4.340,can0  041  [04]  2F 00 02 00
2025-11-08T01:12:02.347319,4.341,can0  204  [16]  8D 2E 50 46 50 46 50 46 E0 2E 40 9C 30 75 F4 01
2025-11-08T01:12:02.348251,4.342,can0  204  [16]  8D 2E 50 46 50 46 50 46 E0 2E 40 9C 30 75 F4 01
2025-11-08T01:12:02.349585,4.344,can0  206  [16]  9B 0C D3 07 A3 0C 3A DF E5 07 C7 0C AB 0C 00 00
2025-11-08T01:12:02.350630,4.345,can0  204  [16]  8D 2E 50 46 50 46 50 46 E0 2E 40 9C 30 75 F4 01
2025-11-08T01:12:02.351587,4.346,can0  204  [16]  8D 2E 50 46 50 46 50 46 E0 2E 40 9C 30 75 F4 01
2025-11-08T01:12:02.352520,4.347,can0  204  [16]  8D 2E 50 46 50 46 50 46 E0 2E 40 9C 30 75 F4 01
2025-11-08T01:12:02.357353,4.351,can0  041  [04]  02 00 02 00
2025-11-08T01:12:02.360199,4.354,can0  206  [16]  A7 0C CF 07 97 0C 99 C6 E9 07 C3 0C AB 0C 00 00
2025-11-08T01:12:02.361297,4.355,can0  204  [16]  8D 2E 50 46 50 46 50 46 E0 2E 40 9C 30 75 F4 01
2025-11-08T01:12:02.362373,4.356,can0  204  [16]  8D 2E 50 46 50 46 50 46 E0 2E 40 9C 30 75 F4 01
2025-11-08T01:12:03.149557,5.144,can0  204  [16]  8D 2E 50 46 50 46 50 46 E0 2E 40 9C 30 75 F4 01
2025-11-08T01:12:03.150857,5.145,can0  206  [16]  AB 0C CD 07 9B 0C 99 C6 E9 07 C3 0C A7 0C 00 00
2025-11-08T01:12:03.151773,5.146,can0  204  [16]  8D 2E 50 46 50 46 50 46 E0 2E 40 9C 30 75 F4 01
2025-11-08T01:12:03.152571,5.147,can0  041  [04]  2F 00 02 00
2025-11-08T01:12:03.153517,5.148,can0  204  [16]  8D 2E 50 46 50 46 50 46 E0 2E 40 9C 30 75 F4 01
2025-11-08T01:12:03.154210,5.148,can0  206  [16]  A7 0C D3 07 97 0C DA DC E9 07 C7 0C A7 0C 00 00
2025-11-08T01:12:03.155337,5.149,can0  204  [16]  8D 2E 50 46 50 46 50 46 E0 2E 40 9C 30 75 F4 01
2025-11-08T01:12:03.156244,5.150,can0  204  [16]  8D 2E 50 46 50 46 50 46 E0 2E 40 9C 30 75 F4 01
2025-11-08T01:12:03.157100,5.151,can0  204  [16]  8D 2E 50 46 50 46 50 46 E0 2E 40 9C 30 75 F4 01
2025-11-08T01:12:03.158046,5.152,can0  206  [16]  9F 0C D3 07 A3 0C DA DC E5 07 C7 0C A7 0C 00 00
2025-11-08T01:12:03.158931,5.153,can0  204  [16]  8D 2E 50 46 50 46 50 46 E0 2E 40 9C 30 75 F4 01
2025-11-08T01:12:03.159896,5.154,can0  041  [04]  5D 00 02 00
2025-11-08T01:12:03.160801,5.155,can0  204  [16]  8D 2E 50 46 50 46 50 46 E0 2E 40 9C 30 75 F4 01
2025-11-08T01:12:03.161654,5.156,can0  204  [16]  8D 2E 50 46 50 46 50 46 E0 2E 40 9C 30 75 F4 01
2025-11-08T01:12:03.162581,5.157,can0  206  [16]  AB 0C CF 07 9F 0C DA DC EB 07 BB 0C A3 0C 00 00
2025-11-08T01:12:03.163756,5.158,can0  204  [16]  8D 2E 50 46 50 46 50 46 E0 2E 40 9C 30 75 F4 01
2025-11-08T01:12:03.164923,5.159,can0  204  [16]  8D 2E 50 46 50 46 50 46 E0 2E 40 9C 30 75 F4 01
2025-11-08T01:12:03.168800,5.163,can0  041  [04]  2F 00 02 00
2025-11-08T01:12:03.170235,5.164,can0  206  [16]  A7 0C CF 07 9B 0C 99 C6 E5 07 C7 0C A7 0C 00 00
2025-11-08T01:12:03.171820,5.166,can0  204  [16]  8D 2E 50 46 50 46 50 46 E0 2E 40 9C 30 75 F4 01
2025-11-08T01:12:03.174360,5.168,can0  204  [16]  8D 2E 50 46 50 46 50 46 E0 2E 40 9C 30 75 F4 01
2025-11-08T01:12:04.010436,6.005,can0  204  [16]  8D 2E 50 46 50 46 50 46 E0 2E 40 9C 30 75 F4 01
2025-11-08T01:12:04.011841,6.006,can0  206  [16]  AB 0C CD 07 9B 0C DA DC EB 07 C7 0C A3 0C 00 00
2025-11-08T01:12:04.012887,6.007,can0  204  [16]  8D 2E 50 46 50 46 50 46 E0 2E 40 9C 30 75 F4 01
2025-11-08T01:12:04.013749,6.008,can0  041  [04]  2F 00 02 00
2025-11-08T01:12:04.017126,6.011,can0  204  [16]  8D 2E 50 46 50 46 50 46 E0 2E 40 9C 30 75 F4 01
2025-11-08T01:12:04.017299,6.011,can0  204  [16]  8D 2E 50 46 50 46 50 46 E0 2E 40 9C 30 75 F4 01
2025-11-08T01:12:04.017454,6.012,can0  206  [16]  AB 0C CF 07 9F 0C C5 E1 E7 07 C7 0C 9F 0C 00 00
2025-11-08T01:12:04.017600,6.012,can0  204  [16]  8D 2E 50 46 50 46 50 46 E0 2E 40 9C 30 75 F4 01
2025-11-08T01:12:04.018288,6.012,can0  204  [16]  8D 2E 50 46 50 46 50 46 E0 2E 40 9C 30 75 F4 01
2025-11-08T01:12:04.019405,6.013,can0  206  [16]  9F 0C D3 07 A3 0C 99 C6 E9 07 C7 0C A7 0C 00 00
2025-11-08T01:12:04.020306,6.014,can0  204  [16]  8D 2E 50 46 50 46 50 46 E0 2E 40 9C 30 75 F4 01
2025-11-08T01:12:04.021127,6.015,can0  041  [04]  2F 00 02 00
2025-11-08T01:12:04.022032,6.016,can0  204  [16]  8D 2E 50 46 50 46 50 46 E0 2E 40 9C 30 75 F4 01
2025-11-08T01:12:04.027291,6.021,can0  204  [16]  8D 2E 50 46 50 46 50 46 E0 2E 40 9C 30 75 F4 01
2025-11-08T01:12:04.028289,6.022,can0  206  [16]  9F 0C D3 07 9B 0C 3A DF EB 07 C7 0C AB 0C 00 00
2025-11-08T01:12:04.029040,6.023,can0  204  [16]  8D 2E 50 46 50 46 50 46 E0 2E 40 9C 30 75 F4 01
2025-11-08T01:12:04.030305,6.024,can0  204  [16]  8D 2E 50 46 50 46 50 46 E0 2E 40 9C 30 75 F4 01
2025-11-08T01:12:04.031187,6.025,can0  041  [04]  5E 00 02 00
2025-11-08T01:12:04.032209,6.026,can0  204  [16]  8D 2E 50 46 50 46 50 46 E0 2E 40 9C 30 75 F4 01
2025-11-08T01:12:04.037300,6.031,can0  206  [16]  9F 0C D1 07 9F 0C DA DC E9 07 C3 0C AB 0C 00 00
2025-11-08T01:12:04.037592,6.032,can0  204  [16]  8D 2E 50 46 50 46 50 46 E0 2E 40 9C 30 75 F4 01
2025-11-08T01:12:04.037822,6.032,can0  204  [16]  8D 2E 50 46 50 46 50 46 E0 2E 40 9C 30 75 F4 01
2025-11-08T01:12:04.038360,6.032,can0  206  [16]  9F 0C D6 07 A7 0C C5 E1 E9 07 BB 0C A7 0C 00 00
2025-11-08T01:12:04.039207,6.033,can0  204  [16]  8D 2E 50 46 50 46 50 46 E0 2E 40 9C 30 75 F4 01
2025-11-08T01:12:04.041747,6.036,can0  041  [04]  8B 00 02 00
2025-11-08T01:12:04.858667,6.853,can0  204  [16]  8D 2E 50 46 50 46 50 46 E0 2E 40 9C 30 75 F4 01
2025-11-08T01:12:04.859868,6.854,can0  204  [16]  8D 2E 50 46 50 46 50 46 E0 2E 40 9C 30 75 F4 01
2025-11-08T01:12:04.860787,6.855,can0  206  [16]  9F 0C CF 07 C7 0C DA DC E9 07 9B 0C AB 0C 00 00
2025-11-08T01:12:04.861638,6.856,can0  204  [16]  8D 2E 50 46 50 46 50 46 E0 2E 40 9C 30 75 F4 01
2025-11-08T01:12:04.862475,6.857,can0  204  [16]  8D 2E 50 46 50 46 50 46 E0 2E 40 9C 30 75 F4 01
2025-11-08T01:12:04.863357,6.857,can0  041  [04]  5D 00 00 00
2025-11-08T01:12:04.864078,6.858,can0  204  [16]  8D 2E 50 46 50 46 50 46 E0 2E 40 9C 30 75 F4 01
2025-11-08T01:12:04.864954,6.859,can0  206  [16]  9F 0C D3 07 97 0C D0 E5 E9 07 CB 0C AB 0C 00 00
2025-11-08T01:12:04.865790,6.860,can0  204  [16]  8D 2E 50 46 50 46 50 46 E0 2E 40 9C 30 75 F4 01
2025-11-08T01:12:04.866567,6.861,can0  204  [16]  8D 2E 50 46 50 46 50 46 E0 2E 40 9C 30 75 F4 01
2025-11-08T01:12:04.867317,6.861,can0  204  [16]  8D 2E 50 46 50 46 50 46 E0 2E 40 9C 30 75 F4 01
2025-11-08T01:12:04.868136,6.862,can0  206  [16]  9B 0C CF 07 A3 0C DA DC EB 07 C3 0C AB 0C 00 00
2025-11-08T01:12:04.868856,6.863,can0  204  [16]  8D 2E 50 46 50 46 50 46 E0 2E 40 9C 30 75 F4 01
2025-11-08T01:12:04.869536,6.864,can0  041  [04]  E4 00 00 00
2025-11-08T01:12:04.870271,6.864,can0  204  [16]  8D 2E 50 46 50 46 50 46 E0 2E 40 9C 30 75 F4 01
2025-11-08T01:12:04.872656,6.867,can0  206  [16]  9F 0C CD 07 A3 0C 99 C6 E9 07 D3 0C A7 0C 00 00
2025-11-08T01:12:04.872748,6.867,can0  204  [16]  8D 2E 50 46 50 46 50 46 E0 2E 40 9C 30 75 F4 01
2025-11-08T01:12:04.874767,6.869,can0  204  [16]  8D 2E 50 46 50 46 50 46 E0 2E 40 9C 30 75 F4 01
2025-11-08T01:12:04.876224,6.870,can0  204  [16]  8D 2E 50 46 50 46 50 46 E0 2E 40 9C 30 75 F4 01
2025-11-08T01:12:04.877397,6.871,can0  206  [16]  9F 0C E0 07 A3 0C DA DC E9 07 C3 0C A7 0C 00 00
2025-11-08T01:12:04.878511,6.873,can0  041  [04]  2F 00 00 00
2025-11-08T01:12:05.695782,7.690,can0  204  [16]  8D 2E 50 46 50 46 50 46 E0 2E 40 9C 30 75 F4 01
2025-11-08T01:12:05.703796,7.698,can0  204  [16]  8D 2E 50 46 50 46 50 46 E0 2E 40 9C 30 75 F4 01
2025-11-08T01:12:05.704670,7.699,can0  204  [16]  8D 2E 50 46 50 46 50 46 E0 2E 40 9C 30 75 F4 01
2025-11-08T01:12:05.705502,7.700,can0  206  [16]  A7 0C D1 07 9B 0C DA DC E7 07 C3 0C A7 0C 00 00
2025-11-08T01:12:05.706250,7.700,can0  204  [16]  8D 2E 50 46 50 46 50 46 E0 2E 40 9C 30 75 F4 01
2025-11-08T01:12:05.709126,7.703,can0  041  [04]  2F 00 02 00
2025-11-08T01:12:05.709186,7.703,can0  204  [16]  8D 2E 50 46 50 46 50 46 E0 2E 40 9C 30 75 F4 01
2025-11-08T01:12:05.709224,7.703,can0  206  [16]  AB 0C D1 07 9B 0C 57 E3 E9 07 BF 0C A3 0C 00 00
2025-11-08T01:12:05.709262,7.703,can0  204  [16]  8D 2E 50 46 50 46 50 46 E0 2E 40 9C 30 75 F4 01
2025-11-08T01:12:05.709861,7.704,can0  204  [16]  8D 2E 50 46 50 46 50 46 E0 2E 40 9C 30 75 F4 01
2025-11-08T01:12:05.710787,7.705,can0  204  [16]  8D 2E 50 46 50 46 50 46 E0 2E 40 9C 30 75 F4 01
2025-11-08T01:12:05.711575,7.706,can0  206  [16]  A7 0C D1 07 9F 0C DA DC E9 07 C3 0C A3 0C 00 00
2025-11-08T01:12:05.713158,7.707,can0  204  [16]  8D 2E 50 46 50 46 50 46 E0 2E 40 9C 30 75 F4 01
2025-11-08T01:12:05.713217,7.707,can0  041  [04]  2F 00 02 00
2025-11-08T01:12:05.714110,7.708,can0  204  [16]  8D 2E 50 46 50 46 50 46 E0 2E 40 9C 30 75 F4 01
2025-11-08T01:12:05.714901,7.709,can0  204  [16]  8D 2E 50 46 50 46 50 46 E0 2E 40 9C 30 75 F4 01
2025-11-08T01:12:05.715771,7.710,can0  206  [16]  5F 0C DC 07 DF 0C 3A DF E7 07 BF 0C AB 0C 00 00
2025-11-08T01:12:05.716561,7.711,can0  204  [16]  8D 2E 50 46 50 46 50 46 E0 2E 40 9C 30 75 F4 01
2025-11-08T01:12:05.717392,7.711,can0  204  [16]  8D 2E 50 46 50 46 50 46 E0 2E 40 9C 30 75 F4 01
2025-11-08T01:12:05.718526,7.713,can0  041  [04]  02 00 02 00
2025-11-08T01:12:05.718996,7.713,can0  206  [16]  9F 0C D1 07 A3 0C DA DC EB 07 BF 0C AB 0C 00 00
2025-11-08T01:12:05.719817,7.714,can0  204  [16]  8D 2E 50 46 50 46 50 46 E0 2E 40 9C 30 75 F4 01
2025-11-08T01:12:05.725361,7.719,can0  204  [16]  8D 2E 50 46 50 46 50 46 E0 2E 40 9C 30 75 F4 01
2025-11-08T01:12:06.506926,8.501,can0  204  [16]  8D 2E 50 46 50 46 50 46 E0 2E 40 9C 30 75 F4 01
2025-11-08T01:12:06.508147,8.502,can0  206  [16]  AB 0C D1 07 9F 0C DA DC EB 07 C7 0C 9F 0C 00 00
2025-11-08T01:12:06.508995,8.503,can0  204  [16]  8D 2E 50 46 50 46 50 46 E0 2E 40 9C 30 75 F4 01
2025-11-08T01:12:06.509723,8.504,can0  041  [04]  2F 00 02 00
2025-11-08T01:12:06.510514,8.505,can0  204  [16]  8D 2E 50 46 50 46 50 46 E0 2E 40 9C 30 75 F4 01
2025-11-08T01:12:06.511358,8.505,can0  206  [16]  97 0C CF 07 A3 0C DA DC E7 07 BF 0C AF 0C 00 00
2025-11-08T01:12:06.512527,8.507,can0  204  [16]  8D 2E 50 46 50 46 50 46 E0 2E 40 9C 30 75 F4 01
2025-11-08T01:12:06.512993,8.507,can0  204  [16]  8D 2E 50 46 50 46 50 46 E0 2E 40 9C 30 75 F4 01
2025-11-08T01:12:06.513778,8.508,can0  204  [16]  8D 2E 50 46 50 46 50 46 E0 2E 40 9C 30 75 F4 01
2025-11-08T01:12:06.514615,8.509,can0  206  [16]  9F 0C D8 07 A3 0C DA DC EF 07 BB 0C AB 0C 00 00
2025-11-08T01:12:06.515495,8.510,can0  204  [16]  8D 2E 50 46 50 46 50 46 E0 2E 40 9C 30 75 F4 01
2025-11-08T01:12:06.516132,8.510,can0  041  [04]  2F 00 02 00
2025-11-08T01:12:06.516919,8.511,can0  204  [16]  8D 2E 50 46 50 46 50 46 E0 2E 40 9C 30 75 F4 01
2025-11-08T01:12:06.518087,8.512,can0  204  [16]  8D 2E 50 46 50 46 50 46 E0 2E 40 9C 30 75 F4 01
2025-11-08T01:12:06.518607,8.513,can0  206  [16]  9F 0C CF 07 9F 0C 99 C6 E7 07 C7 0C AB 0C 00 00
2025-11-08T01:12:06.519435,8.514,can0  204  [16]  8D 2E 50 46 50 46 50 46 E0 2E 40 9C 30 75 F4 01
2025-11-08T01:12:06.520756,8.515,can0  204  [16]  8D 2E 50 46 50 46 50 46 E0 2E 40 9C 30 75 F4 01
2025-11-08T01:12:06.521607,8.516,can0  041  [04]  2F 00 00 00
2025-11-08T01:12:06.522021,8.516,can0  204  [16]  8D 2E 50 46 50 46 50 46 E0 2E 40 9C 30 75 F4 01
2025-11-08T01:12:06.523530,8.518,can0  206  [16]  9F 0C CD 07 A3 0C B1 E0 E0 07 BF 0C AB 0C 00 00
2025-11-08T01:12:06.524068,8.518,can0  204  [16]  8D 2E 50 46 50 46 50 46 E0 2E 40 9C 30 75 F4 01
2025-11-08T01:12:07.268696,9.263,can0  204  [16]  8D 2E 50 46 50 46 50 46 E0 2E 40 9C 30 75 F4 01
2025-11-08T01:12:07.269633,9.264,can0  206  [16]  A7 0C D3 07 9F 0C 99 C6 E9 07 C3 0C A3 0C 00 00
2025-11-08T01:12:07.270561,9.265,can0  204  [16]  8D 2E 50 46 50 46 50 46 E0 2E 40 9C 30 75 F4 01
2025-11-08T01:12:07.271327,9.265,can0  041  [04]  3F 01 00 00
2025-11-08T01:12:07.272168,9.266,can0  204  [16]  8D 2E 50 46 50 46 50 46 E0 2E 40 9C 30 75 F4 01
2025-11-08T01:12:07.273017,9.267,can0  204  [16]  8D 2E 50 46 50 46 50 46 E0 2E 40 9C 30 75 F4 01
2025-11-08T01:12:07.274203,9.268,can0  206  [16]  9F 0C CF 07 9B 0C 99 C6 E9 07 BF 0C AB 0C 00 00
2025-11-08T01:12:07.274807,9.269,can0  204  [16]  8D 2E 50 46 50 46 50 46 E0 2E 40 9C 30 75 F4 01
2025-11-08T01:12:07.275659,9.270,can0  204  [16]  8D 2E 50 46 50 46 50 46 E0 2E 40 9C 30 75 F4 01
2025-11-08T01:12:07.276509,9.271,can0  206  [16]  A7 0C CF 07 9B 0C 99 C6 EB 07 C7 0C A7 0C 00 00
2025-11-08T01:12:07.277197,9.271,can0  041  [04]  3F 01 00 00
2025-11-08T01:12:07.277969,9.272,can0  204  [16]  8D 2E 50 46 50 46 50 46 E0 2E 40 9C 30 75 F4 01
2025-11-08T01:12:07.278755,9.273,can0  204  [16]  8D 2E 50 46 50 46 50 46 E0 2E 40 9C 30 75 F4 01
2025-11-08T01:12:07.280270,9.274,can0  204  [16]  8D 2E 50 46 50 46 50 46 E0 2E 40 9C 30 75 F4 01
2025-11-08T01:12:07.280321,9.274,can0  206  [16]  AB 0C D1 07 A7 0C 99 C6 E7 07 B7 0C A7 0C 00 00
2025-11-08T01:12:07.282013,9.276,can0  204  [16]  8D 2E 50 46 50 46 50 46 E0 2E 40 9C 30 75 F4 01
2025-11-08T01:12:07.284867,9.279,can0  204  [16]  8D 2E 50 46 50 46 50 46 E0 2E 40 9C 30 75 F4 01
2025-11-08T01:12:07.284945,9.279,can0  041  [04]  3F 01 00 00
2025-11-08T01:12:08.059778,10.054,can0  204  [16]  8D 2E 50 46 50 46 50 46 E0 2E 40 9C 30 75 F4 01
2025-11-08T01:12:08.061038,10.055,can0  206  [16]  A3 0C CB 07 9F 0C A0 E2 E9 07 C3 0C A7 0C 00 00
2025-11-08T01:12:08.061893,10.056,can0  204  [16]  8D 2E 50 46 50 46 50 46 E0 2E 40 9C 30 75 F4 01
2025-11-08T01:12:08.062700,10.057,can0  204  [16]  8D 2E 50 46 50 46 50 46 E0 2E 40 9C 30 75 F4 01
2025-11-08T01:12:08.065941,10.060,can0  204  [16]  8D 2E 50 46 50 46 50 46 E0 2E 40 9C 30 75 F4 01
2025-11-08T01:12:08.066002,10.060,can0  206  [16]  A7 0C D1 07 9B 0C 99 C6 E5 07 BB 0C A7 0C 00 00
2025-11-08T01:12:08.066036,10.060,can0  041  [04]  3F 01 02 00
2025-11-08T01:12:08.066066,10.060,can0  204  [16]  8D 2E 50 46 50 46 50 46 E0 2E 40 9C 30 75 F4 01
2025-11-08T01:12:08.066100,10.060,can0  204  [16]  8D 2E 50 46 50 46 50 46 E0 2E 40 9C 30 75 F4 01
2025-11-08T01:12:08.067101,10.061,can0  206  [16]  9B 0C CD 07 A3 0C DA DC EB 07 BB 0C AB 0C 00 00
2025-11-08T01:12:08.067748,10.062,can0  204  [16]  8D 2E 50 46 50 46 50 46 E0 2E 40 9C 30 75 F4 01
2025-11-08T01:12:08.068551,10.063,can0  204  [16]  8D 2E 50 46 50 46 50 46 E0 2E 40 9C 30 75 F4 01
2025-11-08T01:12:08.070991,10.065,can0  204  [16]  8D 2E 50 46 50 46 50 46 E0 2E 40 9C 30 75 F4 01
2025-11-08T01:12:08.071623,10.066,can0  041  [04]  02 00 02 00
2025-11-08T01:12:08.074318,10.068,can0  206  [16]  9B 0C D3 07 A3 0C DA DC E7 07 C3 0C AB 0C 00 00
2025-11-08T01:12:08.075429,10.070,can0  204  [16]  8D 2E 50 46 50 46 50 46 E0 2E 40 9C 30 75 F4 01
2025-11-08T01:12:08.076652,10.071,can0  204  [16]  8D 2E 50 46 50 46 50 46 E0 2E 40 9C 30 75 F4 01
2025-11-08T01:12:08.078916,10.073,can0  206  [16]  67 0C C4 07 DF 0C 99 C6 E5 07 BB 0C AB 0C 00 00
2025-11-08T01:12:08.079939,10.074,can0  204  [16]  8D 2E 50 46 50 46 50 46 E0 2E 40 9C 30 75 F4 01
2025-11-08T01:12:08.080834,10.075,can0  204  [16]  8D 2E 50 46 50 46 50 46 E0 2E 40 9C 30 75 F4 01
2025-11-08T01:12:08.081619,10.076,can0  041  [04]  02 00 02 00
2025-11-08T01:12:08.857821,10.852,can0  204  [16]  8D 2E 50 46 50 46 50 46 E0 2E 40 9C 30 75 F4 01
2025-11-08T01:12:08.859046,10.853,can0  206  [16]  9B 0C CF 07 A7 0C DA DC E5 07 C3 0C A7 0C 00 00
2025-11-08T01:12:08.859944,10.854,can0  204  [16]  8D 2E 50 46 50 46 50 46 E0 2E 40 9C 30 75 F4 01
2025-11-08T01:12:08.860807,10.855,can0  204  [16]  8D 2E 50 46 50 46 50 46 E0 2E 40 9C 30 75 F4 01
2025-11-08T01:12:08.861648,10.856,can0  204  [16]  8D 2E 50 46 50 46 50 46 E0 2E 40 9C 30 75 F4 01
2025-11-08T01:12:08.862539,10.857,can0  206  [16]  A7 0C D3 07 9B 0C 3A DF EB 07 C7 0C A7 0C 00 00
2025-11-08T01:12:08.863887,10.858,can0  041  [04]  02 00 02 00
2025-11-08T01:12:08.869139,10.863,can0  204  [16]  8D 2E 50 46 50 46 50 46 E0 2E 40 9C 30 75 F4 01
2025-11-08T01:12:08.870045,10.864,can0  204  [16]  8D 2E 50 46 50 46 50 46 E0 2E 40 9C 30 75 F4 01
2025-11-08T01:12:08.875625,10.870,can0  204  [16]  8D 2E 50 46 50 46 50 46 E0 2E 40 9C 30 75 F4 01
2025-11-08T01:12:08.875689,10.870,can0  206  [16]  9B 0C CF 07 9F 0C DA DC E7 07 C7 0C AB 0C 00 00
2025-11-08T01:12:08.876898,10.871,can0  204  [16]  8D 2E 50 46 50 46 50 46 E0 2E 40 9C 30 75 F4 01
2025-11-08T01:12:08.878951,10.873,can0  204  [16]  8D 2E 50 46 50 46 50 46 E0 2E 40 9C 30 75 F4 01
2025-11-08T01:12:08.879021,10.873,can0  041  [04]  02 00 02 00
2025-11-08T01:12:08.879063,10.873,can0  206  [16]  A7 0C CF 07 9B 0C DA DC E5 07 C3 0C A7 0C 00 00
2025-11-08T01:12:08.879868,10.874,can0  204  [16]  8D 2E 50 46 50 46 50 46 E0 2E 40 9C 30 75 F4 01
2025-11-08T01:12:08.880291,10.874,can0  204  [16]  8D 2E 50 46 50 46 50 46 E0 2E 40 9C 30 75 F4 01
2025-11-08T01:12:08.881545,10.876,can0  204  [16]  8D 2E 50 46 50 46 50 46 E0 2E 40 9C 30 75 F4 01
2025-11-08T01:12:08.882523,10.877,can0  206  [16]  A7 0C CD 07 9B 0C DA DC EB 07 BF 0C A7 0C 00 00
2025-11-08T01:12:08.883167,10.877,can0  204  [16]  8D 2E 50 46 50 46 50 46 E0 2E 40 9C 30 75 F4 01
2025-11-08T01:12:08.883797,10.878,can0  041  [04]  02 00 02 00
2025-11-08T01:12:09.681109,11.675,can0  204  [16]  8D 2E 50 46 50 46 50 46 E0 2E 40 9C 30 75 F4 01
2025-11-08T01:12:09.682229,11.676,can0  206  [16]  A7 0C CD 07 9B 0C 99 C6 E9 07 BF 0C A7 0C 00 00
2025-11-08T01:12:09.683353,11.677,can0  204  [16]  8D 2E 50 46 50 46 50 46 E0 2E 40 9C 30 75 F4 01
2025-11-08T01:12:09.684434,11.679,can0  204  [16]  8D 2E 50 46 50 46 50 46 E0 2E 40 9C 30 75 F4 01
2025-11-08T01:12:09.686977,11.681,can0  204  [16]  8D 2E 50 46 50 46 50 46 E0 2E 40 9C 30 75 F4 01
2025-11-08T01:12:09.688985,11.683,can0  041  [04]  02 00 02 00
2025-11-08T01:12:09.692118,11.686,can0  206  [16]  9B 0C D1 07 A7 0C DA DC E7 07 B7 0C AB 0C 00 00
2025-11-08T01:12:09.694184,11.688,can0  204  [16]  8D 2E 50 46 50 46 50 46 E0 2E 40 9C 30 75 F4 01
2025-11-08T01:12:09.698127,11.692,can0  204  [16]  8D 2E 50 46 50 46 50 46 E0 2E 40 9C 30 75 F4 01
2025-11-08T01:12:09.698186,11.692,can0  204  [16]  8D 2E 50 46 50 46 50 46 E0 2E 40 9C 30 75 F4 01
2025-11-08T01:12:09.698794,11.693,can0  206  [16]  A3 0C D8 07 9F 0C B1 E0 EB 07 CB 0C A7 0C 00 00
2025-11-08T01:12:09.701519,11.696,can0  204  [16]  8D 2E 50 46 50 46 50 46 E0 2E 40 9C 30 75 F4 01
2025-11-08T01:12:09.703629,11.698,can0  041  [04]  3F 01 00 00
2025-11-08T01:12:09.706481,11.701,can0  204  [16]  8D 2E 50 46 50 46 50 46 E0 2E 40 9C 30 75 F4 01
2025-11-08T01:12:09.713286,11.707,can0  204  [16]  8D 2E 50 46 50 46 50 46 E0 2E 40 9C 30 75 F4 01
2025-11-08T01:12:09.713392,11.707,can0  206  [16]  A3 0C D1 07 93 0C C5 E1 E5 07 BB 0C AB 0C 00 00
2025-11-08T01:12:09.713434,11.708,can0  204  [16]  8D 2E 50 46 50 46 50 46 E0 2E 40 9C 30 75 F4 01
2025-11-08T01:12:09.715227,11.709,can0  204  [16]  8D 2E 50 46 50 46 50 46 E0 2E 40 9C 30 75 F4 01
2025-11-08T01:12:09.715337,11.709,can0  206  [16]  9F 0C D1 07 9B 0C C5 E1 E3 07 BF 0C AF 0C 00 00
2025-11-08T01:12:09.718563,11.713,can0  204  [16]  8D 2E 50 46 50 46 50 46 E0 2E 40 9C 30 75 F4 01
2025-11-08T01:12:09.724586,11.719,can0  041  [04]  3F 01 02 00
2025-11-08T01:12:09.724657,11.719,can0  204  [16]  8D 2E 50 46 50 46 50 46 E0 2E 40 9C 30 75 F4 01
2025-11-08T01:12:09.724700,11.719,can0  204  [16]  8D 2E 50 46 50 46 50 46 E0 2E 40 9C 30 75 F4 01
2025-11-08T01:12:09.725102,11.719,can0  206  [16]  A7 0C D3 07 9B 0C B1 E0 E9 07 BB 0C A7 0C 00 00
2025-11-08T01:12:10.518069,12.512,can0  204  [16]  8D 2E 50 46 50 46 50 46 E0 2E 40 9C 30 75 F4 01
2025-11-08T01:12:10.519275,12.513,can0  204  [16]  8D 2E 50 46 50 46 50 46 E0 2E 40 9C 30 75 F4 01
2025-11-08T01:12:10.520148,12.514,can0  041  [04]  3F 01 02 00
2025-11-08T01:12:10.521084,12.515,can0  206  [16]  A3 0C CF 07 9B 0C DA DC E7 07 C7 0C AB 0C 00 00
2025-11-08T01:12:10.521995,12.516,can0  204  [16]  8D 2E 50 46 50 46 50 46 E0 2E 40 9C 30 75 F4 01
2025-11-08T01:12:10.525309,12.519,can0  204  [16]  8D 2E 50 46 50 46 50 46 E0 2E 40 9C 30 75 F4 01
2025-11-08T01:12:10.528164,12.522,can0  204  [16]  8D 2E 50 46 50 46 50 46 E0 2E 40 9C 30 75 F4 01
2025-11-08T01:12:10.530274,12.524,can0  206  [16]  9F 0C CF 07 9F 0C DA DC E9 07 C7 0C AB 0C 00 00
2025-11-08T01:12:10.531557,12.526,can0  204  [16]  8D 2E 50 46 50 46 50 46 E0 2E 40 9C 30 75 F4 01
2025-11-08T01:12:10.534242,12.528,can0  041  [04]  3F 01 00 00
2025-11-08T01:12:10.537235,12.531,can0  204  [16]  8D 2E 50 46 50 46 50 46 E0 2E 40 9C 30 75 F4 01
2025-11-08T01:12:10.537304,12.531,can0  204  [16]  8D 2E 50 46 50 46 50 46 E0 2E 40 9C 30 75 F4 01
2025-11-08T01:12:10.537345,12.531,can0  206  [16]  A7 0C CF 07 A3 0C 99 C6 E7 07 C7 0C 9F 0C 00 00
2025-11-08T01:12:10.538411,12.532,can0  204  [16]  8D 2E 50 46 50 46 50 46 E0 2E 40 9C 30 75 F4 01
2025-11-08T01:12:10.539515,12.534,can0  204  [16]  8D 2E 50 46 50 46 50 46 E0 2E 40 9C 30 75 F4 01
2025-11-08T01:12:10.540353,12.534,can0  204  [16]  8D 2E 50 46 50 46 50 46 E0 2E 40 9C 30 75 F4 01
2025-11-08T01:12:10.541242,12.535,can0  206  [16]  A3 0C CF 07 9B 0C 99 C6 E9 07 C3 0C AB 0C 00 00
2025-11-08T01:12:10.542575,12.537,can0  041  [04]  3F 01 00 00
2025-11-08T01:12:10.543432,12.538,can0  204  [16]  8D 2E 50 46 50 46 50 46 E0 2E 40 9C 30 75 F4 01
2025-11-08T01:12:10.544316,12.538,can0  204  [16]  8D 2E 50 46 50 46 50 46 E0 2E 40 9C 30 75 F4 01
2025-11-08T01:12:11.350319,13.344,can0  206  [16]  A3 0C D6 07 9F 0C 99 C6 EB 07 C3 0C A7 0C 00 00
2025-11-08T01:12:11.355204,13.349,can0  204  [16]  8D 2E 50 46 50 46 50 46 E0 2E 40 9C 30 75 F4 01
2025-11-08T01:12:11.357146,13.351,can0  204  [16]  8D 2E 50 46 50 46 50 46 E0 2E 40 9C 30 75 F4 01
2025-11-08T01:12:11.359437,13.354,can0  041  [04]  3F 01 02 00
2025-11-08T01:12:11.360549,13.355,can0  204  [16]  8D 2E 50 46 50 46 50 46 E0 2E 40 9C 30 75 F4 01
2025-11-08T01:12:11.361395,13.355,can0  206  [16]  A7 0C D1 07 9B 0C 99 C6 E0 07 C7 0C A7 0C 00 00
2025-11-08T01:12:11.361977,13.356,can0  204  [16]  8D 2E 50 46 50 46 50 46 E0 2E 40 9C 30 75 F4 01
2025-11-08T01:12:11.362754,13.357,can0  204  [16]  8D 2E 50 46 50 46 50 46 E0 2E 40 9C 30 75 F4 01
2025-11-08T01:12:11.367725,13.362,can0  204  [16]  8D 2E 50 46 50 46 50 46 E0 2E 40 9C 30 75 F4 01
2025-11-08T01:12:11.369050,13.363,can0  206  [16]  A7 0C CF 07 9B 0C 3A DF E9 07 C3 0C A7 0C 00 00
2025-11-08T01:12:11.374255,13.368,can0  041  [04]  3F 01 02 00
2025-11-08T01:12:11.376740,13.371,can0  204  [16]  8D 2E 50 46 50 46 50 46 E0 2E 40 9C 30 75 F4 01
2025-11-08T01:12:11.379412,13.373,can0  204  [16]  8D 2E 50 46 50 46 50 46 E0 2E 40 9C 30 75 F4 01
2025-11-08T01:12:11.379523,13.374,can0  206  [16]  AB 0C CF 07 8F 0C 99 C6 ED 07 CB 0C A3 0C 00 00
2025-11-08T01:12:11.380998,13.375,can0  204  [16]  8D 2E 50 46 50 46 50 46 E0 2E 40 9C 30 75 F4 01
2025-11-08T01:12:11.381985,13.376,can0  204  [16]  8D 2E 50 46 50 46 50 46 E0 2E 40 9C 30 75 F4 01
2025-11-08T01:12:11.388353,13.382,can0  204  [16]  8D 2E 50 46 50 46 50 46 E0 2E 40 9C 30 75 F4 01
2025-11-08T01:12:11.389346,13.383,can0  041  [04]  2F 00 02 00
2025-11-08T01:12:11.390309,13.384,can0  206  [16]  A3 0C CF 07 A3 0C B1 E0 E9 07 C7 0C A7 0C 00 00
2025-11-08T01:12:11.391195,13.385,can0  204  [16]  8D 2E 50 46 50 46 50 46 E0 2E 40 9C 30 75 F4 01
2025-11-08T01:12:11.392079,13.386,can0  204  [16]  8D 2E 50 46 50 46 50 46 E0 2E 40 9C 30 75 F4 01
2025-11-08T01:12:12.200240,14.194,can0  204  [16]  8D 2E 50 46 50 46 50 46 E0 2E 40 9C 30 75 F4 01
2025-11-08T01:12:12.201532,14.196,can0  206  [16]  A3 0C D3 07 9B 0C B1 E0 E0 07 C7 0C AB 0C 00 00
2025-11-08T01:12:12.202419,14.196,can0  204  [16]  8D 2E 50 46 50 46 50 46 E0 2E 40 9C 30 75 F4 01
2025-11-08T01:12:12.203261,14.197,can0  041  [04]  2F 00 05 00
2025-11-08T01:12:12.204115,14.198,can0  204  [16]  8D 2E 50 46 50 46 50 46 E0 2E 40 9C 30 75 F4 01
2025-11-08T01:12:12.205220,14.199,can0  206  [16]  A7 0C D1 07 97 0C B1 E0 E7 07 C3 0C AB 0C 00 00
2025-11-08T01:12:12.207804,14.202,can0  204  [16]  8D 2E 50 46 50 46 50 46 E0 2E 40 9C 30 75 F4 01
2025-11-08T01:12:12.207858,14.202,can0  204  [16]  8D 2E 50 46 50 46 50 46 E0 2E 40 9C 30 75 F4 01
2025-11-08T01:12:12.207899,14.202,can0  204  [16]  8D 2E 50 46 50 46 50 46 E0 2E 40 9C 30 75 F4 01
2025-11-08T01:12:12.207938,14.202,can0  206  [16]  A3 0C CF 07 9F 0C 99 C6 EB 07 BF 0C AB 0C 00 00
2025-11-08T01:12:12.208665,14.203,can0  041  [04]  2F 00 02 00
2025-11-08T01:12:12.209503,14.204,can0  204  [16]  8D 2E 50 46 50 46 50 46 E0 2E 40 9C 30 75 F4 01
2025-11-08T01:12:12.210353,14.204,can0  204  [16]  8D 2E 50 46 50 46 50 46 E0 2E 40 9C 30 75 F4 01
2025-11-08T01:12:12.211781,14.206,can0  204  [16]  8D 2E 50 46 50 46 50 46 E0 2E 40 9C 30 75 F4 01
2025-11-08T01:12:12.214673,14.209,can0  206  [16]  AB 0C D1 07 9B 0C 3A DF E9 07 BF 0C A3 0C 00 00
2025-11-08T01:12:12.218778,14.213,can0  204  [16]  8D 2E 50 46 50 46 50 46 E0 2E 40 9C 30 75 F4 01
2025-11-08T01:12:12.218854,14.213,can0  204  [16]  8D 2E 50 46 50 46 50 46 E0 2E 40 9C 30 75 F4 01
2025-11-08T01:12:12.218895,14.213,can0  041  [04]  3F 01 00 00
2025-11-08T01:12:12.218934,14.213,can0  204  [16]  8D 2E 50 46 50 46 50 46 E0 2E 40 9C 30 75 F4 01
2025-11-08T01:12:12.219359,14.213,can0  206  [16]  A3 0C CF 07 A3 0C 3A DF E9 07 C3 0C A7 0C 00 00
2025-11-08T01:12:12.221031,14.215,can0  204  [16]  8D 2E 50 46 50 46 50 46 E0 2E 40 9C 30 75 F4 01
2025-11-08T01:12:12.223008,14.217,can0  204  [16]  8D 2E 50 46 50 46 50 46 E0 2E 40 9C 30 75 F4 01
2025-11-08T01:12:13.059706,15.054,can0  206  [16]  9B 0C D1 07 A7 0C 3A DF EB 07 BB 0C AF 0C 00 00
2025-11-08T01:12:13.061042,15.055,can0  204  [16]  8D 2E 50 46 50 46 50 46 E0 2E 40 9C 30 75 F4 01
2025-11-08T01:12:13.061940,15.056,can0  041  [04]  3F 01 00 00
2025-11-08T01:12:13.062885,15.057,can0  204  [16]  8D 2E 50 46 50 46 50 46 E0 2E 40 9C 30 75 F4 01
2025-11-08T01:12:13.064083,15.058,can0  204  [16]  8D 2E 50 46 50 46 50 46 E0 2E 40 9C 30 75 F4 01
2025-11-08T01:12:13.064885,15.059,can0  206  [16]  9F 0C D3 07 A3 0C B1 E0 E9 07 BB 0C AB 0C 00 00
2025-11-08T01:12:13.066167,15.060,can0  204  [16]  8D 2E 50 46 50 46 50 46 E0 2E 40 9C 30 75 F4 01
2025-11-08T01:12:13.067003,15.061,can0  204  [16]  8D 2E 50 46 50 46 50 46 E0 2E 40 9C 30 75 F4 01
2025-11-08T01:12:13.067731,15.062,can0  041  [04]  3F 01 02 00
2025-11-08T01:12:13.068533,15.063,can0  204  [16]  8D 2E 50 46 50 46 50 46 E0 2E 40 9C 30 75 F4 01
2025-11-08T01:12:13.072193,15.066,can0  206  [16]  A7 0C D1 07 A3 0C B1 E0 E9 07 C7 0C A3 0C 00 00
2025-11-08T01:12:13.073486,15.068,can0  204  [16]  8D 2E 50 46 50 46 50 46 E0 2E 40 9C 30 75 F4 01
2025-11-08T01:12:13.074522,15.069,can0  204  [16]  8D 2E 50 46 50 46 50 46 E0 2E 40 9C 30 75 F4 01
2025-11-08T01:12:13.075361,15.069,can0  206  [16]  9F 0C D1 07 A3 0C DA DC E5 07 BB 0C AB 0C 00 00
2025-11-08T01:12:13.076211,15.070,can0  204  [16]  8D 2E 50 46 50 46 50 46 E0 2E 40 9C 30 75 F4 01
2025-11-08T01:12:13.077038,15.071,can0  204  [16]  8D 2E 50 46 50 46 50 46 E0 2E 40 9C 30 75 F4 01
2025-11-08T01:12:13.077776,15.072,can0  041  [04]  3F 01 02 00
2025-11-08T01:12:13.078761,15.073,can0  204  [16]  8D 2E 50 46 50 46 50 46 E0 2E 40 9C 30 75 F4 01
2025-11-08T01:12:13.079547,15.074,can0  206  [16]  B7 0C CF 07 9F 0C 3A DF E7 07 C7 0C 93 0C 00 00
2025-11-08T01:12:13.080698,15.075,can0  204  [16]  8D 2E 50 46 50 46 50 46 E0 2E 40 9C 30 75 F4 01
2025-11-08T01:12:13.089339,15.083,can0  204  [16]  8D 2E 50 46 50 46 50 46 E0 2E 40 9C 30 75 F4 01
2025-11-08T01:12:13.917587,15.912,can0  204  [16]  8D 2E 50 46 50 46 50 46 E0 2E 40 9C 30 75 F4 01
2025-11-08T01:12:13.919762,15.914,can0  206  [16]  9F 0C D1 07 9F 0C DA DC EB 07 CB 0C AB 0C 00 00
2025-11-08T01:12:13.919818,15.914,can0  041  [04]  3F 01 02 00
2025-11-08T01:12:13.920398,15.914,can0  204  [16]  8D 2E 50 46 50 46 50 46 E0 2E 40 9C 30 75 F4 01
2025-11-08T01:12:13.921277,15.915,can0  204  [16]  8D 2E 50 46 50 46 50 46 E0 2E 40 9C 30 75 F4 01
2025-11-08T01:12:13.922282,15.916,can0  206  [16]  83 0C E3 07 9F 0C DA DC E9 07 C3 0C C7 0C 00 00
2025-11-08T01:12:13.929337,15.923,can0  204  [16]  8D 2E 50 46 50 46 50 46 E0 2E 40 9C 30 75 F4 01
2025-11-08T01:12:13.929654,15.924,can0  204  [16]  8D 2E 50 46 50 46 50 46 E0 2E 40 9C 30 75 F4 01
2025-11-08T01:12:13.929711,15.924,can0  041  [04]  3F 01 02 00
2025-11-08T01:12:13.929748,15.924,can0  204  [16]  8D 2E 50 46 50 46 50 46 E0 2E 40 9C 30 75 F4 01
2025-11-08T01:12:13.929781,15.924,can0  206  [16]  A7 0C D1 07 9F 0C 99 C6 E9 07 C3 0C A3 0C 00 00
2025-11-08T01:12:13.930804,15.925,can0  204  [16]  8D 2E 50 46 50 46 50 46 E0 2E 40 9C 30 75 F4 01
2025-11-08T01:12:13.931795,15.926,can0  204  [16]  8D 2E 50 46 50 46 50 46 E0 2E 40 9C 30 75 F4 01
2025-11-08T01:12:13.932932,15.927,can0  204  [16]  8D 2E 50 46 50 46 50 46 E0 2E 40 9C 30 75 F4 01
2025-11-08T01:12:13.933960,15.928,can0  206  [16]  A3 0C D1 07 9B 0C 99 C6 E9 07 CB 0C AB 0C 00 00
2025-11-08T01:12:13.934892,15.929,can0  204  [16]  8D 2E 50 46 50 46 50 46 E0 2E 40 9C 30 75 F4 01
2025-11-08T01:12:13.941795,15.936,can0  041  [04]  3F 01 00 00
2025-11-08T01:12:13.941867,15.936,can0  204  [16]  8D 2E 50 46 50 46 50 46 E0 2E 40 9C 30 75 F4 01
2025-11-08T01:12:13.941909,15.936,can0  204  [16]  8D 2E 50 46 50 46 50 46 E0 2E 40 9C 30 75 F4 01
2025-11-08T01:12:13.941950,15.936,can0  206  [16]  A7 0C D1 07 9F 0C DA DC E5 07 BB 0C A7 0C 00 00
2025-11-08T01:12:13.942652,15.937,can0  204  [16]  8D 2E 50 46 50 46 50 46 E0 2E 40 9C 30 75 F4 01
2025-11-08T01:12:13.943564,15.938,can0  204  [16]  8D 2E 50 46 50 46 50 46 E0 2E 40 9C 30 75 F4 01
2025-11-08T01:12:13.944474,15.939,can0  041  [04]  3F 01 00 00
2025-11-08T01:12:13.945785,15.940,can0  206  [16]  A7 0C CF 07 A3 0C DA DC E9 07 BF 0C A3 0C 00 00
2025-11-08T01:12:13.946435,15.941,can0  204  [16]  8D 2E 50 46 50 46 50 46 E0 2E 40 9C 30 75 F4 01
2025-11-08T01:12:14.751280,16.745,can0  204  [16]  8D 2E 50 46 50 46 50 46 E0 2E 40 9C 30 75 F4 01
2025-11-08T01:12:14.752535,16.747,can0  204  [16]  8D 2E 50 46 50 46 50 46 E0 2E 40 9C 30 75 F4 01
2025-11-08T01:12:14.753561,16.748,can0  206  [16]  9F 0C CF 07 9F 0C 3A DF E9 07 BF 0C AB 0C 00 00
2025-11-08T01:12:14.754508,16.749,can0  204  [16]  8D 2E 50 46 50 46 50 46 E0 2E 40 9C 30 75 F4 01
2025-11-08T01:12:14.755340,16.749,can0  041  [04]  3F 01 02 00
2025-11-08T01:12:14.756313,16.750,can0  204  [16]  8D 2E 50 46 50 46 50 46 E0 2E 40 9C 30 75 F4 01
2025-11-08T01:12:14.757762,16.752,can0  206  [16]  EC 0C CD 07 9F 0C 3A DF E5 07 BF 0C 63 0C 00 00
2025-11-08T01:12:14.758209,16.752,can0  204  [16]  8D 2E 50 46 50 46 50 46 E0 2E 40 9C 30 75 F4 01
2025-11-08T01:12:14.759119,16.753,can0  204  [16]  8D 2E 50 46 50 46 50 46 E0 2E 40 9C 30 75 F4 01
2025-11-08T01:12:14.760038,16.754,can0  204  [16]  8D 2E 50 46 50 46 50 46 E0 2E 40 9C 30 75 F4 01
2025-11-08T01:12:14.760979,16.755,can0  206  [16]  AB 0C CF 07 9B 0C B1 E0 E9 07 BF 0C A3 0C 00 00
2025-11-08T01:12:14.762535,16.757,can0  204  [16]  8D 2E 50 46 50 46 50 46 E0 2E 40 9C 30 75 F4 01
2025-11-08T01:12:14.762603,16.757,can0  041  [04]  3F 01 02 00
2025-11-08T01:12:14.764668,16.759,can0  204  [16]  8D 2E 50 46 50 46 50 46 E0 2E 40 9C 30 75 F4 01
2025-11-08T01:12:14.764741,16.759,can0  204  [16]  8D 2E 50 46 50 46 50 46 E0 2E 40 9C 30 75 F4 01
2025-11-08T01:12:14.767013,16.761,can0  206  [16]  9F 0C CB 07 9B 0C 99 C6 E7 07 BB 0C AF 0C 00 00
2025-11-08T01:12:14.767124,16.761,can0  204  [16]  8D 2E 50 46 50 46 50 46 E0 2E 40 9C 30 75 F4 01
2025-11-08T01:12:14.767167,16.761,can0  204  [16]  8D 2E 50 46 50 46 50 46 E0 2E 40 9C 30 75 F4 01
2025-11-08T01:12:14.767937,16.762,can0  041  [04]  3F 01 02 00
2025-11-08T01:12:14.768902,16.763,can0  204  [16]  8D 2E 50 46 50 46 50 46 E0 2E 40 9C 30 75 F4 01
2025-11-08T01:12:14.769706,16.764,can0  206  [16]  AF 0C D3 07 97 0C 3A DF E7 07 C7 0C A3 0C 00 00
2025-11-08T01:12:15.597185,17.591,can0  204  [16]  8D 2E 50 46 50 46 50 46 E0 2E 40 9C 30 75 F4 01
2025-11-08T01:12:15.598318,17.592,can0  204  [16]  8D 2E 50 46 50 46 50 46 E0 2E 40 9C 30 75 F4 01
2025-11-08T01:12:15.599294,17.593,can0  206  [16]  A7 0C CF 07 9B 0C DA DC E7 07 C3 0C A7 0C 00 00
2025-11-08T01:12:15.600158,17.594,can0  204  [16]  8D 2E 50 46 50 46 50 46 E0 2E 40 9C 30 75 F4 01
2025-11-08T01:12:15.602044,17.596,can0  041  [04]  3F 01 00 00
2025-11-08T01:12:15.602808,17.597,can0  204  [16]  8D 2E 50 46 50 46 50 46 E0 2E 40 9C 30 75 F4 01
2025-11-08T01:12:15.603643,17.598,can0  204  [16]  8D 2E 50 46 50 46 50 46 E0 2E 40 9C 30 75 F4 01
2025-11-08T01:12:15.604540,17.599,can0  206  [16]  A3 0C D1 07 A3 0C 99 C6 EB 07 C7 0C A7 0C 00 00
2025-11-08T01:12:15.605370,17.599,can0  204  [16]  8D 2E 50 46 50 46 50 46 E0 2E 40 9C 30 75 F4 01
2025-11-08T01:12:15.608136,17.602,can0  204  [16]  8D 2E 50 46 50 46 50 46 E0 2E 40 9C 30 75 F4 01
2025-11-08T01:12:15.608186,17.602,can0  206  [16]  A7 0C D1 07 7B 0C B1 E0 E9 07 D3 0C A7 0C 00 00
2025-11-08T01:12:15.608927,17.603,can0  041  [04]  8B 00 00 00
2025-11-08T01:12:15.609719,17.604,can0  204  [16]  8D 2E 50 46 50 46 50 46 E0 2E 40 9C 30 75 F4 01
2025-11-08T01:12:15.610573,17.605,can0  204  [16]  8D 2E 50 46 50 46 50 46 E0 2E 40 9C 30 75 F4 01
2025-11-08T01:12:15.611422,17.605,can0  204  [16]  8D 2E 50 46 50 46 50 46 E0 2E 40 9C 30 75 F4 01
2025-11-08T01:12:15.612322,17.606,can0  206  [16]  9F 0C D1 07 A7 0C 3A DF EB 07 C3 0C A7 0C 00 00
2025-11-08T01:12:15.615527,17.610,can0  204  [16]  8D 2E 50 46 50 46 50 46 E0 2E 40 9C 30 75 F4 01
2025-11-08T01:12:15.619202,17.613,can0  204  [16]  8D 2E 50 46 50 46 50 46 E0 2E 40 9C 30 75 F4 01
2025-11-08T01:12:15.619263,17.613,can0  041  [04]  8B 00 02 00
2025-11-08T01:12:15.619302,17.613,can0  204  [16]  8D 2E 50 46 50 46 50 46 E0 2E 40 9C 30 75 F4 01
2025-11-08T01:12:15.619611,17.614,can0  206  [16]  AF 0C CF 07 9B 0C 3A DF E9 07 BF 0C 9F 0C 00 00
2025-11-08T01:12:15.620452,17.615,can0  204  [16]  8D 2E 50 46 50 46 50 46 E0 2E 40 9C 30 75 F4 01
2025-11-08T01:12:15.621807,17.616,can0  204  [16]  8D 2E 50 46 50 46 50 46 E0 2E 40 9C 30 75 F4 01
2025-11-08T01:12:16.477645,18.472,can0  204  [16]  8D 2E 50 46 50 46 50 46 E0 2E 40 9C 30 75 F4 01
2025-11-08T01:12:16.478688,18.473,can0  206  [16]  B3 0C CF 07 9F 0C B1 E0 DC 07 BF 0C 9B 0C 00 00
2025-11-08T01:12:16.479508,18.474,can0  041  [04]  8B 00 02 00
2025-11-08T01:12:16.480189,18.474,can0  204  [16]  8D 2E 50 46 50 46 50 46 E0 2E 40 9C 30 75 F4 01
2025-11-08T01:12:16.480903,18.475,can0  204  [16]  8D 2E 50 46 50 46 50 46 E0 2E 40 9C 30 75 F4 01
2025-11-08T01:12:16.481660,18.476,can0  206  [16]  A3 0C D6 07 9B 0C 3A DF E5 07 C7 0C AB 0C 00 00
2025-11-08T01:12:16.484665,18.479,can0  204  [16]  8D 2E 50 46 50 46 50 46 E0 2E 40 9C 30 75 F4 01
2025-11-08T01:12:16.484720,18.479,can0  204  [16]  8D 2E 50 46 50 46 50 46 E0 2E 40 9C 30 75 F4 01
2025-11-08T01:12:16.484759,18.479,can0  041  [04]  5E 00 02 00
2025-11-08T01:12:16.484808,18.479,can0  204  [16]  8D 2E 50 46 50 46 50 46 E0 2E 40 9C 30 75 F4 01
2025-11-08T01:12:16.484909,18.479,can0  206  [16]  AB 0C D1 07 A3 0C DA DC E9 07 BF 0C A3 0C 00 00
2025-11-08T01:12:16.486747,18.481,can0  204  [16]  8D 2E 50 46 50 46 50 46 E0 2E 40 9C 30 75 F4 01
2025-11-08T01:12:16.486802,18.481,can0  204  [16]  8D 2E 50 46 50 46 50 46 E0 2E 40 9C 30 75 F4 01
2025-11-08T01:12:16.486940,18.481,can0  204  [16]  8D 2E 50 46 50 46 50 46 E0 2E 40 9C 30 75 F4 01
2025-11-08T01:12:16.489281,18.483,can0  206  [16]  C3 0C CD 07 8F 0C C5 E1 E5 07 CB 0C 8F 0C 00 00
2025-11-08T01:12:16.489445,18.484,can0  204  [16]  8D 2E 50 46 50 46 50 46 E0 2E 40 9C 30 75 F4 01
2025-11-08T01:12:16.489500,18.484,can0  041  [04]  2F 00 02 00
2025-11-08T01:12:16.489692,18.484,can0  204  [16]  8D 2E 50 46 50 46 50 46 E0 2E 40 9C 30 75 F4 01
2025-11-08T01:12:16.494733,18.489,can0  206  [16]  9F 0C D1 07 9F 0C DA DC EB 07 C7 0C A7 0C 00 00
2025-11-08T01:12:16.494822,18.489,can0  204  [16]  8D 2E 50 46 50 46 50 46 E0 2E 40 9C 30 75 F4 01
2025-11-08T01:12:16.494860,18.489,can0  204  [16]  8D 2E 50 46 50 46 50 46 E0 2E 40 9C 30 75 F4 01
2025-11-08T01:12:17.302126,19.296,can0  204  [16]  8D 2E 50 46 50 46 50 46 E0 2E 40 9C 30 75 F4 01
2025-11-08T01:12:17.303093,19.297,can0  041  [04]  5D 00 02 00
2025-11-08T01:12:17.303839,19.298,can0  206  [16]  A3 0C CD 07 A3 0C 3A DF E9 07 BF 0C A7 0C 00 00
2025-11-08T01:12:17.304598,19.299,can0  204  [16]  8D 2E 50 46 50 46 50 46 E0 2E 40 9C 30 75 F4 01
2025-11-08T01:12:17.306020,19.300,can0  204  [16]  8D 2E 50 46 50 46 50 46 E0 2E 40 9C 30 75 F4 01
2025-11-08T01:12:17.306069,19.300,can0  204  [16]  8D 2E 50 46 50 46 50 46 E0 2E 40 9C 30 75 F4 01
2025-11-08T01:12:17.308999,19.303,can0  206  [16]  A7 0C D1 07 97 0C 99 C6 E7 07 C7 0C A7 0C 00 00
2025-11-08T01:12:17.309070,19.303,can0  204  [16]  8D 2E 50 46 50 46 50 46 E0 2E 40 9C 30 75 F4 01
2025-11-08T01:12:17.309108,19.303,can0  041  [04]  5E 00 02 00
2025-11-08T01:12:17.309471,19.304,can0  204  [16]  8D 2E 50 46 50 46 50 46 E0 2E 40 9C 30 75 F4 01
2025-11-08T01:12:17.310625,19.305,can0  206  [16]  A7 0C C7 07 9B 0C 99 C6 E9 07 BF 0C A3 0C 00 00
2025-11-08T01:12:17.311450,19.306,can0  204  [16]  8D 2E 50 46 50 46 50 46 E0 2E 40 9C 30 75 F4 01
2025-11-08T01:12:17.312369,19.306,can0  204  [16]  8D 2E 50 46 50 46 50 46 E0 2E 40 9C 30 75 F4 01
2025-11-08T01:12:17.313225,19.307,can0  204  [16]  8D 2E 50 46 50 46 50 46 E0 2E 40 9C 30 75 F4 01
2025-11-08T01:12:17.314711,19.309,can0  206  [16]  A7 0C CD 07 9F 0C 99 C6 E9 07 BF 0C A3 0C 00 00
2025-11-08T01:12:17.317661,19.312,can0  204  [16]  8D 2E 50 46 50 46 50 46 E0 2E 40 9C 30 75 F4 01
2025-11-08T01:12:17.318682,19.313,can0  041  [04]  5E 00 02 00
2025-11-08T01:12:17.319640,19.314,can0  204  [16]  8D 2E 50 46 50 46 50 46 E0 2E 40 9C 30 75 F4 01
2025-11-08T01:12:17.320594,19.315,can0  204  [16]  8D 2E 50 46 50 46 50 46 E0 2E 40 9C 30 75 F4 01
2025-11-08T01:12:17.322436,19.317,can0  206  [16]  9F 0C CB 07 A3 0C 3A DF E9 07 C7 0C A7 0C 00 00
2025-11-08T01:12:17.322498,19.317,can0  204  [16]  8D 2E 50 46 50 46 50 46 E0 2E 40 9C 30 75 F4 01
2025-11-08T01:12:18.178666,20.173,can0  204  [16]  8D 2E 50 46 50 46 50 46 E0 2E 40 9C 30 75 F4 01
2025-11-08T01:12:18.178735,20.173,can0  041  [04]  8B 00 00 00
2025-11-08T01:12:18.179201,20.173,can0  204  [16]  8D 2E 50 46 50 46 50 46 E0 2E 40 9C 30 75 F4 01
2025-11-08T01:12:18.183628,20.178,can0  206  [16]  A3 0C D1 07 9F 0C 99 C6 EB 07 BF 0C AB 0C 00 00
2025-11-08T01:12:18.187513,20.182,can0  204  [16]  8D 2E 50 46 50 46 50 46 E0 2E 40 9C 30 75 F4 01
2025-11-08T01:12:18.197547,20.192,can0  204  [16]  8D 2E 50 46 50 46 50 46 E0 2E 40 9C 30 75 F4 01
2025-11-08T01:12:18.197611,20.192,can0  206  [16]  A7 0C D1 07 93 0C 3A DF E9 07 C7 0C A3 0C 00 00
2025-11-08T01:12:18.197648,20.192,can0  204  [16]  8D 2E 50 46 50 46 50 46 E0 2E 40 9C 30 75 F4 01
2025-11-08T01:12:18.202399,20.196,can0  041  [04]  2F 00 00 00
2025-11-08T01:12:18.202475,20.197,can0  204  [16]  8D 2E 50 46 50 46 50 46 E0 2E 40 9C 30 75 F4 01
2025-11-08T01:12:18.202515,20.197,can0  204  [16]  8D 2E 50 46 50 46 50 46 E0 2E 40 9C 30 75 F4 01
2025-11-08T01:12:18.202566,20.197,can0  206  [16]  A3 0C CF 07 9F 0C B1 E0 E0 07 CB 0C A3 0C 00 00
2025-11-08T01:12:18.202604,20.197,can0  204  [16]  8D 2E 50 46 50 46 50 46 E0 2E 40 9C 30 75 F4 01
2025-11-08T01:12:18.202639,20.197,can0  204  [16]  8D 2E 50 46 50 46 50 46 E0 2E 40 9C 30 75 F4 01
2025-11-08T01:12:18.203777,20.198,can0  206  [16]  9B 0C D3 07 A3 0C DA DC EB 07 CB 0C AB 0C 00 00
2025-11-08T01:12:18.205297,20.199,can0  204  [16]  8D 2E 50 46 50 46 50 46 E0 2E 40 9C 30 75 F4 01
2025-11-08T01:12:18.206290,20.200,can0  041  [04]  2F 00 02 00
2025-11-08T01:12:18.207323,20.201,can0  204  [16]  8D 2E 50 46 50 46 50 46 E0 2E 40 9C 30 75 F4 01
2025-11-08T01:12:18.208227,20.202,can0  204  [16]  8D 2E 50 46 50 46 50 46 E0 2E 40 9C 30 75 F4 01
2025-11-08T01:12:18.216797,20.211,can0  206  [16]  9F 0C CF 07 9B 0C DA DC E9 07 C3 0C AB 0C 00 00
2025-11-08T01:12:18.216996,20.211,can0  204  [16]  8D 2E 50 46 50 46 50 46 E0 2E 40 9C 30 75 F4 01
2025-11-08T01:12:18.218953,20.213,can0  204  [16]  8D 2E 50 46 50 46 50 46 E0 2E 40 9C 30 75 F4 01
2025-11-08T01:12:18.219239,20.213,can0  041  [04]  5D 00 02 00
2025-11-08T01:12:18.226495,20.221,can0  204  [16]  8D 2E 50 46 50 46 50 46 E0 2E 40 9C 30 75 F4 01
2025-11-08T01:12:19.049499,21.044,can0  206  [16]  AB 0C D1 07 9B 0C 99 C6 E7 07 C3 0C A3 0C 00 00
2025-11-08T01:12:19.051111,21.045,can0  204  [16]  8D 2E 50 46 50 46 50 46 E0 2E 40 9C 30 75 F4 01
2025-11-08T01:12:19.052279,21.046,can0  204  [16]  8D 2E 50 46 50 46 50 46 E0 2E 40 9C 30 75 F4 01
2025-11-08T01:12:19.053464,21.048,can0  204  [16]  8D 2E 50 46 50 46 50 46 E0 2E 40 9C 30 75 F4 01
2025-11-08T01:12:19.054560,21.049,can0  206  [16]  BF 0C CF 07 97 0C 3A DF E9 07 CB 0C 93 0C 00 00
2025-11-08T01:12:19.055151,21.049,can0  041  [04]  2F 00 02 00
2025-11-08T01:12:19.056059,21.050,can0  204  [16]  8D 2E 50 46 50 46 50 46 E0 2E 40 9C 30 75 F4 01
2025-11-08T01:12:19.056958,21.051,can0  204  [16]  8D 2E 50 46 50 46 50 46 E0 2E 40 9C 30 75 F4 01
2025-11-08T01:12:19.057799,21.052,can0  204  [16]  8D 2E 50 46 50 46 50 46 E0 2E 40 9C 30 75 F4 01
2025-11-08T01:12:19.058902,21.053,can0  206  [16]  AB 0C CD 07 9F 0C DA DC E9 07 C3 0C A3 0C 00 00
2025-11-08T01:12:19.060060,21.054,can0  204  [16]  8D 2E 50 46 50 46 50 46 E0 2E 40 9C 30 75 F4 01
2025-11-08T01:12:19.060782,21.055,can0  204  [16]  8D 2E 50 46 50 46 50 46 E0 2E 40 9C 30 75 F4 01
2025-11-08T01:12:19.061716,21.056,can0  041  [04]  2F 00 05 00
2025-11-08T01:12:19.063814,21.058,can0  206  [16]  A3 0C CD 07 A7 0C B1 E0 E7 07 BB 0C A3 0C 00 00
2025-11-08T01:12:19.063884,21.058,can0  204  [16]  8D 2E 50 46 50 46 50 46 E0 2E 40 9C 30 75 F4 01
2025-11-08T01:12:19.064365,21.058,can0  204  [16]  8D 2E 50 46 50 46 50 46 E0 2E 40 9C 30 75 F4 01
2025-11-08T01:12:19.065351,21.059,can0  204  [16]  8D 2E 50 46 50 46 50 46 E0 2E 40 9C 30 75 F4 01
2025-11-08T01:12:19.066346,21.060,can0  206  [16]  9F 0C D8 07 A7 0C DA DC E7 07 BB 0C A7 0C 00 00
2025-11-08T01:12:19.067415,21.061,can0  204  [16]  8D 2E 50 46 50 46 50 46 E0 2E 40 9C 30 75 F4 01
2025-11-08T01:12:19.067987,21.062,can0  041  [04]  5D 00 05 00
2025-11-08T01:12:19.069790,21.064,can0  204  [16]  8D 2E 50 46 50 46 50 46 E0 2E 40 9C 30 75 F4 01
2025-11-08T01:12:19.069852,21.064,can0  206  [16]  A3 0C D1 07 9F 0C DA DC E9 07 CF 0C A7 0C 00 00
2025-11-08T01:12:19.070805,21.065,can0  204  [16]  8D 2E 50 46 50 46 50 46 E0 2E 40 9C 30 75 F4 01
2025-11-08T01:12:19.113683,21.108,can0   00  [05]  00 0e 20 40 00 0
2025-11-08T01:12:19.801084,21.795,can0  204  [16]  8D 2E 50 46 50 46 50 46 E0 2E 40 9C 30 75 F4 01
2025-11-08T01:12:19.802400,21.796,can0  204  [16]  8D 2E 50 46 50 46 50 46 E0 2E 40 9C 30 75 F4 01
2025-11-08T01:12:19.803243,21.797,can0  001  [05]  00 E2 04 00 00
2025-11-08T01:12:19.804273,21.798,can0  206  [16]  A3 0C D3 07 9F 0C B1 E0 E5 07 C3 0C A7 0C 00 00
2025-11-08T01:12:19.805133,21.799,can0  041  [04]  2F 00 05 00
2025-11-08T01:12:19.806057,21.800,can0  204  [16]  8D 2E 50 46 50 46 50 46 E0 2E 40 9C E1 75 B0 36
2025-11-08T01:12:19.806931,21.801,can0  204  [16]  8D 2E 50 46 50 46 50 46 E0 2E 40 9C 52 75 B0 36
2025-11-08T01:12:19.807850,21.802,can0  204  [16]  8D 2E 50 46 50 46 50 46 E0 2E 40 9C 36 75 B0 36
2025-11-08T01:12:19.808869,21.803,can0  206  [16]  A7 0C CD 07 A7 0C 3A DF E5 07 B7 0C A3 0C 00 00
2025-11-08T01:12:19.809842,21.804,can0  204  [16]  8D 2E 50 46 50 46 50 46 E0 2E 40 9C 31 75 B0 36
2025-11-08T01:12:19.810625,21.805,can0  041  [04]  2F 00 02 00
2025-11-08T01:12:19.811413,21.805,can0  204  [16]  8D 2E 50 46 50 46 50 46 E0 2E 40 9C 30 75 B0 36
2025-11-08T01:12:19.813626,21.808,can0  206  [16]  F0 0C D1 07 A3 0C 3A DF EF 07 C7 0C 56 0C 00 00
2025-11-08T01:12:19.814779,21.809,can0  204  [16]  8D 2E 50 46 50 46 50 46 E0 2E 40 9C 30 75 B0 36
2025-11-08T01:12:19.816463,21.811,can0  204  [16]  8D 2E 50 46 50 46 50 46 E0 2E 40 9C 30 75 B0 36
2025-11-08T01:12:19.817593,21.812,can0  204  [16]  8D 2E 50 46 50 46 50 46 E0 2E 40 9C 30 75 B0 36
2025-11-08T01:12:19.818798,21.813,can0  206  [16]  9F 0C D1 07 93 0C 69 E5 E5 07 D3 0C AB 0C 00 00
2025-11-08T01:12:19.819541,21.814,can0  204  [16]  8D 2E 50 46 50 46 50 46 E0 2E 40 9C 30 75 B0 36
2025-11-08T01:12:19.830580,21.825,can0  041  [04]  8B 00 02 00
2025-11-08T01:12:19.830762,21.825,can0  204  [16]  8D 2E 50 46 50 46 50 46 E0 2E 40 9C 30 75 B0 36
2025-11-08T01:12:20.614113,22.608,can0  206  [16]  9F 0C D3 07 A7 0C DA DC E5 07 BB 0C AB 0C 00 00
2025-11-08T01:12:20.615237,22.609,can0  204  [16]  8D 2E 50 46 50 46 50 46 E0 2E 40 9C 30 75 B0 36
2025-11-08T01:12:20.616196,22.610,can0  204  [16]  8D 2E 50 46 50 46 50 46 E0 2E 40 9C 30 75 B0 36
2025-11-08T01:12:20.617085,22.611,can0  204  [16]  8D 2E 50 46 50 46 50 46 E0 2E 40 9C 30 75 B0 36
2025-11-08T01:12:20.617871,22.612,can0  041  [04]  8B 00 02 00
2025-11-08T01:12:20.620888,22.615,can0  206  [16]  A7 0C D1 07 9B 0C 3A DF E5 07 BF 0C A7 0C 00 00
2025-11-08T01:12:20.623629,22.618,can0  204  [16]  8D 2E 50 46 50 46 50 46 E0 2E 40 9C 30 75 B0 36
2025-11-08T01:12:20.626975,22.621,can0  204  [16]  8D 2E 50 46 50 46 50 46 E0 2E 40 9C 30 75 B0 36
2025-11-08T01:12:20.628982,22.623,can0  204  [16]  8D 2E 50 46 50 46 50 46 E0 2E 40 9C 30 75 B0 36
2025-11-08T01:12:20.630232,22.624,can0  206  [16]  A3 0C D3 07 9F 0C DA DC E9 07 C7 0C A7 0C 00 00
2025-11-08T01:12:20.631166,22.625,can0  204  [16]  8D 2E 50 46 50 46 50 46 E0 2E 40 9C 30 75 B0 36
2025-11-08T01:12:20.631970,22.626,can0  041  [04]  8B 00 02 00
2025-11-08T01:12:20.632861,22.627,can0  204  [16]  8D 2E 50 46 50 46 50 46 E0 2E 40 9C 30 75 B0 36
2025-11-08T01:12:20.634982,22.629,can0  204  [16]  8D 2E 50 46 50 46 50 46 E0 2E 40 9C 30 75 B0 36
2025-11-08T01:12:20.636125,22.630,can0  206  [16]  B7 0C CF 07 67 0C B1 E0 E7 07 E3 0C A7 0C 00 00
2025-11-08T01:12:20.637050,22.631,can0  204  [16]  8D 2E 50 46 50 46 50 46 E0 2E 40 9C 30 75 B0 36
2025-11-08T01:12:20.641456,22.636,can0  204  [16]  8D 2E 50 46 50 46 50 46 E0 2E 40 9C 30 75 B0 36
2025-11-08T01:12:20.642048,22.636,can0  206  [16]  A3 0C D1 07 9B 0C 3A DF EF 07 C7 0C AB 0C 00 00
2025-11-08T01:12:20.647659,22.642,can0  204  [16]  8D 2E 50 46 50 46 50 46 E0 2E 40 9C 30 75 B0 36
2025-11-08T01:12:20.647733,22.642,can0  041  [04]  8B 00 02 00
2025-11-08T01:12:20.649398,22.643,can0  204  [16]  8D 2E 50 46 50 46 50 46 E0 2E 40 9C 30 75 B0 36
2025-11-08T01:12:20.650448,22.645,can0  204  [16]  8D 2E 50 46 50 46 50 46 E0 2E 40 9C 30 75 B0 36
2025-11-08T01:12:20.651477,22.646,can0  206  [16]  BB 0C D1 07 9B 0C DA DC E7 07 BF 0C 93 0C 00 00
2025-11-08T01:12:21.425238,23.419,can0  204  [16]  8D 2E 50 46 50 46 50 46 E0 2E 40 9C 30 75 B0 36
2025-11-08T01:12:21.426558,23.421,can0  204  [16]  8D 2E 50 46 50 46 50 46 E0 2E 40 9C 30 75 B0 36
2025-11-08T01:12:21.427485,23.422,can0  041  [04]  5E 00 02 00
2025-11-08T01:12:21.428561,23.423,can0  206  [16]  9B 0C CF 07 A3 0C DA DC E9 07 C3 0C AB 0C 00 00
2025-11-08T01:12:21.429497,23.424,can0  204  [16]  8D 2E 50 46 50 46 50 46 E0 2E 40 9C 30 75 B0 36
2025-11-08T01:12:21.430372,23.424,can0  204  [16]  8D 2E 50 46 50 46 50 46 E0 2E 40 9C 30 75 B0 36
2025-11-08T01:12:21.431326,23.425,can0  204  [16]  8D 2E 50 46 50 46 50 46 E0 2E 40 9C 30 75 B0 36
2025-11-08T01:12:21.432327,23.426,can0  206  [16]  A7 0C D1 07 9F 0C 3A DF E7 07 D3 0C A3 0C 00 00
2025-11-08T01:12:21.433311,23.427,can0  204  [16]  8D 2E 50 46 50 46 50 46 E0 2E 40 9C 30 75 B0 36
2025-11-08T01:12:21.434722,23.429,can0  041  [04]  8B 00 02 00
2025-11-08T01:12:21.435086,23.429,can0  204  [16]  8D 2E 50 46 50 46 50 46 E0 2E 40 9C 30 75 B0 36
2025-11-08T01:12:21.439320,23.433,can0  204  [16]  8D 2E 50 46 50 46 50 46 E0 2E 40 9C 30 75 B0 36
2025-11-08T01:12:21.449503,23.444,can0  206  [16]  AB 0C D1 07 97 0C B1 E0 EB 07 BF 0C A3 0C 00 00
2025-11-08T01:12:21.449614,23.444,can0  204  [16]  8D 2E 50 46 50 46 50 46 E0 2E 40 9C 30 75 B0 36
2025-11-08T01:12:21.449657,23.444,can0  204  [16]  8D 2E 50 46 50 46 50 46 E0 2E 40 9C 30 75 B0 36
2025-11-08T01:12:21.450969,23.445,can0  041  [04]  5E 00 02 00
2025-11-08T01:12:21.452290,23.446,can0  206  [16]  A3 0C D1 07 8B 0C 99 C6 E9 07 D3 0C AB 0C 00 00
2025-11-08T01:12:21.456516,23.451,can0  204  [16]  8D 2E 50 46 50 46 50 46 E0 2E 40 9C 30 75 B0 36
2025-11-08T01:12:21.459881,23.454,can0  204  [16]  8D 2E 50 46 50 46 50 46 E0 2E 40 9C 30 75 B0 36
2025-11-08T01:12:21.470611,23.465,can0  204  [16]  8D 2E 50 46 50 46 50 46 E0 2E 40 9C 30 75 B0 36
2025-11-08T01:12:22.245308,24.239,can0  206  [16]  AB 0C D1 07 9B 0C 3A DF E7 07 CB 0C A3 0C 00 00
2025-11-08T01:12:22.246659,24.241,can0  204  [16]  8D 2E 50 46 50 46 50 46 E0 2E 40 9C 30 75 B0 36
2025-11-08T01:12:22.247850,24.242,can0  204  [16]  8D 2E 50 46 50 46 50 46 E0 2E 40 9C 30 75 B0 36
2025-11-08T01:12:22.248736,24.243,can0  041  [04]  5E 00 02 00
2025-11-08T01:12:22.249646,24.244,can0  204  [16]  8D 2E 50 46 50 46 50 46 E0 2E 40 9C 30 75 B0 36
2025-11-08T01:12:22.250624,24.245,can0  206  [16]  A7 0C CD 07 9F 0C DA DC E9 07 C3 0C A7 0C 00 00
2025-11-08T01:12:22.251622,24.246,can0  204  [16]  8D 2E 50 46 50 46 50 46 E0 2E 40 9C 30 75 B0 36
2025-11-08T01:12:22.252608,24.247,can0  204  [16]  8D 2E 50 46 50 46 50 46 E0 2E 40 9C 30 75 B0 36
2025-11-08T01:12:22.253606,24.248,can0  206  [16]  9F 0C D1 07 A7 0C B1 E0 E7 07 BB 0C A7 0C 00 00
2025-11-08T01:12:22.256040,24.250,can0  204  [16]  8D 2E 50 46 50 46 50 46 E0 2E 40 9C 30 75 B0 36
2025-11-08T01:12:22.257302,24.251,can0  041  [04]  8B 00 02 00
2025-11-08T01:12:22.258497,24.253,can0  204  [16]  8D 2E 50 46 50 46 50 46 E0 2E 40 9C 30 75 B0 36
2025-11-08T01:12:22.259569,24.254,can0  204  [16]  8D 2E 50 46 50 46 50 46 E0 2E 40 9C 30 75 B0 36
2025-11-08T01:12:22.260536,24.255,can0  206  [16]  AF 0C D3 07 9F 0C 99 C6 EB 07 C7 0C 9F 0C 00 00
2025-11-08T01:12:22.264713,24.259,can0  204  [16]  8D 2E 50 46 50 46 50 46 E0 2E 40 9C 30 75 B0 36
2025-11-08T01:12:22.264779,24.259,can0  204  [16]  8D 2E 50 46 50 46 50 46 E0 2E 40 9C 30 75 B0 36
2025-11-08T01:12:22.264821,24.259,can0  041  [04]  8B 00 02 00
2025-11-08T01:12:22.265708,24.260,can0  204  [16]  8D 2E 50 46 50 46 50 46 E0 2E 40 9C 30 75 B0 36
2025-11-08T01:12:22.266610,24.261,can0  206  [16]  A7 0C D1 07 9B 0C 3A DF EB 07 CB 0C A7 0C 00 00
2025-11-08T01:12:22.267523,24.262,can0  204  [16]  8D 2E 50 46 50 46 50 46 E0 2E 40 9C 30 75 B0 36
2025-11-08T01:12:23.042941,25.037,can0  204  [16]  8D 2E 50 46 50 46 50 46 E0 2E 40 9C 30 75 B0 36
2025-11-08T01:12:23.044155,25.038,can0  204  [16]  8D 2E 50 46 50 46 50 46 E0 2E 40 9C 30 75 B0 36
2025-11-08T01:12:23.045184,25.039,can0  206  [16]  AB 0C D1 07 9F 0C 99 C6 E9 07 BF 0C A3 0C 00 00
2025-11-08T01:12:23.046007,25.040,can0  041  [04]  8B 00 02 00
2025-11-08T01:12:23.047093,25.041,can0  204  [16]  8D 2E 50 46 50 46 50 46 E0 2E 40 9C 30 75 B0 36
2025-11-08T01:12:23.047963,25.042,can0  204  [16]  8D 2E 50 46 50 46 50 46 E0 2E 40 9C 30 75 B0 36
2025-11-08T01:12:23.048876,25.043,can0  206  [16]  A3 0C D6 07 A3 0C DA DC ED 07 B7 0C A7 0C 00 00
2025-11-08T01:12:23.049889,25.044,can0  204  [16]  8D 2E 50 46 50 46 50 46 E0 2E 40 9C 30 75 B0 36
2025-11-08T01:12:23.050882,25.045,can0  204  [16]  8D 2E 50 46 50 46 50 46 E0 2E 40 9C 30 75 B0 36
2025-11-08T01:12:23.052126,25.046,can0  204  [16]  8D 2E 50 46 50 46 50 46 E0 2E 40 9C 30 75 B0 36
2025-11-08T01:12:23.052886,25.047,can0  041  [04]  8B 00 00 00
2025-11-08T01:12:23.053831,25.048,can0  206  [16]  AB 0C D3 07 9F 0C DA DC E5 07 C3 0C A3 0C 00 00
2025-11-08T01:12:23.060103,25.054,can0  204  [16]  8D 2E 50 46 50 46 50 46 E0 2E 40 9C 30 75 B0 36
2025-11-08T01:12:23.062270,25.056,can0  204  [16]  8D 2E 50 46 50 46 50 46 E0 2E 40 9C 30 75 B0 36
2025-11-08T01:12:23.064183,25.058,can0  206  [16]  8F 0C D8 07 A3 0C 99 C6 E7 07 BF 0C BB 0C 00 00
2025-11-08T01:12:23.065132,25.059,can0  204  [16]  8D 2E 50 46 50 46 50 46 E0 2E 40 9C 30 75 B0 36
2025-11-08T01:12:23.066168,25.060,can0  204  [16]  8D 2E 50 46 50 46 50 46 E0 2E 40 9C 30 75 B0 36
2025-11-08T01:12:23.067297,25.061,can0  041  [04]  8B 00 02 00
2025-11-08T01:12:23.068238,25.062,can0  204  [16]  8D 2E 50 46 50 46 50 46 E0 2E 40 9C 30 75 B0 36
2025-11-08T01:12:23.073401,25.067,can0  206  [16]  A7 0C CF 07 9F 0C DA DC E9 07 C7 0C A3 0C 00 00
2025-11-08T01:12:23.073484,25.068,can0  204  [16]  8D 2E 50 46 50 46 50 46 E0 2E 40 9C 30 75 B0 36
2025-11-08T01:12:23.834320,25.828,can0  204  [16]  8D 2E 50 46 50 46 50 46 E0 2E 40 9C 30 75 B0 36
2025-11-08T01:12:23.835680,25.830,can0  204  [16]  8D 2E 50 46 50 46 50 46 E0 2E 40 9C 30 75 B0 36
2025-11-08T01:12:23.836728,25.831,can0  206  [16]  CB 0C D1 07 A3 0C 3A DF E9 07 C3 0C 7F 0C 00 00
2025-11-08T01:12:23.837575,25.832,can0  041  [04]  8B 00 02 00
2025-11-08T01:12:23.838517,25.833,can0  204  [16]  8D 2E 50 46 50 46 50 46 E0 2E 40 9C 30 75 B0 36
2025-11-08T01:12:23.839446,25.834,can0  204  [16]  8D 2E 50 46 50 46 50 46 E0 2E 40 9C 30 75 B0 36
2025-11-08T01:12:23.840383,25.834,can0  204  [16]  8D 2E 50 46 50 46 50 46 E0 2E 40 9C 30 75 B0 36
2025-11-08T01:12:23.841400,25.835,can0  206  [16]  9F 0C CF 07 9F 0C DA DC E7 07 C7 0C AB 0C 00 00
2025-11-08T01:12:23.842367,25.836,can0  204  [16]  8D 2E 50 46 50 46 50 46 E0 2E 40 9C 30 75 B0 36
2025-11-08T01:12:23.843238,25.837,can0  041  [04]  5D 00 02 00
2025-11-08T01:12:23.844168,25.838,can0  204  [16]  8D 2E 50 46 50 46 50 46 E0 2E 40 9C 30 75 B0 36
2025-11-08T01:12:23.845098,25.839,can0  206  [16]  AF 0C CF 07 97 0C DA DC E9 07 C3 0C A3 0C 00 00
2025-11-08T01:12:23.846036,25.840,can0  204  [16]  8D 2E 50 46 50 46 50 46 E0 2E 40 9C 30 75 B0 36
2025-11-08T01:12:23.847195,25.841,can0  204  [16]  8D 2E 50 46 50 46 50 46 E0 2E 40 9C 30 75 B0 36
2025-11-08T01:12:23.849686,25.844,can0  204  [16]  8D 2E 50 46 50 46 50 46 E0 2E 40 9C 30 75 B0 36
2025-11-08T01:12:23.849750,25.844,can0  206  [16]  9F 0C D1 07 A3 0C 3A DF E3 07 BF 0C AB 0C 00 00
2025-11-08T01:12:23.850155,25.844,can0  204  [16]  8D 2E 50 46 50 46 50 46 E0 2E 40 9C 30 75 B0 36
2025-11-08T01:12:23.851088,25.845,can0  041  [04]  02 00 05 00
2025-11-08T01:12:23.852220,25.846,can0  204  [16]  8D 2E 50 46 50 46 50 46 E0 2E 40 9C 30 75 B0 36
2025-11-08T01:12:23.853413,25.847,can0  206  [16]  97 0C C9 07 A7 0C 3A DF E7 07 BF 0C AF 0C 00 00
2025-11-08T01:12:23.854396,25.848,can0  204  [16]  8D 2E 50 46 50 46 50 46 E0 2E 40 9C 30 75 B0 36
2025-11-08T01:12:24.666578,26.661,can0  204  [16]  8D 2E 50 46 50 46 50 46 E0 2E 40 9C 30 75 B0 36
2025-11-08T01:12:24.668188,26.662,can0  204  [16]  8D 2E 50 46 50 46 50 46 E0 2E 40 9C 30 75 B0 36
2025-11-08T01:12:24.669185,26.663,can0  041  [04]  B5 00 02 00
2025-11-08T01:12:24.670228,26.664,can0  206  [16]  A3 0C D1 07 9F 0C 3A DF E9 07 C7 0C A7 0C 00 00
2025-11-08T01:12:24.671216,26.665,can0  204  [16]  8D 2E 50 46 50 46 50 46 E0 2E 40 9C 30 75 B0 36
2025-11-08T01:12:24.672240,26.666,can0  204  [16]  8D 2E 50 46 50 46 50 46 E0 2E 40 9C 30 75 B0 36
2025-11-08T01:12:24.678597,26.673,can0  204  [16]  8D 2E 50 46 50 46 50 46 E0 2E 40 9C 30 75 B0 36
2025-11-08T01:12:24.678668,26.673,can0  206  [16]  A3 0C D3 07 9B 0C DA DC E5 07 C3 0C AB 0C 00 00
2025-11-08T01:12:24.678916,26.673,can0  204  [16]  8D 2E 50 46 50 46 50 46 E0 2E 40 9C 30 75 B0 36
2025-11-08T01:12:24.680624,26.675,can0  041  [04]  9F 00 02 00
2025-11-08T01:12:24.684856,26.679,can0  204  [16]  8D 2E 50 46 50 46 50 46 E0 2E 40 9C 30 75 B0 36
2025-11-08T01:12:24.686165,26.680,can0  204  [16]  8D 2E 50 46 50 46 50 46 E0 2E 40 9C 30 75 B0 36
2025-11-08T01:12:24.687247,26.681,can0  206  [16]  9F 0C CF 07 9B 0C B1 E0 EB 07 BF 0C AB 0C 00 00
2025-11-08T01:12:24.688251,26.682,can0  204  [16]  8D 2E 50 46 50 46 50 46 E0 2E 40 9C 30 75 B0 36
2025-11-08T01:12:24.690159,26.684,can0  204  [16]  8D 2E 50 46 50 46 50 46 E0 2E 40 9C 30 75 B0 36
2025-11-08T01:12:24.691636,26.686,can0  206  [16]  AB 0C CF 07 97 0C 99 C6 E9 07 CB 0C A7 0C 00 00
2025-11-08T01:12:24.692494,26.687,can0  041  [04]  B5 00 02 00
2025-11-08T01:12:24.693399,26.687,can0  204  [16]  8D 2E 50 46 50 46 50 46 E0 2E 40 9C 30 75 B0 36
2025-11-08T01:12:24.694306,26.688,can0  204  [16]  8D 2E 50 46 50 46 50 46 E0 2E 40 9C 30 75 B0 36
2025-11-08T01:12:24.695213,26.689,can0  204  [16]  8D 2E 50 46 50 46 50 46 E0 2E 40 9C 30 75 B0 36
2025-11-08T01:12:24.700215,26.694,can0  206  [16]  A7 0C D1 07 8F 0C 3A DF E9 07 D7 0C A3 0C 00 00
2025-11-08T01:12:25.472748,27.467,can0  204  [16]  8D 2E 50 46 50 46 50 46 E0 2E 40 9C 30 75 B0 36
2025-11-08T01:12:25.474001,27.468,can0  204  [16]  8D 2E 50 46 50 46 50 46 E0 2E 40 9C 30 75 B0 36
2025-11-08T01:12:25.476649,27.471,can0  041  [04]  9F 00 02 00
2025-11-08T01:12:25.476697,27.471,can0  206  [16]  AB 0C D1 07 9F 0C 99 C6 E9 07 C3 0C A3 0C 00 00
2025-11-08T01:12:25.476736,27.471,can0  204  [16]  8D 2E 50 46 50 46 50 46 E0 2E 40 9C 30 75 B0 36
2025-11-08T01:12:25.477239,27.471,can0  204  [16]  8D 2E 50 46 50 46 50 46 E0 2E 40 9C 30 75 B0 36
2025-11-08T01:12:25.478117,27.472,can0  204  [16]  8D 2E 50 46 50 46 50 46 E0 2E 40 9C 30 75 B0 36
2025-11-08T01:12:25.478999,27.473,can0  206  [16]  AF 0C C4 07 97 0C 99 C6 E9 07 BF 0C A3 0C 00 00
2025-11-08T01:12:25.479913,27.474,can0  204  [16]  8D 2E 50 46 50 46 50 46 E0 2E 40 9C 30 75 B0 36
2025-11-08T01:12:25.483085,27.477,can0  041  [04]  97 00 05 00
2025-11-08T01:12:25.484970,27.479,can0  204  [16]  8D 2E 50 46 50 46 50 46 E0 2E 40 9C 30 75 B0 36
2025-11-08T01:12:25.487436,27.482,can0  204  [16]  8D 2E 50 46 50 46 50 46 E0 2E 40 9C 30 75 B0 36
2025-11-08T01:12:25.488597,27.483,can0  206  [16]  A7 0C CF 07 9F 0C DA DC EB 07 BB 0C A3 0C 00 00
2025-11-08T01:12:25.489525,27.484,can0  204  [16]  8D 2E 50 46 50 46 50 46 E0 2E 40 9C 30 75 B0 36
2025-11-08T01:12:25.490811,27.485,can0  204  [16]  8D 2E 50 46 50 46 50 46 E0 2E 40 9C 30 75 B0 36
2025-11-08T01:12:25.491646,27.486,can0  041  [04]  8B 00 02 00
2025-11-08T01:12:25.492563,27.487,can0  204  [16]  8D 2E 50 46 50 46 50 46 E0 2E 40 9C 30 75 B0 36
2025-11-08T01:12:25.494486,27.489,can0  206  [16]  A3 0C D1 07 9F 0C 3A DF E9 07 BF 0C AB 0C 00 00
2025-11-08T01:12:25.494544,27.489,can0  204  [16]  8D 2E 50 46 50 46 50 46 E0 2E 40 9C 30 75 B0 36
2025-11-08T01:12:25.495425,27.489,can0  204  [16]  8D 2E 50 46 50 46 50 46 E0 2E 40 9C 30 75 B0 36
2025-11-08T01:12:26.253668,28.248,can0  206  [16]  A3 0C CD 07 9F 0C DA DC EB 07 C7 0C AB 0C 00 00
2025-11-08T01:12:26.254843,28.249,can0  204  [16]  8D 2E 50 46 50 46 50 46 E0 2E 40 9C 30 75 B0 36
2025-11-08T01:12:26.255741,28.250,can0  041  [04]  8B 00 02 00
2025-11-08T01:12:26.256698,28.251,can0  204  [16]  8D 2E 50 46 50 46 50 46 E0 2E 40 9C 30 75 B0 36
2025-11-08T01:12:26.257650,28.252,can0  204  [16]  8D 2E 50 46 50 46 50 46 E0 2E 40 9C 30 75 B0 36
2025-11-08T01:12:26.258725,28.253,can0  206  [16]  AB 0C CF 07 93 0C DA DC E9 07 CF 0C A7 0C 00 00
2025-11-08T01:12:26.259711,28.254,can0  204  [16]  8D 2E 50 46 50 46 50 46 E0 2E 40 9C 30 75 B0 36
2025-11-08T01:12:26.260686,28.255,can0  204  [16]  8D 2E 50 46 50 46 50 46 E0 2E 40 9C 30 75 B0 36
2025-11-08T01:12:26.261685,28.256,can0  206  [16]  AB 0C D6 07 A7 0C DA DC E7 07 C3 0C 9B 0C 00 00
2025-11-08T01:12:26.262545,28.257,can0  041  [04]  8B 00 02 00
2025-11-08T01:12:26.263512,28.258,can0  204  [16]  8D 2E 50 46 50 46 50 46 E0 2E 40 9C 30 75 B0 36
2025-11-08T01:12:26.264480,28.259,can0  204  [16]  8D 2E 50 46 50 46 50 46 E0 2E 40 9C 30 75 B0 36
2025-11-08T01:12:26.268051,28.262,can0  204  [16]  8D 2E 50 46 50 46 50 46 E0 2E 40 9C 30 75 B0 36
2025-11-08T01:12:26.270008,28.264,can0  206  [16]  A7 0C D1 07 A3 0C DA DC E7 07 BF 0C A7 0C 00 00
2025-11-08T01:12:26.271092,28.265,can0  204  [16]  8D 2E 50 46 50 46 50 46 E0 2E 40 9C 30 75 B0 36
2025-11-08T01:12:26.272078,28.266,can0  204  [16]  8D 2E 50 46 50 46 50 46 E0 2E 40 9C 30 75 B0 36
2025-11-08T01:12:26.273070,28.267,can0  041  [04]  8B 00 02 00
2025-11-08T01:12:26.273948,28.268,can0  204  [16]  8D 2E 50 46 50 46 50 46 E0 2E 40 9C 30 75 B0 36
2025-11-08T01:12:26.276999,28.271,can0  206  [16]  9F 0C CD 07 A3 0C DA DC ED 07 BF 0C AB 0C 00 00
2025-11-08T01:12:26.277069,28.271,can0  204  [16]  8D 2E 50 46 50 46 50 46 E0 2E 40 9C 30 75 B0 36
2025-11-08T01:12:26.278367,28.272,can0  204  [16]  8D 2E 50 46 50 46 50 46 E0 2E 40 9C 30 75 B0 36
2025-11-08T01:12:27.070112,29.064,can0  206  [16]  97 0C D6 07 9F 0C B1 E0 E9 07 C3 0C B3 0C 00 00
2025-11-08T01:12:27.071318,29.065,can0  204  [16]  8D 2E 50 46 50 46 50 46 E0 2E 40 9C 30 75 B0 36
2025-11-08T01:12:27.073547,29.068,can0  041  [04]  B5 00 02 00
2025-11-08T01:12:27.073708,29.068,can0  204  [16]  8D 2E 50 46 50 46 50 46 E0 2E 40 9C 30 75 B0 36
2025-11-08T01:12:27.074878,29.069,can0  204  [16]  8D 2E 50 46 50 46 50 46 E0 2E 40 9C 30 75 B0 36
2025-11-08T01:12:27.075043,29.069,can0  206  [16]  A7 0C D1 07 97 0C 99 C6 E9 07 BF 0C A7 0C 00 00
2025-11-08T01:12:27.075561,29.070,can0  204  [16]  8D 2E 50 46 50 46 50 46 E0 2E 40 9C 30 75 B0 36
2025-11-08T01:12:27.076228,29.070,can0  204  [16]  8D 2E 50 46 50 46 50 46 E0 2E 40 9C 30 75 B0 36
2025-11-08T01:12:27.076818,29.071,can0  041  [04]  8B 00 02 00
2025-11-08T01:12:27.077729,29.072,can0  204  [16]  8D 2E 50 46 50 46 50 46 E0 2E 40 9C 30 75 B0 36
2025-11-08T01:12:27.078432,29.073,can0  206  [16]  9B 0C D1 07 9F 0C 99 C6 EF 07 BF 0C B3 0C 00 00
2025-11-08T01:12:27.079216,29.073,can0  204  [16]  8D 2E 50 46 50 46 50 46 E0 2E 40 9C 30 75 B0 36
2025-11-08T01:12:27.079987,29.074,can0  204  [16]  8D 2E 50 46 50 46 50 46 E0 2E 40 9C 30 75 B0 36
2025-11-08T01:12:27.082160,29.076,can0  206  [16]  A3 0C CD 07 9B 0C 99 C6 E5 07 C3 0C AB 0C 00 00
2025-11-08T01:12:27.082422,29.076,can0  204  [16]  8D 2E 50 46 50 46 50 46 E0 2E 40 9C 30 75 B0 36
2025-11-08T01:12:27.082580,29.077,can0  041  [04]  B5 00 02 00
2025-11-08T01:12:27.083124,29.077,can0  204  [16]  8D 2E 50 46 50 46 50 46 E0 2E 40 9C 30 75 B0 36
2025-11-08T01:12:27.083925,29.078,can0  204  [16]  8D 2E 50 46 50 46 50 46 E0 2E 40 9C 30 75 B0 36
2025-11-08T01:12:27.084679,29.079,can0  206  [16]  B7 0C D1 07 9F 0C 99 C6 E7 07 BB 0C 93 0C 00 00
2025-11-08T01:12:27.085580,29.080,can0  204  [16]  8D 2E 50 46 50 46 50 46 E0 2E 40 9C 30 75 B0 36
2025-11-08T01:12:27.870159,29.864,can0  204  [16]  8D 2E 50 46 50 46 50 46 E0 2E 40 9C 30 75 B0 36
2025-11-08T01:12:27.871951,29.866,can0  204  [16]  8D 2E 50 46 50 46 50 46 E0 2E 40 9C 30 75 B0 36
2025-11-08T01:12:27.872218,29.866,can0  041  [04]  B5 00 02 00
2025-11-08T01:12:27.873661,29.868,can0  206  [16]  A7 0C D6 07 9B 0C 99 C6 E7 07 C3 0C A3 0C 00 00
2025-11-08T01:12:27.874355,29.868,can0  204  [16]  8D 2E 50 46 50 46 50 46 E0 2E 40 9C 30 75 B0 36
2025-11-08T01:12:27.875285,29.869,can0  204  [16]  8D 2E 50 46 50 46 50 46 E0 2E 40 9C 30 75 B0 36
2025-11-08T01:12:27.876205,29.870,can0  204  [16]  8D 2E 50 46 50 46 50 46 E0 2E 40 9C 30 75 B0 36
2025-11-08T01:12:27.877241,29.871,can0  206  [16]  A3 0C D6 07 93 0C DA DC E9 07 CB 0C AB 0C 00 00
2025-11-08T01:12:27.878212,29.872,can0  204  [16]  8D 2E 50 46 50 46 50 46 E0 2E 40 9C 30 75 B0 36
2025-11-08T01:12:27.879058,29.873,can0  041  [04]  10 01 02 00
2025-11-08T01:12:27.880232,29.874,can0  204  [16]  8D 2E 50 46 50 46 50 46 E0 2E 40 9C 30 75 B0 36
2025-11-08T01:12:27.881111,29.875,can0  206  [16]  B3 0C D1 07 9F 0C 3A DF EF 07 C3 0C 97 0C 00 00
2025-11-08T01:12:27.882019,29.876,can0  204  [16]  8D 2E 50 46 50 46 50 46 E0 2E 40 9C 30 75 B0 36
2025-11-08T01:12:27.882981,29.877,can0  204  [16]  8D 2E 50 46 50 46 50 46 E0 2E 40 9C 30 75 B0 36
2025-11-08T01:12:27.884243,29.878,can0  204  [16]  8D 2E 50 46 50 46 50 46 E0 2E 40 9C 30 75 B0 36
2025-11-08T01:12:27.885000,29.879,can0  206  [16]  97 0C D1 07 A7 0C DA DC E9 07 AF 0C AB 0C 00 00
2025-11-08T01:12:27.885918,29.880,can0  041  [04]  E4 00 02 00
2025-11-08T01:12:27.886951,29.881,can0  204  [16]  8D 2E 50 46 50 46 50 46 E0 2E 40 9C 30 75 B0 36
2025-11-08T01:12:27.888037,29.882,can0  204  [16]  8D 2E 50 46 50 46 50 46 E0 2E 40 9C 30 75 B0 36
2025-11-08T01:12:27.889091,29.883,can0  206  [16]  A7 0C D3 07 9F 0C 3A DF E5 07 C3 0C A7 0C 00 00
2025-11-08T01:12:27.894170,29.888,can0  204  [16]  8D 2E 50 46 50 46 50 46 E0 2E 40 9C 30 75 B0 36
2025-11-08T01:12:28.840301,30.834,can0  204  [16]  8D 2E 50 46 50 46 50 46 E0 2E 40 9C 30 75 B0 36
2025-11-08T01:12:28.842995,30.837,can0  041  [04]  B5 00 02 00
2025-11-08T01:12:28.843064,30.837,can0  204  [16]  8D 2E 50 46 50 46 50 46 E0 2E 40 9C 30 75 B0 36
2025-11-08T01:12:28.843418,30.837,can0  206  [16]  A3 0C D3 07 A3 0C 3A DF E7 07 BF 0C A7 0C 00 00
2025-11-08T01:12:28.844786,30.839,can0  204  [16]  8D 2E 50 46 50 46 50 46 E0 2E 40 9C 30 75 B0 36
2025-11-08T01:12:28.845613,30.840,can0  204  [16]  8D 2E 50 46 50 46 50 46 E0 2E 40 9C 30 75 B0 36
2025-11-08T01:12:28.846662,30.841,can0  204  [16]  8D 2E 50 46 50 46 50 46 E0 2E 40 9C 30 75 B0 36
2025-11-08T01:12:28.848207,30.842,can0  206  [16]  B3 0C D6 07 A3 0C DA DC EB 07 D3 0C 93 0C 00 00
2025-11-08T01:12:28.849553,30.844,can0  204  [16]  8D 2E 50 46 50 46 50 46 E0 2E 40 9C 30 75 B0 36
2025-11-08T01:12:28.850107,30.844,can0  041  [04]  8B 00 02 00
2025-11-08T01:12:28.851717,30.846,can0  204  [16]  8D 2E 50 46 50 46 50 46 E0 2E 40 9C 30 75 B0 36
2025-11-08T01:12:28.852315,30.846,can0  206  [16]  9B 0C D3 07 A3 0C 99 C6 E7 07 CB 0C AB 0C 00 00
2025-11-08T01:12:28.853420,30.847,can0  204  [16]  8D 2E 50 46 50 46 50 46 E0 2E 40 9C 30 75 B0 36
2025-11-08T01:12:28.854971,30.849,can0  204  [16]  8D 2E 50 46 50 46 50 46 E0 2E 40 9C 30 75 B0 36
2025-11-08T01:12:28.855968,30.850,can0  204  [16]  8D 2E 50 46 50 46 50 46 E0 2E 40 9C 30 75 B0 36
2025-11-08T01:12:28.856859,30.851,can0  041  [04]  2F 00 02 00
2025-11-08T01:12:28.858117,30.852,can0  206  [16]  9F 0C D3 07 A3 0C B1 E0 E5 07 C3 0C A7 0C 00 00
2025-11-08T01:12:28.858951,30.853,can0  204  [16]  8D 2E 50 46 50 46 50 46 E0 2E 40 9C 30 75 B0 36
2025-11-08T01:12:28.859951,30.854,can0  204  [16]  8D 2E 50 46 50 46 50 46 E0 2E 40 9C 30 75 B0 36
2025-11-08T01:12:28.860933,30.855,can0  204  [16]  8D 2E 50 46 50 46 50 46 E0 2E 40 9C 30 75 B0 36
2025-11-08T01:12:28.861990,30.856,can0  206  [16]  83 0C D1 07 BB 0C 99 C6 E9 07 C3 0C AB 0C 00 00
2025-11-08T01:12:28.862979,30.857,can0  204  [16]  8D 2E 50 46 50 46 50 46 E0 2E 40 9C 30 75 B0 36
2025-11-08T01:12:28.863870,30.858,can0  041  [04]  2F 00 02 00
2025-11-08T01:12:28.864853,30.859,can0  204  [16]  8D 2E 50 46 50 46 50 46 E0 2E 40 9C 30 75 B0 36
2025-11-08T01:12:28.865913,30.860,can0  206  [16]  A7 0C CF 07 9B 0C C5 E1 E9 07 C3 0C A7 0C 00 00
2025-11-08T01:12:28.866908,30.861,can0  204  [16]  8D 2E 50 46 50 46 50 46 E0 2E 40 9C 30 75 B0 36
2025-11-08T01:12:29.662513,31.657,can0  204  [16]  8D 2E 50 46 50 46 50 46 E0 2E 40 9C 30 75 B0 36
2025-11-08T01:12:29.663936,31.658,can0  204  [16]  8D 2E 50 46 50 46 50 46 E0 2E 40 9C 30 75 B0 36
2025-11-08T01:12:29.665030,31.659,can0  206  [16]  9B 0C D6 07 A3 0C 99 C6 E5 07 C3 0C AB 0C 00 00
2025-11-08T01:12:29.666589,31.661,can0  041  [04]  2F 00 02 00
2025-11-08T01:12:29.666936,31.661,can0  204  [16]  8D 2E 50 46 50 46 50 46 E0 2E 40 9C 30 75 B0 36
2025-11-08T01:12:29.668297,31.662,can0  204  [16]  8D 2E 50 46 50 46 50 46 E0 2E 40 9C 30 75 B0 36
2025-11-08T01:12:29.675000,31.669,can0  204  [16]  8D 2E 50 46 50 46 50 46 E0 2E 40 9C 30 75 B0 36
2025-11-08T01:12:29.675763,31.670,can0  206  [16]  AF 0C CB 07 9F 0C 3A DF E9 07 BB 0C 9F 0C 00 00
2025-11-08T01:12:29.675823,31.670,can0  204  [16]  8D 2E 50 46 50 46 50 46 E0 2E 40 9C 30 75 B0 36
2025-11-08T01:12:29.675862,31.670,can0  204  [16]  8D 2E 50 46 50 46 50 46 E0 2E 40 9C 30 75 B0 36
2025-11-08T01:12:29.676756,31.671,can0  041  [04]  2F 00 02 00
2025-11-08T01:12:29.678022,31.672,can0  206  [16]  A7 0C D1 07 97 0C 99 C6 E9 07 BB 0C A7 0C 00 00
2025-11-08T01:12:29.679211,31.673,can0  204  [16]  8D 2E 50 46 50 46 50 46 E0 2E 40 9C 30 75 B0 36
2025-11-08T01:12:29.683487,31.678,can0  204  [16]  8D 2E 50 46 50 46 50 46 E0 2E 40 9C 30 75 B0 36
2025-11-08T01:12:29.685396,31.679,can0  204  [16]  8D 2E 50 46 50 46 50 46 E0 2E 40 9C 30 75 B0 36
2025-11-08T01:12:29.686773,31.681,can0  206  [16]  A7 0C D6 07 8B 0C DA DC EB 07 CB 0C A7 0C 00 00
2025-11-08T01:12:29.688722,31.683,can0  204  [16]  8D 2E 50 46 50 46 50 46 E0 2E 40 9C 30 75 B0 36
2025-11-08T01:12:29.691068,31.685,can0  041  [04]  2F 00 02 00
2025-11-08T01:12:29.692151,31.686,can0  204  [16]  8D 2E 50 46 50 46 50 46 E0 2E 40 9C 30 75 B0 36
2025-11-08T01:12:29.693104,31.687,can0  204  [16]  8D 2E 50 46 50 46 50 46 E0 2E 40 9C 30 75 B0 36
2025-11-08T01:12:29.694652,31.689,can0  206  [16]  AB 0C D1 07 9B 0C F4 E3 E9 07 C7 0C A3 0C 00 00
2025-11-08T01:12:30.501435,32.496,can0  204  [16]  8D 2E 50 46 50 46 50 46 E0 2E 40 9C 30 75 B0 36
2025-11-08T01:12:30.502781,32.497,can0  204  [16]  8D 2E 50 46 50 46 50 46 E0 2E 40 9C 30 75 B0 36
2025-11-08T01:12:30.503856,32.498,can0  206  [16]  A3 0C D3 07 9F 0C DA DC E9 07 C3 0C A7 0C 00 00
2025-11-08T01:12:30.504728,32.499,can0  041  [04]  8B 00 02 00
2025-11-08T01:12:30.506005,32.500,can0  204  [16]  8D 2E 50 46 50 46 50 46 E0 2E 40 9C 30 75 B0 36
2025-11-08T01:12:30.506611,32.501,can0  204  [16]  8D 2E 50 46 50 46 50 46 E0 2E 40 9C 30 75 B0 36
2025-11-08T01:12:30.507322,32.501,can0  204  [16]  8D 2E 50 46 50 46 50 46 E0 2E 40 9C 30 75 B0 36
2025-11-08T01:12:30.508562,32.503,can0  206  [16]  9F 0C D1 07 9B 0C 3A DF E9 07 C3 0C AF 0C 00 00
2025-11-08T01:12:30.509534,32.504,can0  204  [16]  8D 2E 50 46 50 46 50 46 E0 2E 40 9C 30 75 B0 36
2025-11-08T01:12:30.515726,32.510,can0  204  [16]  8D 2E 50 46 50 46 50 46 E0 2E 40 9C 30 75 B0 36
2025-11-08T01:12:30.515896,32.510,can0  041  [04]  E4 00 02 00
2025-11-08T01:12:30.516166,32.510,can0  206  [16]  A3 0C D1 07 9B 0C DA DC E7 07 C3 0C AB 0C 00 00
2025-11-08T01:12:30.516406,32.510,can0  204  [16]  8D 2E 50 46 50 46 50 46 E0 2E 40 9C 30 75 B0 36
2025-11-08T01:12:30.517140,32.511,can0  204  [16]  8D 2E 50 46 50 46 50 46 E0 2E 40 9C 30 75 B0 36
2025-11-08T01:12:30.519247,32.513,can0  204  [16]  8D 2E 50 46 50 46 50 46 E0 2E 40 9C 30 75 B0 36
2025-11-08T01:12:30.519306,32.513,can0  206  [16]  A3 0C D1 07 A3 0C 3A DF E5 07 BF 0C A7 0C 00 00
2025-11-08T01:12:30.519663,32.514,can0  204  [16]  8D 2E 50 46 50 46 50 46 E0 2E 40 9C 30 75 B0 36
2025-11-08T01:12:30.522049,32.516,can0  041  [04]  E4 00 02 00
2025-11-08T01:12:30.523578,32.518,can0  204  [16]  8D 2E 50 46 50 46 50 46 E0 2E 40 9C 30 75 B0 36
2025-11-08T01:12:30.525069,32.519,can0  204  [16]  8D 2E 50 46 50 46 50 46 E0 2E 40 9C 30 75 B0 36
2025-11-08T01:12:30.526271,32.520,can0  206  [16]  A7 0C D1 07 9B 0C DA DC E5 07 C3 0C A7 0C 00 00
2025-11-08T01:12:31.315458,33.310,can0  204  [16]  8D 2E 50 46 50 46 50 46 E0 2E 40 9C 30 75 B0 36
2025-11-08T01:12:31.316655,33.311,can0  204  [16]  8D 2E 50 46 50 46 50 46 E0 2E 40 9C 30 75 B0 36
2025-11-08T01:12:31.317760,33.312,can0  206  [16]  A3 0C CB 07 A3 0C B1 E0 ED 07 BF 0C A7 0C 00 00
2025-11-08T01:12:31.318658,33.313,can0  041  [04]  B5 00 02 00
2025-11-08T01:12:31.320040,33.314,can0  204  [16]  8D 2E 50 46 50 46 50 46 E0 2E 40 9C 30 75 B0 36
2025-11-08T01:12:31.320725,33.315,can0  204  [16]  8D 2E 50 46 50 46 50 46 E0 2E 40 9C 30 75 B0 36
2025-11-08T01:12:31.321514,33.316,can0  204  [16]  8D 2E 50 46 50 46 50 46 E0 2E 40 9C 30 75 B0 36
2025-11-08T01:12:31.323351,33.317,can0  206  [16]  A3 0C D1 07 9B 0C DA DC E3 07 C7 0C AB 0C 00 00
2025-11-08T01:12:31.323580,33.318,can0  204  [16]  8D 2E 50 46 50 46 50 46 E0 2E 40 9C 30 75 B0 36
2025-11-08T01:12:31.327830,33.322,can0  041  [04]  9F 00 02 00
2025-11-08T01:12:31.327885,33.322,can0  204  [16]  8D 2E 50 46 50 46 50 46 E0 2E 40 9C 30 75 B0 36
2025-11-08T01:12:31.327927,33.322,can0  206  [16]  A3 0C D3 07 9F 0C 3A DF E5 07 BB 0C AB 0C 00 00
2025-11-08T01:12:31.327963,33.322,can0  204  [16]  8D 2E 50 46 50 46 50 46 E0 2E 40 9C 30 75 B0 36
2025-11-08T01:12:31.328350,33.322,can0  204  [16]  8D 2E 50 46 50 46 50 46 E0 2E 40 9C 30 75 B0 36
2025-11-08T01:12:31.329358,33.323,can0  204  [16]  8D 2E 50 46 50 46 50 46 E0 2E 40 9C 30 75 B0 36
2025-11-08T01:12:31.330973,33.325,can0  206  [16]  97 0C D1 07 7B 0C A0 E2 EB 07 E3 0C B3 0C 00 00
2025-11-08T01:12:31.332280,33.326,can0  204  [16]  8D 2E 50 46 50 46 50 46 E0 2E 40 9C 30 75 B0 36
2025-11-08T01:12:31.333907,33.328,can0  041  [04]  8B 00 02 00
2025-11-08T01:12:31.339495,33.334,can0  204  [16]  8D 2E 50 46 50 46 50 46 E0 2E 40 9C 30 75 B0 36
2025-11-08T01:12:31.339609,33.334,can0  204  [16]  8D 2E 50 46 50 46 50 46 E0 2E 40 9C 30 75 B0 36
2025-11-08T01:12:31.339642,33.334,can0  206  [16]  C3 0C D1 07 97 0C 3A DF E7 07 D3 0C 87 0C 00 00
2025-11-08T01:12:32.176287,34.170,can0  204  [16]  8D 2E 50 46 50 46 50 46 E0 2E 40 9C 30 75 B0 36
2025-11-08T01:12:32.177868,34.172,can0  204  [16]  8D 2E 50 46 50 46 50 46 E0 2E 40 9C 30 75 B0 36
2025-11-08T01:12:32.178792,34.173,can0  041  [04]  8B 00 02 00
2025-11-08T01:12:32.179846,34.174,can0  206  [16]  A3 0C CF 07 A3 0C B1 E0 E9 07 C7 0C A3 0C 00 00
2025-11-08T01:12:32.181214,34.175,can0  204  [16]  8D 2E 50 46 50 46 50 46 E0 2E 40 9C 30 75 B0 36
2025-11-08T01:12:32.181895,34.176,can0  204  [16]  8D 2E 50 46 50 46 50 46 E0 2E 40 9C 30 75 B0 36
2025-11-08T01:12:32.182906,34.177,can0  204  [16]  8D 2E 50 46 50 46 50 46 E0 2E 40 9C 30 75 B0 36
2025-11-08T01:12:32.183976,34.178,can0  206  [16]  A3 0C D6 07 9F 0C 99 C6 EF 07 C7 0C AB 0C 00 00
2025-11-08T01:12:32.184968,34.179,can0  204  [16]  8D 2E 50 46 50 46 50 46 E0 2E 40 9C 30 75 B0 36
2025-11-08T01:12:32.185880,34.180,can0  041  [04]  8B 00 02 00
2025-11-08T01:12:32.187367,34.181,can0  204  [16]  8D 2E 50 46 50 46 50 46 E0 2E 40 9C 30 75 B0 36
2025-11-08T01:12:32.187687,34.182,can0  204  [16]  8D 2E 50 46 50 46 50 46 E0 2E 40 9C 30 75 B0 36
2025-11-08T01:12:32.190194,34.184,can0  206  [16]  AB 0C CB 07 A3 0C DA DC E5 07 BF 0C A3 0C 00 00
2025-11-08T01:12:32.190266,34.184,can0  204  [16]  8D 2E 50 46 50 46 50 46 E0 2E 40 9C 30 75 B0 36
2025-11-08T01:12:32.191908,34.186,can0  204  [16]  8D 2E 50 46 50 46 50 46 E0 2E 40 9C 30 75 B0 36
2025-11-08T01:12:32.192626,34.187,can0  206  [16]  A3 0C CF 07 A7 0C DA DC E7 07 B7 0C A7 0C 00 00
2025-11-08T01:12:32.193711,34.188,can0  041  [04]  8B 00 02 00
2025-11-08T01:12:32.195034,34.189,can0  204  [16]  8D 2E 50 46 50 46 50 46 E0 2E 40 9C 30 75 B0 36
2025-11-08T01:12:32.195902,34.190,can0  204  [16]  8D 2E 50 46 50 46 50 46 E0 2E 40 9C 30 75 B0 36
2025-11-08T01:12:32.196956,34.191,can0  204  [16]  8D 2E 50 46 50 46 50 46 E0 2E 40 9C 30 75 B0 36
2025-11-08T01:12:32.197957,34.192,can0  206  [16]  AB 0C D1 07 AB 0C DA DC E5 07 B7 0C A3 0C 00 00
2025-11-08T01:12:32.198937,34.193,can0  204  [16]  8D 2E 50 46 50 46 50 46 E0 2E 40 9C 30 75 B0 36
2025-11-08T01:12:33.028860,35.023,can0  204  [16]  8D 2E 50 46 50 46 50 46 E0 2E 40 9C 30 75 B0 36
2025-11-08T01:12:33.037079,35.031,can0  041  [04]  8B 00 02 00
2025-11-08T01:12:33.038916,35.033,can0  204  [16]  8D 2E 50 46 50 46 50 46 E0 2E 40 9C 30 75 B0 36
2025-11-08T01:12:33.040738,35.035,can0  206  [16]  9F 0C D1 07 A3 0C 3A DF E0 07 B7 0C AB 0C 00 00
2025-11-08T01:12:33.042264,35.036,can0  204  [16]  8D 2E 50 46 50 46 50 46 E0 2E 40 9C 30 75 B0 36
2025-11-08T01:12:33.045072,35.039,can0  204  [16]  8D 2E 50 46 50 46 50 46 E0 2E 40 9C 30 75 B0 36
2025-11-08T01:12:33.046397,35.040,can0  206  [16]  A3 0C CF 07 A3 0C 57 E3 E9 07 BB 0C A7 0C 00 00
2025-11-08T01:12:33.047605,35.042,can0  204  [16]  8D 2E 50 46 50 46 50 46 E0 2E 40 9C 30 75 B0 36
2025-11-08T01:12:33.053464,35.048,can0  041  [04]  5E 00 02 00
2025-11-08T01:12:33.058531,35.053,can0  204  [16]  8D 2E 50 46 50 46 50 46 E0 2E 40 9C 30 75 B0 36
2025-11-08T01:12:33.058605,35.053,can0  204  [16]  8D 2E 50 46 50 46 50 46 E0 2E 40 9C 30 75 B0 36
2025-11-08T01:12:33.058644,35.053,can0  206  [16]  9F 0C D1 07 A7 0C DA DC EB 07 BB 0C A7 0C 00 00
2025-11-08T01:12:33.058680,35.053,can0  204  [16]  8D 2E 50 46 50 46 50 46 E0 2E 40 9C 30 75 B0 36
2025-11-08T01:12:33.060379,35.054,can0  204  [16]  8D 2E 50 46 50 46 50 46 E0 2E 40 9C 30 75 B0 36
2025-11-08T01:12:33.062635,35.057,can0  041  [04]  5D 00 02 00
2025-11-08T01:12:33.063345,35.057,can0  204  [16]  8D 2E 50 46 50 46 50 46 E0 2E 40 9C 30 75 B0 36
2025-11-08T01:12:33.064425,35.059,can0  206  [16]  AF 0C D1 07 9B 0C 99 C6 E9 07 C3 0C 9F 0C 00 00
2025-11-08T01:12:33.065451,35.060,can0  204  [16]  8D 2E 50 46 50 46 50 46 E0 2E 40 9C 30 75 B0 36
2025-11-08T01:12:33.066449,35.061,can0  204  [16]  8D 2E 50 46 50 46 50 46 E0 2E 40 9C 30 75 B0 36
2025-11-08T01:12:33.067676,35.062,can0  206  [16]  A7 0C D1 07 A3 0C DA DC E9 07 C7 0C 9F 0C 00 00
2025-11-08T01:12:33.068730,35.063,can0  204  [16]  8D 2E 50 46 50 46 50 46 E0 2E 40 9C 30 75 B0 36
2025-11-08T01:12:33.069623,35.064,can0  041  [04]  5D 00 02 00
2025-11-08T01:12:33.070978,35.065,can0  204  [16]  8D 2E 50 46 50 46 50 46 E0 2E 40 9C 30 75 B0 36
2025-11-08T01:12:33.072000,35.066,can0  204  [16]  8D 2E 50 46 50 46 50 46 E0 2E 40 9C 30 75 B0 36
2025-11-08T01:12:33.883981,35.878,can0  206  [16]  9F 0C CD 07 9B 0C 3A DF E9 07 D7 0C AB 0C 00 00
2025-11-08T01:12:33.885350,35.879,can0  204  [16]  8D 2E 50 46 50 46 50 46 E0 2E 40 9C 30 75 B0 36
2025-11-08T01:12:33.886380,35.880,can0  204  [16]  8D 2E 50 46 50 46 50 46 E0 2E 40 9C 30 75 B0 36
2025-11-08T01:12:33.887428,35.882,can0  206  [16]  A3 0C CD 07 9F 0C 99 C6 EF 07 BF 0C A7 0C 00 00
2025-11-08T01:12:33.888422,35.882,can0  204  [16]  8D 2E 50 46 50 46 50 46 E0 2E 40 9C 30 75 B0 36
2025-11-08T01:12:33.889989,35.884,can0  041  [04]  2F 00 02 00
2025-11-08T01:12:33.891006,35.885,can0  204  [16]  8D 2E 50 46 50 46 50 46 E0 2E 40 9C 30 75 B0 36
2025-11-08T01:12:33.893089,35.887,can0  204  [16]  8D 2E 50 46 50 46 50 46 E0 2E 40 9C 30 75 B0 36
2025-11-08T01:12:33.894859,35.889,can0  206  [16]  9F 0C D1 07 93 0C DA DC EB 07 C3 0C AF 0C 00 00
2025-11-08T01:12:33.895746,35.890,can0  204  [16]  8D 2E 50 46 50 46 50 46 E0 2E 40 9C 30 75 B0 36
2025-11-08T01:12:33.896660,35.891,can0  204  [16]  8D 2E 50 46 50 46 50 46 E0 2E 40 9C 30 75 B0 36
2025-11-08T01:12:33.897472,35.892,can0  041  [04]  2F 00 05 00
2025-11-08T01:12:33.899250,35.893,can0  204  [16]  8D 2E 50 46 50 46 50 46 E0 2E 40 9C 30 75 B0 36
2025-11-08T01:12:33.899300,35.893,can0  206  [16]  9F 0C AD 07 A3 0C DA DC E9 07 BF 0C AB 0C 00 00
2025-11-08T01:12:33.900231,35.894,can0  204  [16]  8D 2E 50 46 50 46 50 46 E0 2E 40 9C 30 75 B0 36
2025-11-08T01:12:33.901008,35.895,can0  204  [16]  8D 2E 50 46 50 46 50 46 E0 2E 40 9C 30 75 B0 36
2025-11-08T01:12:33.902473,35.897,can0  204  [16]  8D 2E 50 46 50 46 50 46 E0 2E 40 9C 30 75 B0 36
2025-11-08T01:12:33.902897,35.897,can0  206  [16]  AB 0C D1 07 93 0C 3A DF ED 07 C3 0C A7 0C 00 00
2025-11-08T01:12:33.903954,35.898,can0  041  [04]  5D 00 02 00
2025-11-08T01:12:33.904749,35.899,can0  204  [16]  8D 2E 50 46 50 46 50 46 E0 2E 40 9C 30 75 B0 36
2025-11-08T01:12:34.708466,36.703,can0  204  [16]  8D 2E 50 46 50 46 50 46 E0 2E 40 9C 30 75 B0 36
2025-11-08T01:12:34.709618,36.704,can0  206  [16]  97 0C CF 07 A7 0C 3A DF E0 07 B7 0C B3 0C 00 00
2025-11-08T01:12:34.710639,36.705,can0  204  [16]  8D 2E 50 46 50 46 50 46 E0 2E 40 9C 30 75 B0 36
2025-11-08T01:12:34.711346,36.705,can0  204  [16]  8D 2E 50 46 50 46 50 46 E0 2E 40 9C 30 75 B0 36
2025-11-08T01:12:34.712285,36.706,can0  041  [04]  2F 00 02 00
2025-11-08T01:12:34.714037,36.708,can0  204  [16]  8D 2E 50 46 50 46 50 46 E0 2E 40 9C 30 75 B0 36
2025-11-08T01:12:34.714716,36.709,can0  206  [16]  A7 0C CD 07 9F 0C DA DC E7 07 BF 0C A7 0C 00 00
2025-11-08T01:12:34.716675,36.711,can0  204  [16]  8D 2E 50 46 50 46 50 46 E0 2E 40 9C 30 75 B0 36
2025-11-08T01:12:34.716723,36.711,can0  204  [16]  8D 2E 50 46 50 46 50 46 E0 2E 40 9C 30 75 B0 36
2025-11-08T01:12:34.717799,36.712,can0  206  [16]  AB 0C D1 07 9B 0C 3A DF ED 07 C3 0C A3 0C 00 00
2025-11-08T01:12:34.719162,36.713,can0  204  [16]  8D 2E 50 46 50 46 50 46 E0 2E 40 9C 30 75 B0 36
2025-11-08T01:12:34.719922,36.714,can0  204  [16]  8D 2E 50 46 50 46 50 46 E0 2E 40 9C 30 75 B0 36
2025-11-08T01:12:34.720877,36.715,can0  041  [04]  2F 00 02 00
2025-11-08T01:12:34.721928,36.716,can0  204  [16]  8D 2E 50 46 50 46 50 46 E0 2E 40 9C 30 75 B0 36
2025-11-08T01:12:34.725280,36.719,can0  206  [16]  9B 0C CF 07 9B 0C DA DC EB 07 C7 0C B3 0C 00 00
2025-11-08T01:12:34.725356,36.719,can0  204  [16]  8D 2E 50 46 50 46 50 46 E0 2E 40 9C 30 75 B0 36
2025-11-08T01:12:34.732262,36.726,can0  204  [16]  8D 2E 50 46 50 46 50 46 E0 2E 40 9C 30 75 B0 36
2025-11-08T01:12:34.732320,36.726,can0  204  [16]  8D 2E 50 46 50 46 50 46 E0 2E 40 9C 30 75 B0 36
2025-11-08T01:12:34.732357,36.727,can0  206  [16]  AF 0C CB 07 9F 0C DA DC E9 07 BF 0C 9F 0C 00 00
2025-11-08T01:12:34.734639,36.729,can0  041  [04]  2F 00 02 00
2025-11-08T01:12:34.734703,36.729,can0  204  [16]  8D 2E 50 46 50 46 50 46 E0 2E 40 9C 30 75 B0 36
2025-11-08T01:12:35.549425,37.544,can0  204  [16]  8D 2E 50 46 50 46 50 46 E0 2E 40 9C 30 75 B0 36
2025-11-08T01:12:35.550838,37.545,can0  204  [16]  8D 2E 50 46 50 46 50 46 E0 2E 40 9C 30 75 B0 36
2025-11-08T01:12:35.552250,37.546,can0  206  [16]  AB 0C CD 07 9B 0C 3A DF E9 07 C7 0C A3 0C 00 00
2025-11-08T01:12:35.553139,37.547,can0  204  [16]  8D 2E 50 46 50 46 50 46 E0 2E 40 9C 30 75 B0 36
2025-11-08T01:12:35.554541,37.549,can0  041  [04]  2F 00 02 00
2025-11-08T01:12:35.554590,37.549,can0  204  [16]  8D 2E 50 46 50 46 50 46 E0 2E 40 9C 30 75 B0 36
2025-11-08T01:12:35.555472,37.550,can0  206  [16]  9F 0C E9 07 9F 0C 99 C6 E5 07 C7 0C AB 0C 00 00
2025-11-08T01:12:35.556189,37.550,can0  204  [16]  8D 2E 50 46 50 46 50 46 E0 2E 40 9C 30 75 B0 36
2025-11-08T01:12:35.557133,37.551,can0  204  [16]  8D 2E 50 46 50 46 50 46 E0 2E 40 9C 30 75 B0 36
2025-11-08T01:12:35.557887,37.552,can0  204  [16]  8D 2E 50 46 50 46 50 46 E0 2E 40 9C 30 75 B0 36
2025-11-08T01:12:35.559381,37.553,can0  206  [16]  A7 0C CF 07 9F 0C C5 E1 E7 07 BF 0C A7 0C 00 00
2025-11-08T01:12:35.559624,37.554,can0  041  [04]  3F 01 02 00
2025-11-08T01:12:35.560285,37.554,can0  204  [16]  8D 2E 50 46 50 46 50 46 E0 2E 40 9C 30 75 B0 36
2025-11-08T01:12:35.561184,37.555,can0  204  [16]  8D 2E 50 46 50 46 50 46 E0 2E 40 9C 30 75 B0 36
2025-11-08T01:12:35.562226,37.556,can0  206  [16]  9F 0C CF 07 9F 0C DA DC E5 07 BF 0C AB 0C 00 00
2025-11-08T01:12:35.562817,37.557,can0  204  [16]  8D 2E 50 46 50 46 50 46 E0 2E 40 9C 30 75 B0 36
2025-11-08T01:12:35.564371,37.559,can0  204  [16]  8D 2E 50 46 50 46 50 46 E0 2E 40 9C 30 75 B0 36
2025-11-08T01:12:35.564872,37.559,can0  204  [16]  8D 2E 50 46 50 46 50 46 E0 2E 40 9C 30 75 B0 36
2025-11-08T01:12:35.565875,37.560,can0  041  [04]  3F 01 02 00
2025-11-08T01:12:35.566570,37.561,can0  206  [16]  A3 0C CD 07 A3 0C 99 C6 F2 07 BF 0C A7 0C 00 00
2025-11-08T01:12:35.567281,37.561,can0  204  [16]  8D 2E 50 46 50 46 50 46 E0 2E 40 9C 30 75 B0 36
2025-11-08T01:12:36.367917,38.362,can0  204  [16]  8D 2E 50 46 50 46 50 46 E0 2E 40 9C 30 75 B0 36
2025-11-08T01:12:36.368799,38.363,can0  206  [16]  A3 0C D1 07 9F 0C DA DC E7 07 C3 0C A7 0C 00 00
2025-11-08T01:12:36.369684,38.364,can0  204  [16]  8D 2E 50 46 50 46 50 46 E0 2E 40 9C 30 75 B0 36
2025-11-08T01:12:36.370541,38.365,can0  204  [16]  8D 2E 50 46 50 46 50 46 E0 2E 40 9C 30 75 B0 36
2025-11-08T01:12:36.371254,38.365,can0  041  [04]  3F 01 00 00
2025-11-08T01:12:36.372716,38.367,can0  204  [16]  8D 2E 50 46 50 46 50 46 E0 2E 40 9C 30 75 B0 36
2025-11-08T01:12:36.372952,38.367,can0  206  [16]  A7 0C D3 07 A3 0C 99 C6 E9 07 BB 0C A3 0C 00 00
2025-11-08T01:12:36.374076,38.368,can0  204  [16]  8D 2E 50 46 50 46 50 46 E0 2E 40 9C 30 75 B0 36
2025-11-08T01:12:36.374730,38.369,can0  204  [16]  8D 2E 50 46 50 46 50 46 E0 2E 40 9C 30 75 B0 36
2025-11-08T01:12:36.375594,38.370,can0  204  [16]  8D 2E 50 46 50 46 50 46 E0 2E 40 9C 30 75 B0 36
2025-11-08T01:12:36.376509,38.371,can0  206  [16]  9F 0C DE 07 9B 0C B1 E0 E9 07 E3 0C AF 0C 00 00
2025-11-08T01:12:36.379720,38.374,can0  041  [04]  3F 01 00 00
2025-11-08T01:12:36.379783,38.374,can0  204  [16]  8D 2E 50 46 50 46 50 46 E0 2E 40 9C 30 75 B0 36
2025-11-08T01:12:36.379822,38.374,can0  204  [16]  8D 2E 50 46 50 46 50 46 E0 2E 40 9C 30 75 B0 36
2025-11-08T01:12:36.379876,38.374,can0  206  [16]  9B 0C D1 07 A7 0C 3A DF E5 07 BB 0C AF 0C 00 00
2025-11-08T01:12:36.380643,38.375,can0  204  [16]  8D 2E 50 46 50 46 50 46 E0 2E 40 9C 30 75 B0 36
2025-11-08T01:12:36.382214,38.376,can0  204  [16]  8D 2E 50 46 50 46 50 46 E0 2E 40 9C 30 75 B0 36
2025-11-08T01:12:36.382802,38.377,can0  041  [04]  3F 01 02 00
2025-11-08T01:12:36.383305,38.377,can0  204  [16]  8D 2E 50 46 50 46 50 46 E0 2E 40 9C 30 75 B0 36
2025-11-08T01:12:36.384952,38.379,can0  206  [16]  AF 0C CF 07 A3 0C C5 E1 EB 07 C3 0C 9B 0C 00 00
2025-11-08T01:12:36.385079,38.379,can0  204  [16]  8D 2E 50 46 50 46 50 46 E0 2E 40 9C 30 75 B0 36
2025-11-08T01:12:36.386628,38.381,can0  204  [16]  8D 2E 50 46 50 46 50 46 E0 2E 40 9C 30 75 B0 36
2025-11-08T01:12:37.238718,39.233,can0  204  [16]  8D 2E 50 46 50 46 50 46 E0 2E 40 9C 30 75 B0 36
2025-11-08T01:12:37.240262,39.234,can0  206  [16]  9B 0C D1 07 9F 0C 3A DF E7 07 C3 0C AF 0C 00 00
2025-11-08T01:12:37.241380,39.235,can0  204  [16]  8D 2E 50 46 50 46 50 46 E0 2E 40 9C 30 75 B0 36
2025-11-08T01:12:37.242335,39.236,can0  041  [04]  02 00 00 00
2025-11-08T01:12:37.243601,39.238,can0  204  [16]  8D 2E 50 46 50 46 50 46 E0 2E 40 9C 30 75 B0 36
2025-11-08T01:12:37.244749,39.239,can0  206  [16]  9F 0C D1 07 A3 0C DA DC EB 07 C7 0C A3 0C 00 00
2025-11-08T01:12:37.246141,39.240,can0  204  [16]  8D 2E 50 46 50 46 50 46 E0 2E 40 9C 30 75 B0 36
2025-11-08T01:12:37.247396,39.241,can0  204  [16]  8D 2E 50 46 50 46 50 46 E0 2E 40 9C 30 75 B0 36
2025-11-08T01:12:37.248635,39.243,can0  204  [16]  8D 2E 50 46 50 46 50 46 E0 2E 40 9C 30 75 B0 36
2025-11-08T01:12:37.250280,39.244,can0  041  [04]  02 00 00 00
2025-11-08T01:12:37.251733,39.246,can0  206  [16]  9F 0C E9 07 9F 0C DA DC E9 07 C7 0C AB 0C 00 00
2025-11-08T01:12:37.253367,39.247,can0  204  [16]  8D 2E 50 46 50 46 50 46 E0 2E 40 9C 30 75 B0 36
2025-11-08T01:12:37.254653,39.249,can0  204  [16]  8D 2E 50 46 50 46 50 46 E0 2E 40 9C 30 75 B0 36
2025-11-08T01:12:37.256770,39.251,can0  206  [16]  AB 0C CF 07 9B 0C DA DC EB 07 DF 0C A3 0C 00 00
2025-11-08T01:12:37.258912,39.253,can0  204  [16]  8D 2E 50 46 50 46 50 46 E0 2E 40 9C 30 75 B0 36
2025-11-08T01:12:37.259941,39.254,can0  204  [16]  8D 2E 50 46 50 46 50 46 E0 2E 40 9C 30 75 B0 36
2025-11-08T01:12:37.262004,39.256,can0  041  [04]  3F 01 00 00
2025-11-08T01:12:37.262716,39.257,can0  204  [16]  8D 2E 50 46 50 46 50 46 E0 2E 40 9C 30 75 B0 36
2025-11-08T01:12:37.263918,39.258,can0  206  [16]  9B 0C BA 07 9F 0C DA DC E7 07 C7 0C AF 0C 00 00
2025-11-08T01:12:37.265668,39.260,can0  204  [16]  8D 2E 50 46 50 46 50 46 E0 2E 40 9C 30 75 B0 36
2025-11-08T01:12:37.267585,39.262,can0  204  [16]  8D 2E 50 46 50 46 50 46 E0 2E 40 9C 30 75 B0 36
2025-11-08T01:12:38.131210,40.125,can0  204  [16]  8D 2E 50 46 50 46 50 46 E0 2E 40 9C 30 75 B0 36
2025-11-08T01:12:38.139045,40.133,can0  206  [16]  AF 0C D1 07 9B 0C DA DC E5 07 BF 0C 9F 0C 00 00
2025-11-08T01:12:38.140454,40.135,can0  041  [04]  02 00 00 00
2025-11-08T01:12:38.143166,40.137,can0  204  [16]  8D 2E 50 46 50 46 50 46 E0 2E 40 9C 30 75 B0 36
2025-11-08T01:12:38.143264,40.137,can0  204  [16]  8D 2E 50 46 50 46 50 46 E0 2E 40 9C 30 75 B0 36
2025-11-08T01:12:38.143307,40.137,can0  204  [16]  8D 2E 50 46 50 46 50 46 E0 2E 40 9C 30 75 B0 36
2025-11-08T01:12:38.144114,40.138,can0  206  [16]  AB 0C CF 07 93 0C 99 C6 EB 07 C3 0C AB 0C 00 00
2025-11-08T01:12:38.145272,40.139,can0  204  [16]  8D 2E 50 46 50 46 50 46 E0 2E 40 9C 30 75 B0 36
2025-11-08T01:12:38.146140,40.140,can0  204  [16]  8D 2E 50 46 50 46 50 46 E0 2E 40 9C 30 75 B0 36
2025-11-08T01:12:38.146829,40.141,can0  041  [04]  3F 01 00 00
2025-11-08T01:12:38.147689,40.142,can0  206  [16]  A7 0C D1 07 A3 0C 99 C6 E7 07 BF 0C A3 0C 00 00
2025-11-08T01:12:38.148496,40.143,can0  204  [16]  8D 2E 50 46 50 46 50 46 E0 2E 40 9C 30 75 B0 36
2025-11-08T01:12:38.150322,40.144,can0  204  [16]  8D 2E 50 46 50 46 50 46 E0 2E 40 9C 30 75 B0 36
2025-11-08T01:12:38.150487,40.145,can0  204  [16]  8D 2E 50 46 50 46 50 46 E0 2E 40 9C 30 75 B0 36
2025-11-08T01:12:38.151446,40.146,can0  206  [16]  A7 0C D1 07 9F 0C 99 C6 E7 07 C7 0C A3 0C 00 00
2025-11-08T01:12:38.152044,40.146,can0  204  [16]  8D 2E 50 46 50 46 50 46 E0 2E 40 9C 30 75 B0 36
2025-11-08T01:12:38.152908,40.147,can0  041  [04]  02 00 00 00
2025-11-08T01:12:38.153566,40.148,can0  204  [16]  8D 2E 50 46 50 46 50 46 E0 2E 40 9C 30 75 B0 36
2025-11-08T01:12:38.154344,40.148,can0  206  [16]  A3 0C D1 07 9F 0C DA DC E9 07 C7 0C A7 0C 00 00
2025-11-08T01:12:38.155341,40.149,can0  204  [16]  8D 2E 50 46 50 46 50 46 E0 2E 40 9C 30 75 B0 36
2025-11-08T01:12:38.156116,40.150,can0  204  [16]  8D 2E 50 46 50 46 50 46 E0 2E 40 9C 30 75 B0 36
2025-11-08T01:12:38.157058,40.151,can0  204  [16]  8D 2E 50 46 50 46 50 46 E0 2E 40 9C 30 75 B0 36
2025-11-08T01:12:38.159328,40.154,can0  206  [16]  A3 0C CF 07 9F 0C 3A DF EB 07 C3 0C A7 0C 00 00
2025-11-08T01:12:38.159723,40.154,can0  041  [04]  3F 01 02 00
2025-11-08T01:12:38.160464,40.155,can0   00  [05]  00 00 00 00 00 0
2025-11-08T01:12:38.163970,40.158,can0  204  [16]  8D 2E 50 46 50 46 50 46 E0 2E 40 9C 30 75 B0 36
2025-11-08T01:12:39.081509,41.076,can0  204  [16]  8D 2E 50 46 50 46 50 46 E0 2E 40 9C 30 75 B0 36
2025-11-08T01:12:39.082165,41.076,can0  001  [05]  00 00 00 00 00
2025-11-08T01:12:39.083186,41.077,can0  204  [16]  8D 2E 50 46 50 46 50 46 E0 2E 40 9C 30 75 B0 36
2025-11-08T01:12:39.084416,41.078,can0  206  [16]  C7 0C CB 07 97 0C 3A DF E7 07 CB 0C 87 0C 00 00
2025-11-08T01:12:39.085492,41.080,can0  204  [16]  8D 2E 50 46 50 46 50 46 E0 2E 40 9C 30 75 B0 36
2025-11-08T01:12:39.087217,41.081,can0  041  [04]  02 00 02 00
2025-11-08T01:12:39.088446,41.083,can0  204  [16]  8D 2E 50 46 50 46 50 46 E0 2E 40 9C 30 75 B0 36
2025-11-08T01:12:39.089685,41.084,can0  204  [16]  8D 2E 50 46 50 46 50 46 70 17 E0 6F 93 73 00 00
2025-11-08T01:12:39.090793,41.085,can0  206  [16]  9F 0C D1 07 A3 0C 3A DF E7 07 C3 0C AB 0C 00 00
2025-11-08T01:12:39.092230,41.086,can0  204  [16]  8D 2E 50 46 50 46 50 46 70 17 20 4E DD 74 00 00
2025-11-08T01:12:39.093670,41.088,can0  204  [16]  8D 2E 50 46 50 46 50 46 70 17 20 4E 1F 75 00 00
2025-11-08T01:12:39.094691,41.089,can0  206  [16]  8F 0C D1 07 93 0C DA DC EB 07 A3 0C 93 0C 00 00
2025-11-08T01:12:39.095746,41.090,can0  204  [16]  8D 2E 50 46 50 46 50 46 70 17 20 4E 2C 75 00 00
2025-11-08T01:12:39.096933,41.091,can0  041  [04]  3F 01 02 00
2025-11-08T01:12:39.097730,41.092,can0  204  [16]  8D 2E 50 46 50 46 50 46 70 17 20 4E 2F 75 00 00
2025-11-08T01:12:39.099305,41.093,can0  204  [16]  6A 2E 50 46 50 46 50 46 70 17 20 4E 2F 75 00 00
2025-11-08T01:12:39.100361,41.094,can0  206  [16]  8B 0C CD 07 97 0C DA DC E0 07 97 0C 9F 0C 00 00
2025-11-08T01:12:39.101786,41.096,can0  204  [16]  DE 2D 50 46 50 46 50 46 70 17 20 4E 2F 75 00 00
2025-11-08T01:12:39.103250,41.097,can0  204  [16]  51 2D 50 46 50 46 50 46 70 17 20 4E 2F 75 00 00
2025-11-08T01:12:39.106828,41.101,can0  041  [04]  3F 01 02 00
2025-11-08T01:12:39.107032,41.101,can0  206  [16]  93 0C D1 07 93 0C 99 C6 E3 07 8F 0C 97 0C 00 00
2025-11-08T01:12:39.107435,41.102,can0  204  [16]  E8 2C 50 46 50 46 50 46 70 17 20 4E 30 75 00 00
2025-11-08T01:12:39.108978,41.103,can0  204  [16]  5B 2C 50 46 50 46 50 46 70 17 20 4E 30 75 00 00
2025-11-08T01:12:39.110679,41.105,can0  204  [16]  F2 2B 50 46 50 46 50 46 70 17 20 4E 30 75 00 00
2025-11-08T01:12:39.111935,41.106,can0  206  [16]  93 0C D1 07 93 0C C5 E1 E5 07 97 0C 97 0C 00 00
2025-11-08T01:12:39.112881,41.107,can0  204  [16]  65 2B 50 46 50 46 50 46 70 17 20 4E 30 75 00 00
2025-11-08T01:12:39.917276,41.911,can0  041  [04]  3F 01 02 00
2025-11-08T01:12:39.919045,41.913,can0  204  [16]  FB 2A 50 46 50 46 50 46 70 17 20 4E 30 75 00 00
2025-11-08T01:12:39.920300,41.914,can0  204  [16]  92 2A 50 46 50 46 50 46 70 17 20 4E 30 75 00 00
2025-11-08T01:12:39.921533,41.916,can0  206  [16]  8F 0C CF 07 93 0C B1 E0 E5 07 9F 0C 97 0C 00 00
2025-11-08T01:12:39.923701,41.918,can0  204  [16]  05 2A 50 46 50 46 50 46 70 17 20 4E 30 75 00 00
2025-11-08T01:12:39.924908,41.919,can0  204  [16]  9C 29 50 46 50 46 50 46 70 17 20 4E 30 75 00 00
2025-11-08T01:12:39.926272,41.920,can0  206  [16]  8B 0C D3 07 8F 0C 3A DF E9 07 9B 0C 9F 0C 00 00
2025-11-08T01:12:39.927454,41.922,can0  204  [16]  0F 29 50 46 50 46 50 46 70 17 20 4E 30 75 00 00
2025-11-08T01:12:39.930752,41.925,can0  041  [04]  3F 01 02 00
2025-11-08T01:12:39.934369,41.928,can0  204  [16]  A6 28 50 46 50 46 50 46 70 17 20 4E 30 75 00 00
2025-11-08T01:12:39.936730,41.931,can0  204  [16]  F6 27 50 46 50 46 50 46 70 17 20 4E 30 75 00 00
2025-11-08T01:12:39.937969,41.932,can0  206  [16]  8B 0C CF 07 3E 0C DA DC ED 07 F8 0C 9B 0C 00 00
2025-11-08T01:12:39.938906,41.933,can0  204  [16]  8D 27 50 46 50 46 50 46 70 17 20 4E 30 75 00 00
2025-11-08T01:12:39.939891,41.934,can0  204  [16]  00 27 50 46 50 46 50 46 70 17 20 4E 30 75 00 00
2025-11-08T01:12:39.940961,41.935,can0  041  [04]  02 00 00 00
2025-11-08T01:12:39.942663,41.937,can0  204  [16]  96 26 50 46 50 46 50 46 70 17 20 4E 30 75 00 00
2025-11-08T01:12:39.943922,41.938,can0  206  [16]  87 0C E3 07 8F 0C 99 C6 E9 07 7B 0C A3 0C 00 00
2025-11-08T01:12:39.949118,41.943,can0  204  [16]  0A 26 50 46 50 46 50 46 70 17 20 4E 30 75 00 00
2025-11-08T01:12:39.951052,41.945,can0  204  [16]  7D 25 50 46 50 46 50 46 70 17 20 4E 30 75 00 00
2025-11-08T01:12:39.951105,41.945,can0  206  [16]  8F 0C D3 07 8B 0C 3A DF EB 07 A3 0C 9B 0C 00 00
2025-11-08T01:12:40.722016,42.716,can0  204  [16]  F1 24 50 46 50 46 50 46 70 17 20 4E 30 75 00 00
2025-11-08T01:12:40.723310,42.717,can0  041  [04]  8B 00 02 00
2025-11-08T01:12:40.724462,42.719,can0  204  [16]  87 24 50 46 50 46 50 46 70 17 20 4E 30 75 00 00
