Timestamp,Elapsed_Time_s,CAN_Message
2025-08-09T23:57:06.487337,1.231,can1  206  [16]  CB 0C C7 09 B3 0C FA E4 0D 0A DF 0C BF 0C 00 00
2025-08-09T23:57:06.487337,1.231,can1  206  [16]  AB 0C C5 09 BB 0C 69 E5 0D 0A DB 0C DB 0C 00 00
2025-08-09T23:57:07.087347,1.831,can1  206  [16]  C7 0C C7 09 B7 0C 69 E5 09 0A D3 0C BF 0C 00 00
2025-08-09T23:57:07.087347,1.831,can1  206  [16]  BF 0C C5 09 BB 0C FA E4 0B 0A D7 0C C7 0C 00 00
2025-08-09T23:57:07.087347,1.831,can1  206  [16]  CF 0C C5 09 B3 0C 85 E6 09 0A DF 0C BB 0C 00 00
2025-08-09T23:57:07.087347,1.831,can1  206  [16]  C3 0C C7 09 B3 0C 69 E5 0B 0A DF 0C C7 0C 00 00
2025-08-09T23:57:07.480927,2.224,can1  206  [16]  C3 0C C5 09 B7 0C 69 E5 0D 0A D7 0C C7 0C 00 00
2025-08-09T23:57:07.512639,2.256,can1  206  [16]  C7 0C C2 09 B7 0C 7E E4 0B 0A DF 0C BF 0C 00 00
2025-08-09T23:57:07.512639,2.256,can1  206  [16]  BF 0C C2 09 BF 0C 69 E5 0D 0A D7 0C C3 0C 00 00
2025-08-09T23:57:07.807817,2.551,can1  206  [16]  C7 0C C7 09 B3 0C 7E E4 09 0A CF 0C C3 0C 00 00
2025-08-09T23:57:07.807817,2.551,can1  206  [16]  C3 0C C7 09 AF 0C FA E4 10 0A DF 0C C7 0C 00 00
2025-08-09T23:57:08.139921,2.883,can1  206  [16]  C3 0C C2 09 B7 0C 69 E5 0D 0A D7 0C C3 0C 00 00
2025-08-09T23:57:08.139921,2.883,can1  206  [16]  DF 0C C7 09 AF 0C 69 E5 0B 0A DF 0C AB 0C 00 00
2025-08-09T23:57:08.139921,2.883,can1  206  [16]  C7 0C C2 09 B7 0C 7E E4 0B 0A DB 0C C3 0C 00 00
2025-08-09T23:57:08.462708,3.206,can1  206  [16]  CB 0C C7 09 B7 0C 69 E5 0D 0A DB 0C BF 0C 00 00
2025-08-09T23:57:08.462708,3.206,can1  206  [16]  CF 0C B7 09 AF 0C 7E E4 0B 0A D7 0C BF 0C 00 00
2025-08-09T23:57:08.790911,3.534,can1  206  [16]  CB 0C C7 09 B3 0C 7E E4 0D 0A D3 0C BF 0C 00 00
2025-08-09T23:57:08.790911,3.534,can1  206  [16]  E8 0C C7 09 97 0C 69 E5 0B 0A DB 0C C3 0C 00 00
2025-08-09T23:57:09.121476,3.865,can1  206  [16]  C7 0C C5 09 BB 0C F4 E3 10 0A CF 0C BF 0C 00 00
2025-08-09T23:57:09.121476,3.865,can1  206  [16]  C3 0C C7 09 BB 0C 69 E5 0D 0A D3 0C C3 0C 00 00
2025-08-09T23:57:09.121476,3.865,can1  206  [16]  CB 0C C7 09 CB 0C 69 E5 0D 0A CB 0C BF 0C 00 00
2025-08-09T23:57:09.456413,4.200,can1  206  [16]  EC 0C C7 09 B7 0C 7E E4 0B 0A D7 0C 9F 0C 00 00
2025-08-09T23:57:09.456413,4.200,can1  206  [16]  CB 0C C5 09 B7 0C F4 E3 10 0A DB 0C BB 0C 00 00
2025-08-09T23:57:09.456413,4.200,can1  206  [16]  E8 0C C5 09 97 0C FA E4 0B 0A DF 0C C3 0C 00 00
2025-08-09T23:57:09.787279,4.531,can1  206  [16]  C7 0C C5 09 AF 0C 7E E4 0D 0A DB 0C C3 0C 00 00
2025-08-09T23:57:09.787279,4.531,can1  206  [16]  BF 0C C7 09 AF 0C 69 E5 10 0A DB 0C CB 0C 00 00
2025-08-09T23:57:10.120034,4.863,can1  206  [16]  CB 0C C5 09 B7 0C F4 E3 0D 0A D7 0C BF 0C 00 00
2025-08-09T23:57:10.120034,4.863,can1  206  [16]  C3 0C C7 09 AF 0C FA E4 0D 0A E4 0C C7 0C 00 00
2025-08-09T23:57:10.461121,5.204,can1  206  [16]  BF 0C C7 09 B7 0C D0 E5 0D 0A DF 0C C7 0C 00 00
2025-08-09T23:57:10.468113,5.211,can1  206  [16]  BF 0C CD 09 B7 0C F4 E3 0D 0A D3 0C C7 0C 00 00
2025-08-09T23:57:10.777516,5.521,can1  206  [16]  C7 0C BA 09 B7 0C FA E4 0D 0A E4 0C BF 0C 00 00
2025-08-09T23:57:10.777516,5.521,can1  206  [16]  BF 0C C9 09 BF 0C F4 E3 0B 0A DB 0C BF 0C 00 00
2025-08-09T23:57:10.777516,5.521,can1  206  [16]  CF 0C C7 09 B7 0C FA E4 0B 0A DB 0C B7 0C 00 00
2025-08-09T23:57:11.113228,5.856,can1  206  [16]  D3 0C C5 09 B3 0C D0 E5 0D 0A DB 0C B7 0C 00 00
2025-08-09T23:57:11.113228,5.856,can1  206  [16]  C7 0C C7 09 B7 0C D7 E6 0D 0A D7 0C C3 0C 00 00
2025-08-09T23:57:11.442772,6.186,can1  206  [16]  CB 0C C5 09 AF 0C FA E4 0D 0A E4 0C BF 0C 00 00
2025-08-09T23:57:11.447608,6.191,can1  206  [16]  D7 0C C7 09 B7 0C FA E4 0D 0A D7 0C B3 0C 00 00
2025-08-09T23:57:11.447608,6.191,can1  206  [16]  C7 0C C5 09 B3 0C 7E E4 0D 0A DB 0C C3 0C 00 00
2025-08-09T23:57:11.775788,6.519,can1  206  [16]  CB 0C C5 09 B3 0C FA E4 0B 0A D3 0C BF 0C 00 00
2025-08-09T23:57:11.775788,6.519,can1  206  [16]  C3 0C C7 09 B7 0C FA E4 12 0A DB 0C C7 0C 00 00
2025-08-09T23:57:11.775788,6.519,can1  206  [16]  C3 0C C7 09 B3 0C 69 E5 0B 0A DB 0C C7 0C 00 00
2025-08-09T23:57:12.106697,6.850,can1  206  [16]  BF 0C C7 09 AB 0C 69 E5 10 0A DB 0C D3 0C 00 00
2025-08-09T23:57:12.106697,6.850,can1  206  [16]  C3 0C C7 09 B7 0C D0 E5 0B 0A D3 0C C7 0C 00 00
2025-08-09T23:57:12.427488,7.171,can1  206  [16]  CB 0C C2 09 B7 0C FA E4 0B 0A DB 0C BB 0C 00 00
2025-08-09T23:57:12.427488,7.171,can1  206  [16]  C7 0C C5 09 BB 0C FA E4 10 0A DB 0C BB 0C 00 00
2025-08-09T23:57:12.755088,7.498,can1  206  [16]  C3 0C B7 09 B7 0C F4 E3 0D 0A D7 0C C3 0C 00 00
2025-08-09T23:57:12.760087,7.503,can1  206  [16]  C3 0C C7 09 B3 0C 7E E4 0D 0A DB 0C C7 0C 00 00
2025-08-09T23:57:13.089252,7.832,can1  206  [16]  C7 0C C7 09 B3 0C 69 E5 0B 0A DB 0C C3 0C 00 00
2025-08-09T23:57:13.089252,7.832,can1  206  [16]  C3 0C C7 09 B7 0C F4 E3 0D 0A DB 0C C3 0C 00 00
2025-08-09T23:57:13.089252,7.832,can1  206  [16]  D7 0C C5 09 BB 0C 69 E5 0D 0A D7 0C AF 0C 00 00
2025-08-09T23:57:13.420950,8.164,can1  206  [16]  C3 0C C7 09 B3 0C 69 E5 04 0A DB 0C C7 0C 00 00
2025-08-09T23:57:13.420950,8.164,can1  206  [16]  C7 0C C7 09 B7 0C D0 E5 0D 0A D7 0C C3 0C 00 00
2025-08-09T23:57:13.739162,8.482,can1  206  [16]  CB 0C C7 09 B3 0C FA E4 07 0A DB 0C BF 0C 00 00
2025-08-09T23:57:13.740219,8.483,can1  206  [16]  C7 0C C9 09 B7 0C D0 E5 0D 0A D3 0C BF 0C 00 00
2025-08-09T23:57:13.741164,8.484,can1  206  [16]  CB 0C C7 09 B3 0C 7E E4 0B 0A E8 0C BF 0C 00 00
2025-08-09T23:57:14.066092,8.809,can1  206  [16]  CF 0C D8 09 B3 0C 69 E5 07 0A DF 0C BB 0C 00 00
2025-08-09T23:57:14.067098,8.810,can1  206  [16]  C3 0C C7 09 B3 0C FA E4 0B 0A DB 0C C7 0C 00 00
2025-08-09T23:57:14.403376,9.147,"can1  001  [05]  C0 D4 01 00 80
  can1  206  [16]  C7 0C C9 09 B3 0C 69 E5 0D 0A DB 0C C3 0C 00 00"
2025-08-09T23:57:14.403376,9.147,can1  206  [16]  CB 0C C5 09 B3 0C 69 E5 07 0A E4 0C BF 0C 00 00
2025-08-09T23:57:14.417998,9.161,can1  206  [16]  C3 0C C7 09 B7 0C FA E4 0B 0A D3 0C C3 0C 00 00
2025-08-09T23:57:14.735183,9.478,can1  206  [16]  CF 0C C5 09 B3 0C F4 E3 07 0A DB 0C BB 0C 00 00
2025-08-09T23:57:14.735183,9.478,can1  206  [16]  CB 0C C7 09 B3 0C FA E4 0D 0A D7 0C BF 0C 00 00
2025-08-09T23:57:15.050647,9.794,can1  206  [16]  CB 0C C5 09 B3 0C 7E E4 0B 0A DB 0C BF 0C 00 00
2025-08-09T23:57:15.050647,9.794,can1  206  [16]  BF 0C C5 09 BB 0C 69 E5 0D 0A D7 0C C7 0C 00 00
2025-08-09T23:57:15.382981,10.126,can1  206  [16]  CF 0C C9 09 AF 0C FA E4 0D 0A E4 0C BB 0C 00 00
2025-08-09T23:57:15.382981,10.126,can1  206  [16]  C7 0C C7 09 B3 0C FA E4 12 0A DB 0C C7 0C 00 00
2025-08-09T23:57:15.714369,10.458,can1  206  [16]  C7 0C C5 09 AB 0C FA E4 09 0A DF 0C C7 0C 00 00
2025-08-09T23:57:15.715367,10.460,can1  206  [16]  CF 0C B3 09 B7 0C 69 E5 0B 0A D7 0C BB 0C 00 00
2025-08-09T23:57:15.717368,10.461,can1  206  [16]  C7 0C C5 09 B3 0C 69 E5 0D 0A D7 0C C3 0C 00 00
2025-08-09T23:57:16.035594,10.779,can1  206  [16]  CB 0C C5 09 B3 0C F4 E3 18 0A DF 0C BF 0C 00 00
2025-08-09T23:57:16.035594,10.779,can1  206  [16]  CB 0C C7 09 B7 0C 69 E5 0B 0A DB 0C BF 0C 00 00
2025-08-09T23:57:16.035594,10.779,can1  206  [16]  D7 0C C0 09 AF 0C FA E4 0D 0A DF 0C B7 0C 00 00
2025-08-09T23:57:16.368714,11.112,can1  206  [16]  CB 0C C5 09 BF 0C FA E4 0D 0A DB 0C BB 0C 00 00
2025-08-09T23:57:16.371630,11.115,can1  206  [16]  C7 0C C5 09 B3 0C 69 E5 10 0A DB 0C C3 0C 00 00
2025-08-09T23:57:16.697082,11.440,can1  206  [16]  CB 0C C7 09 B3 0C 7E E4 10 0A DB 0C BF 0C 00 00
2025-08-09T23:57:16.697082,11.440,can1  206  [16]  BF 0C C5 09 B3 0C FA E4 0B 0A DF 0C CB 0C 00 00
2025-08-09T23:57:17.030814,11.774,can1  206  [16]  C3 0C C7 09 BB 0C 69 E5 10 0A DB 0C C3 0C 00 00
2025-08-09T23:57:17.030814,11.774,can1  206  [16]  C3 0C C7 09 B3 0C 7E E4 07 0A DB 0C C7 0C 00 00
2025-08-09T23:57:17.030814,11.774,can1  206  [16]  CB 0C C7 09 B7 0C 69 E5 0D 0A D7 0C BF 0C 00 00
2025-08-09T23:57:17.348600,12.092,can1  206  [16]  CB 0C C5 09 B7 0C FA E4 0D 0A DB 0C BB 0C 00 00
2025-08-09T23:57:17.350623,12.094,can1  206  [16]  CB 0C C5 09 B7 0C FA E4 12 0A D3 0C BF 0C 00 00
2025-08-09T23:57:17.678845,12.422,can1  206  [16]  CB 0C C7 09 B3 0C 2E E6 10 0A DF 0C BF 0C 00 00
2025-08-09T23:57:17.678845,12.422,can1  206  [16]  CF 0C C5 09 B3 0C FA E4 10 0A DF 0C BB 0C 00 00
2025-08-09T23:57:18.011048,12.754,can1  206  [16]  CB 0C C7 09 B3 0C FA E4 0B 0A F4 0C BF 0C 00 00
2025-08-09T23:57:18.016578,12.760,can1  206  [16]  CB 0C C7 09 A7 0C 7E E4 0B 0A EC 0C BF 0C 00 00
2025-08-09T23:57:18.016578,12.760,can1  206  [16]  CB 0C C5 09 B3 0C 7E E4 0D 0A DB 0C BF 0C 00 00
2025-08-09T23:57:18.344676,13.088,can1  206  [16]  CB 0C C7 09 B3 0C 7E E4 0D 0A DB 0C BF 0C 00 00
2025-08-09T23:57:18.344676,13.088,can1  206  [16]  C3 0C C7 09 B7 0C 69 E5 0D 0A DF 0C C3 0C 00 00
2025-08-09T23:57:18.661496,13.405,can1  206  [16]  CB 0C C5 09 AB 0C F4 E3 0D 0A E4 0C BF 0C 00 00
2025-08-09T23:57:18.663509,13.407,can1  206  [16]  CB 0C C5 09 B7 0C FA E4 0B 0A DB 0C BB 0C 00 00
2025-08-09T23:57:18.664045,13.407,can1  206  [16]  CF 0C C7 09 B3 0C D0 E5 10 0A DB 0C BB 0C 00 00
2025-08-09T23:57:18.995980,13.739,can1  206  [16]  C3 0C C5 09 BB 0C FA E4 10 0A D7 0C C3 0C 00 00
2025-08-09T23:57:19.001471,13.745,can1  206  [16]  C3 0C C2 09 B7 0C FA E4 0D 0A CF 0C C3 0C 00 00
2025-08-09T23:57:19.327026,14.070,can1  206  [16]  BF 0C C5 09 B7 0C 7E E4 09 0A D7 0C C7 0C 00 00
2025-08-09T23:57:19.328076,14.071,can1  206  [16]  C7 0C C7 09 B7 0C 7E E4 0D 0A DB 0C C3 0C 00 00
2025-08-09T23:57:19.338707,14.082,can1  206  [16]  C7 0C C7 09 B3 0C FA E4 10 0A D7 0C C7 0C 00 00
2025-08-09T23:57:19.642698,14.386,can1  206  [16]  C7 0C C7 09 AF 0C FA E4 0B 0A DB 0C C3 0C 00 00
2025-08-09T23:57:19.645697,14.389,can1  206  [16]  C3 0C C7 09 BB 0C FA E4 0D 0A DB 0C C3 0C 00 00
2025-08-09T23:57:19.976117,14.719,can1  206  [16]  C7 0C C5 09 BB 0C FA E4 0D 0A DB 0C BF 0C 00 00
2025-08-09T23:57:19.976117,14.719,can1  206  [16]  CF 0C C7 09 AF 0C FA E4 09 0A DB 0C BF 0C 00 00
2025-08-09T23:57:20.311616,15.055,can1  206  [16]  C7 0C C5 09 B7 0C 69 E5 0D 0A D3 0C C3 0C 00 00
2025-08-09T23:57:20.311616,15.055,can1  206  [16]  CB 0C C7 09 B3 0C 69 E5 0D 0A DB 0C BF 0C 00 00
2025-08-09T23:57:20.641814,15.385,can1  206  [16]  C7 0C C9 09 B3 0C FA E4 12 0A DB 0C C7 0C 00 00
2025-08-09T23:57:20.641814,15.385,can1  206  [16]  C7 0C C7 09 B7 0C FA E4 09 0A C3 0C C3 0C 00 00
2025-08-09T23:57:20.641814,15.385,can1  206  [16]  BF 0C C7 09 B7 0C 7E E4 0D 0A D3 0C C7 0C 00 00
2025-08-09T23:57:20.974397,15.718,can1  206  [16]  BF 0C C7 09 B7 0C F4 E3 0D 0A D7 0C C7 0C 00 00
2025-08-09T23:57:20.977102,15.720,can1  206  [16]  CF 0C C7 09 B7 0C FA E4 0D 0A DF 0C B7 0C 00 00
2025-08-09T23:57:20.978113,15.721,can1  206  [16]  C7 0C C5 09 B7 0C FA E4 0D 0A DB 0C BF 0C 00 00
2025-08-09T23:57:21.308448,16.052,can1  206  [16]  CB 0C C9 09 B3 0C 24 E7 07 0A E4 0C BF 0C 00 00
2025-08-09T23:57:21.308448,16.052,can1  206  [16]  C7 0C C5 09 BB 0C 7E E4 09 0A D7 0C BF 0C 00 00
2025-08-09T23:57:21.645211,16.388,can1  206  [16]  CB 0C C2 09 B3 0C 7E E4 09 0A DF 0C BF 0C 00 00
2025-08-09T23:57:21.645211,16.388,can1  206  [16]  CB 0C C5 09 AF 0C 7E E4 0D 0A D3 0C C3 0C 00 00
2025-08-09T23:57:21.645211,16.388,can1  206  [16]  C7 0C C7 09 B3 0C FA E4 10 0A CF 0C C3 0C 00 00
2025-08-09T23:57:21.963017,16.706,can1  206  [16]  CF 0C C5 09 B3 0C FA E4 0B 0A E4 0C BB 0C 00 00
2025-08-09T23:57:21.963017,16.706,can1  206  [16]  D3 0C C5 09 B3 0C F4 E3 0D 0A E4 0C B7 0C 00 00
2025-08-09T23:57:22.291218,17.034,can1  206  [16]  BF 0C C5 09 B7 0C FA E4 0D 0A DB 0C C7 0C 00 00
2025-08-09T23:57:22.291218,17.034,can1  206  [16]  CB 0C C2 09 B7 0C 7E E4 0D 0A DF 0C BB 0C 00 00
2025-08-09T23:57:22.627051,17.370,can1  206  [16]  E8 0C C2 09 8F 0C FA E4 10 0A DF 0C C3 0C 00 00
2025-08-09T23:57:22.633295,17.377,can1  206  [16]  D3 0C C7 09 B3 0C F4 E3 0B 0A DF 0C BB 0C 00 00
2025-08-09T23:57:22.958367,17.702,can1  206  [16]  CB 0C CD 09 B7 0C D0 E5 0D 0A DB 0C BF 0C 00 00
2025-08-09T23:57:22.958367,17.702,can1  206  [16]  CB 0C C9 09 B3 0C FA E4 0D 0A DF 0C BF 0C 00 00
2025-08-09T23:57:22.958367,17.702,can1  206  [16]  CB 0C C7 09 B7 0C 69 E5 0D 0A E8 0C BF 0C 00 00
2025-08-09T23:57:23.292585,18.036,can1  206  [16]  CB 0C C7 09 B7 0C FA E4 0D 0A D7 0C BF 0C 00 00
2025-08-09T23:57:23.292585,18.036,can1  206  [16]  C7 0C C2 09 B7 0C 69 E5 0D 0A DF 0C C3 0C 00 00
2025-08-09T23:57:23.292585,18.036,can1  206  [16]  CF 0C C7 09 B3 0C 24 E7 12 0A D7 0C BF 0C 00 00
2025-08-09T23:57:23.621809,18.365,can1  206  [16]  CB 0C C2 09 B7 0C 7E E4 10 0A DB 0C BF 0C 00 00
2025-08-09T23:57:23.627481,18.371,can1  206  [16]  C7 0C D0 09 B7 0C 7E E4 10 0A D3 0C C3 0C 00 00
2025-08-09T23:57:23.956540,18.700,can1  206  [16]  CB 0C C5 09 B7 0C A0 E2 10 0A DB 0C BB 0C 00 00
2025-08-09T23:57:23.956540,18.700,can1  206  [16]  C7 0C C2 09 B3 0C F4 E3 0D 0A DB 0C C3 0C 00 00
2025-08-09T23:57:23.956540,18.700,can1  206  [16]  D3 0C C5 09 B3 0C D0 E5 0B 0A DF 0C B7 0C 00 00
2025-08-09T23:57:24.272903,19.016,can1  206  [16]  C3 0C C9 09 B3 0C 69 E5 0B 0A DF 0C CB 0C 00 00
2025-08-09T23:57:24.272903,19.016,can1  206  [16]  C7 0C C7 09 B7 0C FA E4 10 0A DF 0C BF 0C 00 00
2025-08-09T23:57:24.607777,19.353,can1  206  [16]  CB 0C C5 09 B7 0C 69 E5 0D 0A DF 0C BF 0C 00 00
2025-08-09T23:57:24.609345,19.353,can1  206  [16]  C7 0C C5 09 B7 0C FA E4 0B 0A DF 0C C3 0C 00 00
2025-08-09T23:57:24.937216,19.680,can1  206  [16]  CB 0C C5 09 B7 0C FA E4 0D 0A DF 0C BF 0C 00 00
2025-08-09T23:57:24.937216,19.680,can1  206  [16]  C3 0C C7 09 B3 0C FA E4 0D 0A D3 0C C7 0C 00 00
2025-08-09T23:57:25.253849,19.997,can1  206  [16]  CF 0C CB 09 B7 0C 69 E5 07 0A DF 0C BB 0C 00 00
2025-08-09T23:57:25.253849,19.997,can1  206  [16]  C3 0C C5 09 B7 0C 69 E5 0B 0A DF 0C C7 0C 00 00
2025-08-09T23:57:25.253849,19.997,can1  206  [16]  E4 0C C5 09 B3 0C FA E4 0B 0A DF 0C A7 0C 00 00
2025-08-09T23:57:25.587089,20.330,can1  206  [16]  CB 0C C9 09 B3 0C FA E4 0D 0A DF 0C BF 0C 00 00
2025-08-09T23:57:25.587089,20.330,can1  206  [16]  C7 0C C5 09 B7 0C FA E4 10 0A D7 0C C3 0C 00 00
2025-08-09T23:57:25.919026,20.662,can1  206  [16]  CB 0C C7 09 B7 0C FA E4 0B 0A E4 0C BB 0C 00 00
2025-08-09T23:57:25.919026,20.662,can1  206  [16]  BF 0C C5 09 B3 0C 69 E5 0B 0A DF 0C CB 0C 00 00
2025-08-09T23:57:25.919026,20.662,can1  206  [16]  CF 0C C5 09 BB 0C D0 E5 0D 0A DB 0C BB 0C 00 00
2025-08-09T23:57:26.252582,20.996,can1  206  [16]  D3 0C C5 09 B7 0C 69 E5 09 0A DB 0C B7 0C 00 00
2025-08-09T23:57:26.252582,20.996,can1  206  [16]  C7 0C C7 09 B7 0C 69 E5 0B 0A DB 0C C3 0C 00 00
2025-08-09T23:57:26.583800,21.327,can1  206  [16]  C7 0C C5 09 B7 0C 69 E5 0D 0A DB 0C C7 0C 00 00
2025-08-09T23:57:26.583800,21.327,can1  206  [16]  CB 0C C5 09 B7 0C FA E4 12 0A DF 0C BF 0C 00 00
2025-08-09T23:57:26.916454,21.660,can1  206  [16]  CF 0C C5 09 B3 0C 7E E4 09 0A DB 0C BF 0C 00 00
2025-08-09T23:57:26.916454,21.660,can1  206  [16]  C3 0C C7 09 BB 0C FA E4 0D 0A DF 0C C3 0C 00 00
2025-08-09T23:57:26.916454,21.660,can1  206  [16]  CB 0C D8 09 AF 0C FA E4 0B 0A DF 0C C3 0C 00 00
2025-08-09T23:57:27.256030,21.999,can1  206  [16]  CF 0C C7 09 B3 0C 69 E5 0B 0A DF 0C BB 0C 00 00
2025-08-09T23:57:27.256030,21.999,can1  206  [16]  C7 0C C5 09 B7 0C FA E4 10 0A DB 0C C3 0C 00 00
2025-08-09T23:57:27.578933,22.322,can1  206  [16]  CB 0C CD 09 B3 0C 69 E5 0D 0A DB 0C BF 0C 00 00
2025-08-09T23:57:27.581462,22.325,can1  206  [16]  C3 0C C5 09 BB 0C 2E E6 0D 0A D7 0C C7 0C 00 00
2025-08-09T23:57:27.581989,22.325,can1  206  [16]  B7 0C C9 09 B7 0C FA E4 0B 0A DB 0C D3 0C 00 00
2025-08-09T23:57:27.896504,22.640,can1  206  [16]  C3 0C CD 09 B7 0C F4 E3 0B 0A DF 0C C7 0C 00 00
2025-08-09T23:57:27.896504,22.640,can1  206  [16]  C7 0C C7 09 B3 0C FA E4 10 0A DB 0C C7 0C 00 00
2025-08-09T23:57:28.230843,22.974,can1  206  [16]  BB 0C C5 09 B7 0C F4 E3 10 0A DB 0C CB 0C 00 00
2025-08-09T23:57:28.230843,22.974,can1  206  [16]  CB 0C C5 09 BB 0C FA E4 0B 0A DB 0C BF 0C 00 00
2025-08-09T23:57:28.230843,22.974,can1  206  [16]  BF 0C BE 09 AB 0C 7E E4 09 0A E8 0C CB 0C 00 00
2025-08-09T23:57:28.564036,23.307,can1  206  [16]  C3 0C C5 09 B7 0C F4 E3 0D 0A DB 0C C3 0C 00 00
2025-08-09T23:57:28.564036,23.307,can1  206  [16]  C7 0C C5 09 B3 0C FA E4 0B 0A DB 0C C3 0C 00 00
2025-08-09T23:57:28.894929,23.638,can1  206  [16]  C7 0C C7 09 B3 0C FA E4 0B 0A DB 0C C3 0C 00 00
2025-08-09T23:57:28.894929,23.638,can1  206  [16]  CB 0C C7 09 B7 0C FA E4 0D 0A DB 0C BF 0C 00 00
2025-08-09T23:57:29.227493,23.971,can1  206  [16]  DB 0C C2 09 BB 0C 69 E5 12 0A D3 0C AF 0C 00 00
2025-08-09T23:57:29.227493,23.971,can1  206  [16]  C3 0C C7 09 B3 0C F4 E3 0B 0A D7 0C C7 0C 00 00
2025-08-09T23:57:29.227493,23.971,"can1  206  [16]  BB 0C C5 09 AB 0C 69 E5 0D 0A CF 0C BF 0C 00 00
  can1  204  [04]  25 7F 01 00"
2025-08-09T23:57:29.559037,24.302,can1  206  [16]  BF 0C C0 09 B3 0C 69 E5 10 0A D7 0C C3 0C 00 00
2025-08-09T23:57:29.559037,24.302,can1  206  [16]  CB 0C CB 09 AF 0C 7E E4 10 0A DB 0C B7 0C 00 00
2025-08-09T23:57:29.892474,24.636,can1  206  [16]  C3 0C C7 09 AF 0C 7E E4 0D 0A D7 0C BF 0C 00 00
2025-08-09T23:57:29.892474,24.636,can1  206  [16]  C7 0C C5 09 B7 0C A0 E2 0D 0A CF 0C BB 0C 00 00
2025-08-09T23:57:30.207973,24.951,can1  206  [16]  C3 0C C7 09 B7 0C FA E4 0B 0A CB 0C BF 0C 00 00
2025-08-09T23:57:30.207973,24.951,can1  206  [16]  C3 0C C7 09 AF 0C 7E E4 10 0A DB 0C BF 0C 00 00
2025-08-09T23:57:30.207973,24.951,can1  206  [16]  C7 0C C5 09 B7 0C 57 E3 0B 0A D3 0C BF 0C 00 00
2025-08-09T23:57:30.542708,25.286,can1  204  [04]  CD 67 01 00
2025-08-09T23:57:30.542708,25.286,can1  206  [16]  CF 0C C5 09 A7 0C 7E E4 10 0A DB 0C BB 0C 00 00
2025-08-09T23:57:30.542708,25.286,"can1  206  [16]  C7 0C C9 09 B3 0C 85 E6 0D 0A D7 0C BF 0C 00 00
  can1  206  [16]  CF 0C C7 09 A7 0C FA E4 0D 0A DB 0C BF 0C 00 00"
2025-08-09T23:57:30.873670,25.617,can1  206  [16]  C3 0C C5 09 B7 0C 69 E5 0D 0A CF 0C C3 0C 00 00
2025-08-09T23:57:30.873670,25.617,can1  206  [16]  BF 0C C5 09 BB 0C D0 E5 10 0A D7 0C C3 0C 00 00
2025-08-09T23:57:31.191315,25.935,can1  206  [16]  D7 0C C7 09 B3 0C 7E E4 0B 0A D7 0C B3 0C 00 00
2025-08-09T23:57:31.192245,25.935,can1  206  [16]  C7 0C C5 09 AF 0C FA E4 0B 0A E8 0C C3 0C 00 00
2025-08-09T23:57:31.522508,26.266,"can1  204  [04]  4F 62 01 00
  can1  206  [16]  C7 0C C5 09 B7 0C D0 E5 0D 0A CF 0C C3 0C 00 00"
2025-08-09T23:57:31.522508,26.266,can1  206  [16]  CF 0C C7 09 B7 0C 69 E5 10 0A D3 0C BB 0C 00 00
2025-08-09T23:57:31.858161,26.601,can1  206  [16]  CB 0C C5 09 B3 0C FA E4 10 0A DF 0C BF 0C 00 00
2025-08-09T23:57:31.858161,26.601,can1  206  [16]  BF 0C D0 09 AF 0C FA E4 0D 0A E4 0C CB 0C 00 00
2025-08-09T23:57:31.858161,26.601,can1  206  [16]  D3 0C C5 09 B3 0C FA E4 0B 0A DF 0C B7 0C 00 00
2025-08-09T23:57:32.186444,26.930,can1  206  [16]  CB 0C C5 09 AB 0C 69 E5 0B 0A E8 0C BF 0C 00 00
2025-08-09T23:57:32.186444,26.930,can1  206  [16]  C7 0C C7 09 B3 0C F4 E3 0D 0A DB 0C C3 0C 00 00
2025-08-09T23:57:32.502087,27.245,"can1  206  [16]  CF 0C C7 09 B3 0C 7E E4 0D 0A DB 0C BB 0C 00 00
  can1  204  [04]  4F 62 01 00"
2025-08-09T23:57:32.502087,27.245,can1  206  [16]  C3 0C C7 09 B7 0C FA E4 07 0A CF 0C C7 0C 00 00
2025-08-09T23:57:32.502087,27.245,can1  206  [16]  C3 0C C7 09 B7 0C FA E4 0B 0A DF 0C C3 0C 00 00
2025-08-09T23:57:32.835940,27.579,can1  206  [16]  BF 0C C7 09 B7 0C FA E4 09 0A E8 0C BF 0C 00 00
2025-08-09T23:57:32.835940,27.579,can1  206  [16]  C7 0C C7 09 B3 0C 69 E5 0B 0A CF 0C C7 0C 00 00
2025-08-09T23:57:33.170579,27.914,can1  206  [16]  D3 0C C7 09 B3 0C 57 E3 0B 0A DB 0C B7 0C 00 00
2025-08-09T23:57:33.170579,27.914,can1  206  [16]  CB 0C C5 09 B7 0C FA E4 0D 0A D3 0C BF 0C 00 00
2025-08-09T23:57:33.170579,27.914,can1  206  [16]  CB 0C C0 09 B3 0C F4 E3 0D 0A DF 0C BF 0C 00 00
2025-08-09T23:57:33.500061,28.243,can1  204  [04]  4F 62 01 00
2025-08-09T23:57:33.500061,28.243,can1  206  [16]  CF 0C C5 09 B3 0C D7 E6 09 0A DF 0C BB 0C 00 00
2025-08-09T23:57:33.508810,28.252,can1  206  [16]  C3 0C C7 09 B7 0C 69 E5 0D 0A D7 0C C7 0C 00 00
2025-08-09T23:57:33.832321,28.576,can1  206  [16]  B7 0C C7 09 B3 0C 7E E4 0D 0A C7 0C D3 0C 00 00
2025-08-09T23:57:33.832321,28.576,can1  206  [16]  CF 0C C5 09 B7 0C 7E E4 0D 0A D7 0C BB 0C 00 00
2025-08-09T23:57:34.167685,28.911,can1  206  [16]  D3 0C C5 09 AB 0C 7E E4 0D 0A DF 0C BB 0C 00 00
2025-08-09T23:57:34.168250,28.911,can1  206  [16]  C3 0C C5 09 BB 0C FA E4 0D 0A D7 0C C3 0C 00 00
2025-08-09T23:57:34.168250,28.911,can1  206  [16]  CF 0C C5 09 B3 0C 69 E5 18 0A DB 0C BF 0C 00 00
2025-08-09T23:57:34.501764,29.245,"can1  204  [04]  4F 62 01 00
  can1  206  [16]  C3 0C C7 09 AF 0C FA E4 0D 0A DF 0C C7 0C 00 00"
2025-08-09T23:57:34.501764,29.245,can1  206  [16]  CB 0C C9 09 A7 0C FA E4 09 0A DF 0C C7 0C 00 00
2025-08-09T23:57:34.830898,29.574,can1  206  [16]  C7 0C C7 09 B7 0C FA E4 0B 0A DB 0C BF 0C 00 00
2025-08-09T23:57:34.830898,29.574,can1  206  [16]  CB 0C C7 09 B7 0C F4 E3 0D 0A CF 0C BF 0C 00 00
2025-08-09T23:57:34.830898,29.574,can1  206  [16]  CF 0C C7 09 B7 0C 69 E5 14 0A E4 0C B7 0C 00 00
2025-08-09T23:57:35.165918,29.909,can1  206  [16]  C7 0C C9 09 B7 0C 69 E5 10 0A DB 0C BF 0C 00 00
2025-08-09T23:57:35.179398,29.923,can1  206  [16]  CF 0C C7 09 AB 0C 69 E5 0B 0A EC 0C BB 0C 00 00
2025-08-09T23:57:35.500883,30.244,"can1  206  [16]  BF 0C C7 09 BF 0C FA E4 10 0A D7 0C C7 0C 00 00
  can1  204  [04]  4F 62 01 00"
2025-08-09T23:57:35.500883,30.244,can1  206  [16]  D3 0C C5 09 A7 0C FA E4 0D 0A DB 0C C3 0C 00 00
2025-08-09T23:57:35.503397,30.247,can1  206  [16]  C7 0C C5 09 A7 0C FA E4 10 0A DB 0C C7 0C 00 00
2025-08-09T23:57:35.832068,30.575,can1  206  [16]  D3 0C C0 09 B7 0C FA E4 0D 0A D7 0C B7 0C 00 00
2025-08-09T23:57:35.832068,30.575,can1  206  [16]  C7 0C C7 09 BB 0C FA E4 0B 0A D7 0C BF 0C 00 00
2025-08-09T23:57:36.166346,30.910,can1  206  [16]  C3 0C C7 09 B7 0C D0 E5 0D 0A DF 0C C3 0C 00 00
2025-08-09T23:57:36.183625,30.927,can1  206  [16]  DF 0C C5 09 B3 0C 69 E5 0D 0A CF 0C AF 0C 00 00
2025-08-09T23:57:36.183625,30.927,can1  206  [16]  C3 0C C7 09 A7 0C 7E E4 0D 0A E4 0C C7 0C 00 00
2025-08-09T23:57:36.498087,31.241,"can1  204  [04]  4F 62 01 00
  can1  206  [16]  C3 0C C7 09 B3 0C FA E4 10 0A DF 0C C7 0C 00 00"
2025-08-09T23:57:36.498087,31.241,can1  206  [16]  CB 0C C5 09 B3 0C 7E E4 12 0A DF 0C BF 0C 00 00
2025-08-09T23:57:36.816852,31.560,can1  206  [16]  CB 0C CB 09 BF 0C 69 E5 0D 0A CF 0C BF 0C 00 00
2025-08-09T23:57:36.826861,31.570,can1  206  [16]  C3 0C C5 09 BB 0C FA E4 0D 0A DB 0C BF 0C 00 00
2025-08-09T23:57:37.147639,31.891,can1  206  [16]  C7 0C C2 09 B3 0C FA E4 0B 0A DF 0C C3 0C 00 00
2025-08-09T23:57:37.147639,31.891,can1  206  [16]  CF 0C C7 09 AF 0C 7E E4 0B 0A DB 0C C3 0C 00 00
2025-08-09T23:57:37.481507,32.225,"can1  206  [16]  CB 0C C5 09 B3 0C 69 E5 0B 0A DB 0C BF 0C 00 00
  can1  204  [04]  4F 62 01 00"
2025-08-09T23:57:37.483709,32.227,can1  206  [16]  CB 0C C7 09 B7 0C FA E4 0B 0A DB 0C BF 0C 00 00
2025-08-09T23:57:37.483709,32.227,can1  206  [16]  CF 0C C7 09 B7 0C 7E E4 0D 0A DB 0C BB 0C 00 00
2025-08-09T23:57:37.804812,32.548,can1  206  [16]  C3 0C C7 09 B3 0C 7E E4 0B 0A DB 0C C7 0C 00 00
2025-08-09T23:57:37.804812,32.548,can1  206  [16]  B7 0C C2 09 C3 0C 69 E5 0B 0A DB 0C C3 0C 00 00
2025-08-09T23:57:37.804812,32.548,can1  206  [16]  CF 0C C7 09 B7 0C FA E4 12 0A D7 0C BB 0C 00 00
2025-08-09T23:57:38.131510,32.875,can1  001  [05]  C0 D4 01 00 80
2025-08-09T23:57:38.131510,32.875,can1  206  [16]  AB 0C BA 09 97 0C FA E4 1D 0A C3 0C AB 0C 00 00
2025-08-09T23:57:38.131510,32.875,can1  206  [16]  C7 0C C7 09 A3 0C F4 E3 12 0A C7 0C AF 0C 00 00
2025-08-09T23:57:38.462240,33.205,"can1  204  [04]  0E 65 01 00
  can1  206  [16]  BF 0C C5 09 A3 0C 57 E3 10 0A CF 0C B7 0C 00 00"
2025-08-09T23:57:38.462240,33.205,can1  206  [16]  C7 0C C7 09 A7 0C FA E4 0B 0A BB 0C AF 0C 00 00
2025-08-09T23:57:38.794291,33.538,can1  206  [16]  C3 0C C7 09 AF 0C FA E4 0D 0A BB 0C B3 0C 00 00
2025-08-09T23:57:38.794291,33.538,can1  206  [16]  CB 0C C7 09 9F 0C FA E4 09 0A C7 0C AF 0C 00 00
2025-08-09T23:57:38.794291,33.538,can1  206  [16]  BF 0C C7 09 A7 0C FA E4 0D 0A CB 0C B3 0C 00 00
2025-08-09T23:57:39.128451,33.872,can1  206  [16]  C7 0C C7 09 A3 0C F4 E3 10 0A C3 0C B3 0C 00 00
2025-08-09T23:57:39.128451,33.872,can1  206  [16]  C3 0C C7 09 A7 0C 7E E4 0D 0A BF 0C AF 0C 00 00
2025-08-09T23:57:39.444675,34.188,"can1  206  [16]  BF 0C C7 09 AF 0C FA E4 16 0A C7 0C BB 0C 00 00
  can1  204  [04]  77 AC 01 00"
2025-08-09T23:57:39.444675,34.188,can1  206  [16]  E8 0C C5 09 AB 0C FA E4 10 0A C7 0C 97 0C 00 00
2025-08-09T23:57:39.769639,34.513,can1  206  [16]  CF 0C C5 09 B3 0C 2E E6 10 0A C7 0C B3 0C 00 00
2025-08-09T23:57:39.769639,34.513,can1  206  [16]  C3 0C C7 09 B7 0C 69 E5 0D 0A CB 0C BB 0C 00 00
2025-08-09T23:57:39.772288,34.516,can1  206  [16]  BF 0C C2 09 AF 0C F4 E3 0D 0A D3 0C BF 0C 00 00
2025-08-09T23:57:40.104786,34.848,can1  206  [16]  C7 0C C7 09 AB 0C 69 E5 0D 0A D3 0C BF 0C 00 00
2025-08-09T23:57:40.110863,34.854,can1  206  [16]  C7 0C CB 09 B7 0C F4 E3 0B 0A CB 0C BB 0C 00 00
2025-08-09T23:57:40.428582,35.172,"can1  206  [16]  C7 0C C9 09 B3 0C 69 E5 0D 0A D3 0C BB 0C 00 00
  can1  204  [04]  0D CC 01 00"
2025-08-09T23:57:40.428582,35.172,can1  206  [16]  CB 0C C7 09 AB 0C FA E4 0D 0A DF 0C BB 0C 00 00
2025-08-09T23:57:40.429574,35.173,can1  206  [16]  C3 0C C9 09 B3 0C FA E4 07 0A D3 0C C3 0C 00 00
2025-08-09T23:57:40.754393,35.498,can1  206  [16]  CF 0C C5 09 AB 0C F4 E3 09 0A DF 0C BB 0C 00 00
2025-08-09T23:57:40.755399,35.499,can1  206  [16]  C3 0C C9 09 B7 0C 69 E5 0D 0A D7 0C C7 0C 00 00
2025-08-09T23:57:41.081472,35.825,can1  206  [16]  C3 0C C7 09 BB 0C FA E4 10 0A D7 0C C3 0C 00 00
2025-08-09T23:57:41.081472,35.825,can1  206  [16]  CF 0C C7 09 B7 0C FA E4 10 0A D7 0C BB 0C 00 00
2025-08-09T23:57:41.416141,36.159,can1  206  [16]  DF 0C CB 09 B3 0C F4 E3 0D 0A DB 0C AB 0C 00 00
2025-08-09T23:57:41.420805,36.164,"can1  204  [04]  8B D1 01 00
  can1  206  [16]  C7 0C C5 09 BB 0C 7E E4 0B 0A D7 0C BF 0C 00 00"
2025-08-09T23:57:41.747691,36.491,can1  206  [16]  CB 0C C2 09 BB 0C FA E4 12 0A DB 0C BB 0C 00 00
2025-08-09T23:57:41.749704,36.493,can1  206  [16]  CF 0C C7 09 AF 0C FA E4 0D 0A E4 0C BB 0C 00 00
2025-08-09T23:57:41.749704,36.493,can1  206  [16]  CF 0C C7 09 AF 0C 7E E4 0D 0A DB 0C BF 0C 00 00
2025-08-09T23:57:42.083687,36.827,can1  206  [16]  C3 0C C0 09 B7 0C 69 E5 10 0A DF 0C C3 0C 00 00
2025-08-09T23:57:42.083687,36.827,can1  206  [16]  C7 0C C7 09 B3 0C 7E E4 0D 0A DB 0C C3 0C 00 00
2025-08-09T23:57:42.083687,36.827,can1  206  [16]  C3 0C D4 09 B3 0C FA E4 0D 0A E4 0C C3 0C 00 00
2025-08-09T23:57:42.418085,37.161,"can1  206  [16]  C3 0C C7 09 B7 0C FA E4 0D 0A CF 0C C7 0C 00 00
  can1  204  [04]  8B D1 01 00"
2025-08-09T23:57:42.418085,37.161,can1  206  [16]  CB 0C C7 09 B3 0C 69 E5 09 0A DB 0C BF 0C 00 00
2025-08-09T23:57:42.748008,37.491,can1  206  [16]  C3 0C C5 09 B7 0C FA E4 10 0A DB 0C C7 0C 00 00
2025-08-09T23:57:42.748008,37.491,can1  206  [16]  BF 0C C5 09 B7 0C F4 E3 0D 0A DB 0C C7 0C 00 00
2025-08-09T23:57:42.748008,37.491,can1  206  [16]  CB 0C C7 09 B7 0C 69 E5 0B 0A DB 0C BF 0C 00 00
2025-08-09T23:57:43.064800,37.808,can1  206  [16]  C3 0C BE 09 AF 0C F4 E3 1B 0A E8 0C BF 0C 00 00
2025-08-09T23:57:43.067810,37.811,can1  206  [16]  BB 0C C7 09 C3 0C FA E4 10 0A DB 0C BF 0C 00 00
2025-08-09T23:57:43.399076,38.142,can1  206  [16]  C7 0C C5 09 B7 0C 57 E3 07 0A DB 0C C3 0C 00 00
2025-08-09T23:57:43.400076,38.143,can1  204  [04]  8B D1 01 00
2025-08-09T23:57:43.410078,38.153,can1  206  [16]  C3 0C C7 09 B7 0C 69 E5 07 0A DF 0C C3 0C 00 00
2025-08-09T23:57:43.725694,38.469,can1  206  [16]  C3 0C C7 09 B7 0C A0 E2 10 0A D7 0C C7 0C 00 00
2025-08-09T23:57:43.726707,38.470,can1  206  [16]  C7 0C C7 09 B7 0C FA E4 09 0A D7 0C C3 0C 00 00
2025-08-09T23:57:44.058344,38.802,"can1  206  [16]  C7 0C C5 09 B3 0C 7E E4 0D 0A DB 0C C3 0C 00 00
  can1  001  [05]  60 EA 00 00 80"
2025-08-09T23:57:44.058344,38.802,can1  206  [16]  CF 0C C7 09 B3 0C FA E4 10 0A E4 0C BB 0C 00 00
2025-08-09T23:57:44.069059,38.812,can1  206  [16]  BF 0C C7 09 A7 0C 69 E5 0D 0A C7 0C B3 0C 00 00
2025-08-09T23:57:44.393403,39.137,can1  206  [16]  BB 0C C5 09 A3 0C 2E E6 10 0A C7 0C BF 0C 00 00
2025-08-09T23:57:44.393403,39.137,"can1  204  [04]  AD CA 01 00
  can1  206  [16]  CB 0C C7 09 9B 0C 69 E5 0D 0A C3 0C B3 0C 00 00"
2025-08-09T23:57:44.726689,39.470,can1  206  [16]  CB 0C C7 09 A7 0C F4 E3 10 0A BF 0C AB 0C 00 00
2025-08-09T23:57:44.755238,39.498,can1  206  [16]  C3 0C C5 09 A3 0C FA E4 0D 0A C7 0C B3 0C 00 00
2025-08-09T23:57:44.755238,39.498,can1  206  [16]  BF 0C C7 09 A3 0C FA E4 0D 0A F0 0C B7 0C 00 00
2025-08-09T23:57:45.054068,39.797,can1  206  [16]  C7 0C C5 09 A7 0C 69 E5 0D 0A C3 0C AF 0C 00 00
2025-08-09T23:57:45.054068,39.797,can1  206  [16]  BB 0C C7 09 A3 0C FA E4 0D 0A BF 0C BB 0C 00 00
2025-08-09T23:57:45.054068,39.797,can1  206  [16]  DB 0C C2 09 A7 0C FA E4 10 0A CB 0C 9B 0C 00 00
2025-08-09T23:57:45.386839,40.130,can1  204  [04]  25 7F 01 00
2025-08-09T23:57:45.386839,40.130,can1  206  [16]  C3 0C C5 09 AB 0C F4 E3 0D 0A C3 0C AF 0C 00 00
2025-08-09T23:57:45.705355,40.449,"can1  206  [16]  BB 0C C5 09 A7 0C FA E4 0D 0A BB 0C BB 0C 00 00
  can1  206  [16]  C3 0C C9 09 A7 0C 69 E5 12 0A CF 0C AF 0C 00 00"
2025-08-09T23:57:45.705355,40.449,can1  206  [16]  B3 0C C9 09 B7 0C 69 E5 0B 0A BF 0C B7 0C 00 00
2025-08-09T23:57:46.039666,40.783,can1  206  [16]  C3 0C C7 09 A7 0C 69 E5 0B 0A AF 0C AF 0C 00 00
2025-08-09T23:57:46.039666,40.783,can1  206  [16]  C3 0C CD 09 A7 0C 7E E4 0D 0A C3 0C B3 0C 00 00
2025-08-09T23:57:46.374603,41.118,can1  206  [16]  BB 0C C5 09 9F 0C 2E E6 10 0A CB 0C BB 0C 00 00
2025-08-09T23:57:46.374603,41.118,"can1  206  [16]  C7 0C C9 09 A7 0C 7E E4 12 0A CB 0C AB 0C 00 00
  can1  204  [04]  3E 32 01 00"
2025-08-09T23:57:46.374603,41.118,can1  206  [16]  C7 0C C7 09 AF 0C FA E4 10 0A BF 0C AF 0C 00 00
2025-08-09T23:57:46.704097,41.447,can1  206  [16]  C7 0C C7 09 9F 0C 69 E5 10 0A D3 0C AF 0C 00 00
2025-08-09T23:57:46.704097,41.447,can1  206  [16]  CB 0C C5 09 A3 0C FA E4 0D 0A D3 0C B3 0C 00 00
2025-08-09T23:57:47.021892,41.765,can1  206  [16]  BF 0C C5 09 A3 0C D0 E5 0D 0A DB 0C B7 0C 00 00
2025-08-09T23:57:47.021892,41.765,can1  206  [16]  CF 0C C5 09 A7 0C 69 E5 10 0A CF 0C AF 0C 00 00
2025-08-09T23:57:47.021892,41.765,can1  206  [16]  C3 0C C7 09 A7 0C 69 E5 07 0A DB 0C C3 0C 00 00
2025-08-09T23:57:47.356262,42.099,"can1  206  [16]  CB 0C C9 09 AF 0C FA E4 0D 0A CF 0C B7 0C 00 00
  can1  204  [04]  31 F7 00 00"
2025-08-09T23:57:47.356262,42.099,can1  206  [16]  CB 0C C7 09 AB 0C FA E4 0B 0A DB 0C BB 0C 00 00
2025-08-09T23:57:47.675837,42.419,can1  206  [16]  BB 0C C7 09 B3 0C 7E E4 09 0A D3 0C CB 0C 00 00
2025-08-09T23:57:47.679835,42.423,can1  206  [16]  C7 0C C2 09 B7 0C 69 E5 0B 0A D3 0C BB 0C 00 00
2025-08-09T23:57:47.679835,42.423,can1  206  [16]  97 0C C7 09 DB 0C FA E4 0B 0A DB 0C C7 0C 00 00
2025-08-09T23:57:48.012044,42.755,can1  206  [16]  BB 0C C7 09 B7 0C 24 E7 0D 0A DB 0C CB 0C 00 00
2025-08-09T23:57:48.012044,42.755,can1  206  [16]  BF 0C C5 09 B3 0C 7E E4 0B 0A DB 0C CB 0C 00 00
2025-08-09T23:57:48.329979,43.073,can1  206  [16]  B3 0C C5 09 C7 0C 69 E5 10 0A DB 0C C3 0C 00 00
2025-08-09T23:57:48.329979,43.073,can1  204  [04]  94 ED 00 00
2025-08-09T23:57:48.329979,43.073,can1  206  [16]  CF 0C C7 09 B3 0C FA E4 0B 0A DB 0C BB 0C 00 00
2025-08-09T23:57:48.664905,43.408,can1  206  [16]  CB 0C C9 09 B3 0C 69 E5 0B 0A DB 0C BF 0C 00 00
2025-08-09T23:57:48.666916,43.410,can1  206  [16]  BF 0C C7 09 B3 0C 69 E5 0B 0A E8 0C CB 0C 00 00
2025-08-09T23:57:48.995743,43.739,can1  206  [16]  C7 0C C5 09 B3 0C FA E4 10 0A DB 0C C3 0C 00 00
2025-08-09T23:57:48.996555,43.740,can1  206  [16]  C3 0C C9 09 B3 0C F4 E3 09 0A D7 0C C3 0C 00 00
2025-08-09T23:57:48.996555,43.740,can1  206  [16]  C7 0C C5 09 8F 0C FA E4 10 0A 00 0D C3 0C 00 00
2025-08-09T23:57:49.333496,44.077,can1  206  [16]  CB 0C C5 09 B3 0C 69 E5 10 0A D3 0C BF 0C 00 00
2025-08-09T23:57:49.335507,44.079,"can1  204  [04]  94 ED 00 00
  can1  206  [16]  C7 0C C7 09 B7 0C 69 E5 12 0A DB 0C BF 0C 00 00"
2025-08-09T23:57:49.660517,44.404,can1  206  [16]  CB 0C C7 09 B3 0C 2E E6 0D 0A D7 0C BF 0C 00 00
2025-08-09T23:57:49.675503,44.419,can1  206  [16]  C3 0C C9 09 C3 0C 69 E5 0B 0A DB 0C BB 0C 00 00
2025-08-09T23:57:49.676514,44.420,can1  206  [16]  CB 0C C5 09 B3 0C FA E4 0D 0A DF 0C BF 0C 00 00
2025-08-09T23:57:49.994007,44.737,can1  206  [16]  C7 0C C2 09 B7 0C FA E4 0D 0A D3 0C C3 0C 00 00
2025-08-09T23:57:49.994007,44.737,can1  206  [16]  BF 0C C2 09 B7 0C 69 E5 10 0A D3 0C C7 0C 00 00
2025-08-09T23:57:49.994007,44.737,can1  206  [16]  CB 0C C7 09 B3 0C FA E4 0D 0A DF 0C BF 0C 00 00
2025-08-09T23:57:50.329047,45.072,"can1  206  [16]  CB 0C C7 09 A3 0C 69 E5 09 0A DF 0C BF 0C 00 00
  can1  204  [04]  94 ED 00 00"
2025-08-09T23:57:50.329047,45.072,can1  206  [16]  CB 0C C5 09 B7 0C 69 E5 0D 0A D3 0C BF 0C 00 00
2025-08-09T23:57:50.646162,45.389,can1  206  [16]  CB 0C C5 09 B7 0C F4 E3 12 0A D7 0C BF 0C 00 00
2025-08-09T23:57:50.648174,45.391,can1  206  [16]  C7 0C C5 09 B7 0C FA E4 0B 0A DB 0C BF 0C 00 00
2025-08-09T23:57:50.981752,45.725,can1  206  [16]  CB 0C C2 09 AF 0C FA E4 0D 0A DF 0C BF 0C 00 00
2025-08-09T23:57:50.981752,45.725,can1  206  [16]  CB 0C C5 09 B3 0C 69 E5 0D 0A DF 0C BF 0C 00 00
2025-08-09T23:57:51.312161,46.055,can1  206  [16]  CB 0C C5 09 B7 0C 69 E5 0D 0A DB 0C BB 0C 00 00
2025-08-09T23:57:51.312161,46.055,can1  206  [16]  D7 0C C7 09 B3 0C 7E E4 0B 0A D3 0C B3 0C 00 00
2025-08-09T23:57:51.312161,46.055,can1  204  [04]  94 ED 00 00
2025-08-09T23:57:51.318722,46.062,can1  206  [16]  C7 0C C7 09 AF 0C FA E4 16 0A E4 0C C3 0C 00 00
2025-08-09T23:57:51.629688,46.373,can1  206  [16]  BB 0C C7 09 B3 0C 69 E5 10 0A DF 0C CB 0C 00 00
2025-08-09T23:57:51.629688,46.373,can1  206  [16]  BF 0C C5 09 B3 0C 24 E7 10 0A D7 0C CB 0C 00 00
2025-08-09T23:57:51.971135,46.714,can1  206  [16]  D3 0C C7 09 A7 0C 69 E5 0D 0A DF 0C BF 0C 00 00
2025-08-09T23:57:51.971135,46.714,can1  206  [16]  CB 0C CB 09 B3 0C D0 E5 0D 0A DB 0C BF 0C 00 00
2025-08-09T23:57:52.303338,47.047,can1  206  [16]  CB 0C C2 09 AF 0C 69 E5 14 0A DF 0C BF 0C 00 00
2025-08-09T23:57:52.305337,47.049,can1  206  [16]  CF 0C C7 09 B7 0C 69 E5 0D 0A DB 0C BB 0C 00 00
2025-08-09T23:57:52.318361,47.062,"can1  204  [04]  94 ED 00 00
  can1  206  [16]  C7 0C C2 09 B7 0C 7E E4 0B 0A D7 0C C3 0C 00 00"
2025-08-09T23:57:52.630092,47.373,can1  206  [16]  C7 0C C7 09 B3 0C FA E4 10 0A DF 0C C3 0C 00 00
2025-08-09T23:57:52.632089,47.375,can1  206  [16]  C3 0C C7 09 B7 0C FA E4 09 0A DF 0C C3 0C 00 00
2025-08-09T23:57:52.632089,47.375,can1  206  [16]  CB 0C C9 09 B3 0C 85 E6 10 0A D7 0C BF 0C 00 00
2025-08-09T23:57:52.956743,47.700,can1  001  [05]  58 0F 02 00 80
2025-08-09T23:57:52.956743,47.700,can1  206  [16]  A7 0C D0 09 AB 0C FA E4 04 0A CF 0C B3 0C 00 00
2025-08-09T23:57:52.956743,47.700,can1  206  [16]  BF 0C C7 09 B3 0C 7E E4 09 0A C7 0C A7 0C 00 00
2025-08-09T23:57:53.293335,48.037,can1  206  [16]  C3 0C C7 09 9F 0C D0 E5 12 0A C7 0C B3 0C 00 00
2025-08-09T23:57:53.295325,48.039,"can1  206  [16]  BF 0C C7 09 AB 0C 57 E3 0D 0A BF 0C B7 0C 00 00
  can1  204  [04]  6E FF 00 00"
2025-08-09T23:57:53.616481,48.360,can1  206  [16]  BF 0C C7 09 A7 0C FA E4 12 0A C3 0C B3 0C 00 00
2025-08-09T23:57:53.618487,48.362,can1  206  [16]  B7 0C C7 09 AB 0C F4 E3 0B 0A BF 0C BB 0C 00 00
2025-08-09T23:57:53.618487,48.362,can1  206  [16]  C3 0C C9 09 AB 0C F4 E3 10 0A B7 0C AF 0C 00 00
2025-08-09T23:57:53.946942,48.690,can1  206  [16]  C3 0C C7 09 9F 0C FA E4 10 0A BF 0C B3 0C 00 00
2025-08-09T23:57:53.946942,48.690,can1  206  [16]  BF 0C C5 09 A7 0C FA E4 18 0A CF 0C B3 0C 00 00
2025-08-09T23:57:54.273445,49.017,can1  206  [16]  BF 0C C5 09 A7 0C 2E E6 0B 0A BF 0C B3 0C 00 00
2025-08-09T23:57:54.282006,49.025,can1  206  [16]  C3 0C C5 09 A7 0C FA E4 0D 0A BF 0C AF 0C 00 00
2025-08-09T23:57:54.282006,49.025,can1  204  [04]  97 49 01 00
2025-08-09T23:57:54.605440,49.349,can1  206  [16]  C3 0C C7 09 A3 0C FA E4 14 0A C3 0C B3 0C 00 00
2025-08-09T23:57:54.605440,49.349,can1  206  [16]  B7 0C C7 09 9F 0C FA E4 0D 0A CF 0C BB 0C 00 00
2025-08-09T23:57:54.605440,49.349,can1  206  [16]  BF 0C C7 09 A7 0C FA E4 0D 0A C7 0C B3 0C 00 00
2025-08-09T23:57:54.927503,49.671,can1  206  [16]  B3 0C C7 09 AB 0C F4 E3 0D 0A B7 0C BF 0C 00 00
2025-08-09T23:57:54.933253,49.676,can1  206  [16]  BF 0C C5 09 A3 0C 7E E4 10 0A C3 0C B3 0C 00 00
2025-08-09T23:57:55.256013,49.999,can1  206  [16]  B7 0C C7 09 A7 0C FA E4 0D 0A C3 0C BB 0C 00 00
2025-08-09T23:57:55.258755,50.002,can1  206  [16]  BF 0C C7 09 A7 0C 7E E4 09 0A BF 0C B3 0C 00 00
2025-08-09T23:57:55.258755,50.002,"can1  204  [04]  5F 92 01 00
  can1  206  [16]  BF 0C C9 09 A7 0C 7E E4 10 0A CF 0C B3 0C 00 00"
2025-08-09T23:57:55.588239,50.331,"can1  206  [16]  BF 0C C5 09 AB 0C 57 E3 0D 0A BF 0C B3 0C 00 00
  can1  206  [16]  BF 0C C5 09 AB 0C F4 E3 0D 0A C3 0C AF 0C 00 00"
2025-08-09T23:57:55.920959,50.664,can1  206  [16]  C7 0C C7 09 A7 0C F4 E3 12 0A C7 0C AB 0C 00 00
2025-08-09T23:57:55.920959,50.664,can1  206  [16]  C7 0C C7 09 9F 0C FA E4 10 0A BF 0C AF 0C 00 00
2025-08-09T23:57:55.920959,50.664,can1  206  [16]  C3 0C C7 09 A7 0C 7E E4 10 0A BF 0C AF 0C 00 00
2025-08-09T23:57:56.236038,50.979,can1  206  [16]  AF 0C C2 09 AF 0C FA E4 0B 0A C3 0C BB 0C 00 00
2025-08-09T23:57:56.236038,50.979,"can1  204  [04]  E7 DD 01 00
  can1  206  [16]  C3 0C C5 09 A3 0C FA E4 10 0A C3 0C AF 0C 00 00"
2025-08-09T23:57:56.568236,51.311,"can1  206  [16]  BF 0C C7 09 9F 0C FA E4 0D 0A C7 0C B7 0C 00 00
  can1  206  [16]  C7 0C C9 09 A7 0C 7E E4 0B 0A CF 0C B3 0C 00 00"
2025-08-09T23:57:56.914749,51.658,can1  206  [16]  C7 0C C7 09 AB 0C FA E4 10 0A D3 0C B7 0C 00 00
2025-08-09T23:57:56.919610,51.663,can1  206  [16]  B7 0C C7 09 B3 0C FA E4 0D 0A CF 0C C3 0C 00 00
2025-08-09T23:57:57.231175,51.974,can1  206  [16]  C3 0C C9 09 A3 0C 69 E5 0D 0A E4 0C C3 0C 00 00
2025-08-09T23:57:57.231175,51.974,can1  206  [16]  BF 0C C5 09 B3 0C 69 E5 0D 0A D3 0C C3 0C 00 00
2025-08-09T23:57:57.231175,51.974,can1  206  [16]  CB 0C C2 09 B7 0C F4 E3 0B 0A D7 0C BB 0C 00 00
2025-08-09T23:57:57.231175,51.974,can1  204  [04]  F8 0D 02 00
2025-08-09T23:57:57.551614,52.295,can1  206  [16]  C7 0C C5 09 AF 0C FA E4 10 0A DB 0C C3 0C 00 00
2025-08-09T23:57:57.553618,52.297,can1  206  [16]  C3 0C C5 09 AF 0C FA E4 0B 0A D7 0C C7 0C 00 00
2025-08-09T23:57:57.553618,52.297,can1  206  [16]  C7 0C C9 09 B3 0C F4 E3 10 0A E4 0C BF 0C 00 00
2025-08-09T23:57:57.879680,52.623,can1  206  [16]  DB 0C C7 09 B7 0C FA E4 0B 0A DB 0C AB 0C 00 00
2025-08-09T23:57:57.880679,52.624,can1  206  [16]  C7 0C C5 09 B3 0C 2E E6 0D 0A D3 0C C3 0C 00 00
2025-08-09T23:57:58.209291,52.953,can1  206  [16]  C7 0C C7 09 B7 0C D0 E5 0D 0A D7 0C BF 0C 00 00
2025-08-09T23:57:58.210255,52.953,can1  206  [16]  C3 0C CB 09 B7 0C 69 E5 0D 0A D7 0C C7 0C 00 00
2025-08-09T23:57:58.547464,53.291,"can1  204  [04]  F8 0D 02 00
  can1  206  [16]  C3 0C C5 09 AB 0C FA E4 10 0A E8 0C C3 0C 00 00"
2025-08-09T23:57:58.547464,53.291,can1  206  [16]  C3 0C C7 09 B3 0C FA E4 12 0A D7 0C C7 0C 00 00
2025-08-09T23:57:58.547464,53.291,can1  206  [16]  BB 0C C5 09 BB 0C FA E4 0D 0A DB 0C CB 0C 00 00
2025-08-09T23:57:58.866364,53.610,can1  206  [16]  BF 0C C7 09 B3 0C 69 E5 0B 0A D7 0C CB 0C 00 00
2025-08-09T23:57:58.866364,53.610,can1  206  [16]  CF 0C BA 09 B3 0C FA E4 0D 0A DB 0C BB 0C 00 00
2025-08-09T23:57:59.198856,53.942,can1  206  [16]  C3 0C C7 09 B7 0C FA E4 0D 0A DF 0C C3 0C 00 00
2025-08-09T23:57:59.198856,53.942,can1  206  [16]  BF 0C C7 09 B7 0C 7E E4 12 0A D7 0C C7 0C 00 00
2025-08-09T23:57:59.198856,53.942,can1  204  [04]  F8 0D 02 00
2025-08-09T23:57:59.529526,54.273,can1  206  [16]  BF 0C C7 09 AF 0C FA E4 10 0A DB 0C C7 0C 00 00
2025-08-09T23:57:59.529526,54.273,can1  206  [16]  C7 0C C7 09 BB 0C F4 E3 0B 0A C7 0C BF 0C 00 00
2025-08-09T23:57:59.529526,54.273,can1  206  [16]  C7 0C C5 09 BB 0C FA E4 0B 0A D7 0C BF 0C 00 00
2025-08-09T23:57:59.859653,54.603,can1  206  [16]  C3 0C C5 09 B7 0C FA E4 09 0A D3 0C C3 0C 00 00
2025-08-09T23:57:59.859653,54.603,can1  206  [16]  C3 0C C9 09 B3 0C 7E E4 10 0A DF 0C C7 0C 00 00
2025-08-09T23:58:00.174788,54.918,can1  206  [16]  D3 0C C7 09 AF 0C D0 E5 0B 0A E4 0C B7 0C 00 00
2025-08-09T23:58:00.174788,54.918,can1  206  [16]  C3 0C C7 09 AF 0C F4 E3 10 0A D7 0C C7 0C 00 00
2025-08-09T23:58:00.174788,54.918,"can1  206  [16]  D7 0C C7 09 B7 0C 57 E3 0D 0A DB 0C AF 0C 00 00
  can1  204  [04]  F8 0D 02 00"
2025-08-09T23:58:00.507119,55.250,can1  206  [16]  CF 0C C2 09 AF 0C 69 E5 10 0A DF 0C BB 0C 00 00
2025-08-09T23:58:00.507119,55.250,can1  206  [16]  C7 0C C9 09 B3 0C FA E4 0D 0A D7 0C C3 0C 00 00
2025-08-09T23:58:00.838914,55.582,can1  206  [16]  CF 0C C7 09 B3 0C FA E4 0D 0A D7 0C BB 0C 00 00
2025-08-09T23:58:00.854588,55.598,can1  206  [16]  C3 0C C5 09 B7 0C D0 E5 0B 0A D3 0C C3 0C 00 00
2025-08-09T23:58:01.172591,55.916,can1  206  [16]  C3 0C C2 09 AF 0C 69 E5 0B 0A EC 0C C7 0C 00 00
2025-08-09T23:58:01.176564,55.920,can1  206  [16]  C7 0C C5 09 AB 0C 69 E5 0D 0A E8 0C BF 0C 00 00
2025-08-09T23:58:01.176564,55.920,"can1  206  [16]  C3 0C C2 09 BF 0C 7E E4 0D 0A DB 0C BB 0C 00 00
  can1  204  [04]  F8 0D 02 00"
2025-08-09T23:58:01.501819,56.245,can1  206  [16]  C7 0C C7 09 A7 0C D0 E5 0D 0A E4 0C C7 0C 00 00
2025-08-09T23:58:01.506268,56.250,can1  206  [16]  C7 0C D6 09 B3 0C FA E4 0B 0A D7 0C BF 0C 00 00
2025-08-09T23:58:01.828396,56.572,can1  206  [16]  CB 0C C5 09 B3 0C 7E E4 0B 0A D7 0C BF 0C 00 00
2025-08-09T23:58:01.828396,56.572,can1  206  [16]  C7 0C C5 09 AB 0C F4 E3 0D 0A E4 0C C3 0C 00 00
2025-08-09T23:58:01.838478,56.582,can1  206  [16]  CF 0C C5 09 B3 0C 57 E3 0D 0A D7 0C BB 0C 00 00
2025-08-09T23:58:02.144852,56.888,can1  206  [16]  BF 0C C5 09 B7 0C 7E E4 10 0A DB 0C C7 0C 00 00
2025-08-09T23:58:02.147497,56.891,can1  206  [16]  C3 0C C5 09 B3 0C FA E4 10 0A D7 0C C7 0C 00 00
2025-08-09T23:58:02.477346,57.221,can1  204  [04]  F8 0D 02 00
2025-08-09T23:58:02.477346,57.221,can1  206  [16]  CB 0C C5 09 AF 0C 7E E4 10 0A DF 0C BF 0C 00 00
2025-08-09T23:58:02.477346,57.221,can1  206  [16]  CB 0C C5 09 B7 0C 7E E4 0B 0A DF 0C BB 0C 00 00
2025-08-09T23:58:02.477346,57.221,can1  206  [16]  C7 0C C7 09 B3 0C 69 E5 0B 0A D7 0C C3 0C 00 00
2025-08-09T23:58:02.810030,57.553,can1  206  [16]  CB 0C C7 09 B3 0C 69 E5 0D 0A DF 0C BF 0C 00 00
2025-08-09T23:58:02.810030,57.553,can1  206  [16]  CB 0C C7 09 AB 0C FA E4 0B 0A DF 0C C3 0C 00 00
2025-08-09T23:58:03.141624,57.885,can1  206  [16]  C3 0C C9 09 AF 0C FA E4 0B 0A DF 0C C7 0C 00 00
2025-08-09T23:58:03.141624,57.885,can1  206  [16]  CB 0C C5 09 AB 0C 69 E5 0D 0A E8 0C BF 0C 00 00
2025-08-09T23:58:03.484876,58.228,"can1  204  [04]  F8 0D 02 00
  can1  206  [16]  CF 0C C9 09 A7 0C 69 E5 0D 0A E4 0C BB 0C 00 00"
2025-08-09T23:58:03.484876,58.228,can1  206  [16]  CB 0C C5 09 AF 0C D0 E5 10 0A DF 0C BF 0C 00 00
2025-08-09T23:58:03.803314,58.547,can1  206  [16]  D3 0C C9 09 B3 0C FA E4 10 0A F4 0C B7 0C 00 00
2025-08-09T23:58:03.833317,58.577,can1  206  [16]  BF 0C C2 09 B7 0C 69 E5 09 0A DB 0C C7 0C 00 00
2025-08-09T23:58:03.834317,58.578,can1  206  [16]  BF 0C C5 09 B7 0C 69 E5 0B 0A D7 0C C7 0C 00 00
2025-08-09T23:58:04.129254,58.872,"can1  001  [05]  E0 22 02 00 80
  can1  206  [16]  CB 0C C5 09 AF 0C 7E E4 04 0A E4 0C BF 0C 00 00"
2025-08-09T23:58:04.129254,58.872,can1  206  [16]  C3 0C C7 09 B7 0C FA E4 0B 0A D7 0C C7 0C 00 00
2025-08-09T23:58:04.477142,59.220,"can1  206  [16]  CF 0C BA 09 B7 0C FA E4 0D 0A D3 0C BB 0C 00 00
  can1  204  [04]  F8 0D 02 00"
2025-08-09T23:58:04.477142,59.220,can1  206  [16]  C7 0C C7 09 B3 0C FA E4 0D 0A D7 0C C3 0C 00 00
2025-08-09T23:58:04.477142,59.220,can1  206  [16]  C7 0C C7 09 B3 0C F4 E3 0B 0A D3 0C C3 0C 00 00
2025-08-09T23:58:04.788704,59.532,can1  206  [16]  8F 0C C7 09 F0 0C FA E4 09 0A D3 0C C7 0C 00 00
2025-08-09T23:58:04.790716,59.534,can1  206  [16]  C3 0C C7 09 B3 0C 69 E5 0D 0A D7 0C C7 0C 00 00
2025-08-09T23:58:04.791250,59.534,can1  206  [16]  CB 0C C7 09 B7 0C 69 E5 0D 0A DB 0C BB 0C 00 00
2025-08-09T23:58:05.123560,59.867,can1  206  [16]  BF 0C C7 09 B7 0C D0 E5 10 0A D7 0C C7 0C 00 00
2025-08-09T23:58:05.124571,59.868,can1  206  [16]  C3 0C C7 09 B3 0C 69 E5 10 0A D7 0C C7 0C 00 00
2025-08-09T23:58:05.451690,60.195,can1  204  [04]  F8 0D 02 00
2025-08-09T23:58:05.453700,60.197,can1  206  [16]  C7 0C C5 09 B3 0C FA E4 0D 0A DB 0C C3 0C 00 00
2025-08-09T23:58:05.453700,60.197,can1  206  [16]  C7 0C C7 09 BF 0C FA E4 0D 0A D3 0C C3 0C 00 00
2025-08-09T23:58:05.775032,60.518,can1  206  [16]  CF 0C C7 09 B3 0C 57 E3 0D 0A DF 0C BB 0C 00 00
2025-08-09T23:58:05.778909,60.522,can1  206  [16]  C3 0C C5 09 BB 0C 7E E4 0D 0A D3 0C C3 0C 00 00
2025-08-09T23:58:06.102153,60.845,can1  206  [16]  BB 0C C5 09 B7 0C FA E4 0D 0A D3 0C CB 0C 00 00
2025-08-09T23:58:06.102153,60.845,can1  206  [16]  CB 0C C5 09 B7 0C 7E E4 0B 0A D3 0C BF 0C 00 00
2025-08-09T23:58:06.102153,60.845,can1  206  [16]  C3 0C C5 09 BB 0C FA E4 0D 0A D7 0C C3 0C 00 00
2025-08-09T23:58:06.434731,61.178,"can1  204  [04]  F8 0D 02 00
  can1  206  [16]  C7 0C C7 09 B3 0C 7E E4 0B 0A E4 0C BF 0C 00 00"
2025-08-09T23:58:06.435736,61.179,can1  206  [16]  C7 0C C5 09 B3 0C C5 E1 0B 0A D7 0C C3 0C 00 00
2025-08-09T23:58:06.765347,61.509,can1  206  [16]  C7 0C C7 09 B7 0C 85 E6 10 0A D7 0C C3 0C 00 00
2025-08-09T23:58:06.770437,61.514,can1  206  [16]  C3 0C C7 09 B3 0C FA E4 0B 0A DF 0C C7 0C 00 00
2025-08-09T23:58:06.770437,61.514,can1  206  [16]  D3 0C C7 09 B3 0C 7E E4 0B 0A DF 0C B3 0C 00 00
2025-08-09T23:58:07.099013,61.842,can1  206  [16]  C7 0C C5 09 AF 0C FA E4 10 0A DF 0C C3 0C 00 00
2025-08-09T23:58:07.099013,61.842,can1  206  [16]  CF 0C C7 09 B7 0C 7E E4 0D 0A D7 0C BB 0C 00 00
2025-08-09T23:58:07.437211,62.180,"can1  206  [16]  C7 0C C7 09 B7 0C 7E E4 09 0A DF 0C BF 0C 00 00
  can1  204  [04]  F8 0D 02 00"
2025-08-09T23:58:07.437211,62.180,can1  206  [16]  BF 0C C7 09 B7 0C 7E E4 0B 0A DB 0C C7 0C 00 00
2025-08-09T23:58:07.437211,62.180,can1  206  [16]  CB 0C C7 09 B3 0C 69 E5 0D 0A DF 0C BF 0C 00 00
2025-08-09T23:58:07.766850,62.510,can1  206  [16]  8B 0C CD 09 B3 0C 69 E5 10 0A D3 0C 00 0D 00 00
2025-08-09T23:58:07.766850,62.510,can1  206  [16]  C3 0C C7 09 B3 0C FA E4 09 0A DB 0C C7 0C 00 00
2025-08-09T23:58:08.080620,62.824,can1  206  [16]  CB 0C CB 09 B3 0C FA E4 10 0A DB 0C BF 0C 00 00
2025-08-09T23:58:08.080620,62.824,can1  206  [16]  C7 0C C5 09 B3 0C 69 E5 0D 0A CB 0C C7 0C 00 00
2025-08-09T23:58:08.412444,63.156,can1  206  [16]  BF 0C C2 09 BF 0C D0 E5 07 0A DB 0C BF 0C 00 00
2025-08-09T23:58:08.418049,63.161,"can1  204  [04]  F8 0D 02 00
  can1  206  [16]  CB 0C C7 09 B7 0C FA E4 0D 0A DF 0C BB 0C 00 00"
2025-08-09T23:58:08.756452,63.500,can1  206  [16]  C3 0C C5 09 B7 0C FA E4 0D 0A D3 0C C3 0C 00 00
2025-08-09T23:58:08.756452,63.500,can1  206  [16]  C7 0C C7 09 AB 0C 69 E5 0B 0A E8 0C C3 0C 00 00
2025-08-09T23:58:08.756452,63.500,can1  206  [16]  C3 0C C7 09 AB 0C FA E4 0D 0A E4 0C C7 0C 00 00
2025-08-09T23:58:09.082032,63.825,can1  206  [16]  CF 0C C5 09 B3 0C FA E4 0B 0A DB 0C BB 0C 00 00
2025-08-09T23:58:09.097175,63.840,can1  206  [16]  CB 0C C5 09 B7 0C 7E E4 0D 0A DB 0C BF 0C 00 00
2025-08-09T23:58:09.415338,64.159,"can1  206  [16]  CB 0C C7 09 AF 0C 7E E4 10 0A DF 0C BF 0C 00 00
  can1  204  [04]  F8 0D 02 00"
2025-08-09T23:58:09.419351,64.163,can1  206  [16]  BF 0C C5 09 B7 0C 69 E5 10 0A DB 0C C7 0C 00 00
2025-08-09T23:58:09.419351,64.163,can1  206  [16]  C7 0C CD 09 AB 0C FA E4 04 0A E4 0C C7 0C 00 00
2025-08-09T23:58:09.746502,64.490,can1  001  [05]  30 75 00 00 80
2025-08-09T23:58:09.746502,64.490,can1  206  [16]  C3 0C C7 09 B7 0C 2E E6 0D 0A D3 0C BF 0C 00 00
2025-08-09T23:58:09.746502,64.490,can1  206  [16]  BB 0C C7 09 AB 0C FA E4 0D 0A C3 0C B3 0C 00 00
2025-08-09T23:58:09.746502,64.490,can1  206  [16]  BF 0C CD 09 A3 0C D0 E5 10 0A C3 0C B3 0C 00 00
2025-08-09T23:58:10.075351,64.819,can1  206  [16]  BB 0C C9 09 A7 0C D0 E5 12 0A C3 0C BB 0C 00 00
2025-08-09T23:58:10.075351,64.819,can1  206  [16]  B7 0C C7 09 AB 0C F4 E3 10 0A C7 0C B3 0C 00 00
2025-08-09T23:58:10.393325,65.137,"can1  204  [04]  C2 EF 01 00
  can1  206  [16]  CB 0C C7 09 A3 0C D0 E5 0B 0A CB 0C AF 0C 00 00"
2025-08-09T23:58:10.733909,65.477,"can1  206  [16]  CB 0C C5 09 A3 0C 69 E5 12 0A CB 0C AF 0C 00 00
  can1  206  [16]  C3 0C CB 09 9F 0C F4 E3 0B 0A C7 0C B3 0C 00 00"
2025-08-09T23:58:10.735922,65.479,can1  206  [16]  BF 0C C2 09 AB 0C FA E4 0D 0A BF 0C B3 0C 00 00
2025-08-09T23:58:11.078342,65.822,can1  206  [16]  BF 0C C7 09 AB 0C FA E4 0D 0A BF 0C B3 0C 00 00
2025-08-09T23:58:11.078342,65.822,can1  206  [16]  C3 0C C7 09 A7 0C FA E4 0D 0A C7 0C AF 0C 00 00
2025-08-09T23:58:11.078342,65.822,can1  206  [16]  C7 0C C9 09 A7 0C FA E4 10 0A C7 0C AF 0C 00 00
2025-08-09T23:58:11.379566,66.123,"can1  206  [16]  B7 0C C9 09 AB 0C 7E E4 0D 0A BF 0C BB 0C 00 00
  can1  204  [04]  3A A4 01 00"
2025-08-09T23:58:11.379566,66.123,can1  206  [16]  B7 0C C7 09 B3 0C 7E E4 09 0A BF 0C B3 0C 00 00
2025-08-09T23:58:11.714180,66.457,can1  206  [16]  BB 0C C7 09 A7 0C 69 E5 23 0A C3 0C B7 0C 00 00
2025-08-09T23:58:11.714180,66.457,can1  206  [16]  AF 0C C7 09 AB 0C 7E E4 0D 0A C3 0C C3 0C 00 00
2025-08-09T23:58:11.714180,66.457,can1  206  [16]  BF 0C C7 09 A7 0C F4 E3 0D 0A C3 0C BB 0C 00 00
2025-08-09T23:58:12.041825,66.785,can1  206  [16]  C3 0C C7 09 9F 0C 7E E4 12 0A B3 0C B3 0C 00 00
2025-08-09T23:58:12.043824,66.787,can1  206  [16]  C7 0C C7 09 9B 0C FA E4 10 0A C7 0C B7 0C 00 00
2025-08-09T23:58:12.373701,67.117,can1  206  [16]  BF 0C C5 09 A3 0C FA E4 10 0A C7 0C B3 0C 00 00
2025-08-09T23:58:12.389477,67.133,can1  204  [04]  B2 58 01 00
2025-08-09T23:58:12.389477,67.133,can1  206  [16]  C3 0C C7 09 9B 0C 69 E5 0D 0A CF 0C B3 0C 00 00
2025-08-09T23:58:12.389477,67.133,can1  206  [16]  BB 0C C5 09 A3 0C 69 E5 12 0A BF 0C BF 0C 00 00
2025-08-09T23:58:12.690117,67.433,can1  206  [16]  BF 0C C9 09 A3 0C D7 E6 0B 0A C7 0C B7 0C 00 00
2025-08-09T23:58:12.690117,67.433,can1  206  [16]  BF 0C C7 09 AF 0C FA E4 0D 0A D3 0C AB 0C 00 00
2025-08-09T23:58:13.022554,67.766,can1  206  [16]  CB 0C C5 09 9F 0C FA E4 10 0A E4 0C AF 0C 00 00
2025-08-09T23:58:13.041304,67.785,can1  206  [16]  CF 0C C7 09 AB 0C FA E4 0D 0A C3 0C A3 0C 00 00
2025-08-09T23:58:13.356294,68.100,can1  206  [16]  C3 0C C7 09 A7 0C 69 E5 10 0A C3 0C B3 0C 00 00
2025-08-09T23:58:13.370322,68.114,"can1  204  [04]  AC 07 01 00
  can1  206  [16]  C7 0C C2 09 A3 0C 7E E4 10 0A CF 0C AF 0C 00 00"
2025-08-09T23:58:13.370322,68.114,can1  206  [16]  CB 0C C7 09 AB 0C 7E E4 0B 0A C7 0C A7 0C 00 00
2025-08-09T23:58:13.687691,68.431,can1  206  [16]  C7 0C C7 09 A7 0C 7E E4 0B 0A BB 0C AF 0C 00 00
2025-08-09T23:58:13.687691,68.431,can1  206  [16]  C3 0C C7 09 A3 0C F4 E3 10 0A C3 0C B3 0C 00 00
2025-08-09T23:58:14.004707,68.748,can1  206  [16]  C3 0C C9 09 A7 0C FA E4 10 0A BF 0C B3 0C 00 00
2025-08-09T23:58:14.004707,68.748,can1  206  [16]  C3 0C C5 09 AB 0C D0 E5 0D 0A CF 0C B3 0C 00 00
2025-08-09T23:58:14.341276,69.085,can1  206  [16]  B3 0C CD 09 BB 0C 7E E4 0B 0A CF 0C BB 0C 00 00
2025-08-09T23:58:14.341276,69.085,"can1  204  [04]  83 BD 00 00
  can1  206  [16]  CB 0C C5 09 C7 0C 7E E4 09 0A BB 0C B3 0C 00 00"
2025-08-09T23:58:14.671266,69.415,can1  206  [16]  C7 0C C7 09 A3 0C 85 E6 10 0A DB 0C C3 0C 00 00
2025-08-09T23:58:14.680060,69.423,can1  206  [16]  CB 0C C5 09 AB 0C 7E E4 0B 0A D3 0C BB 0C 00 00
2025-08-09T23:58:14.680060,69.423,can1  206  [16]  CB 0C C5 09 AF 0C 69 E5 0B 0A DF 0C BF 0C 00 00
2025-08-09T23:58:14.991187,69.734,can1  206  [16]  C7 0C C7 09 B7 0C FA E4 0D 0A D7 0C BF 0C 00 00
2025-08-09T23:58:14.991187,69.734,can1  206  [16]  C7 0C B7 09 B3 0C 69 E5 0D 0A DB 0C C3 0C 00 00
2025-08-09T23:58:14.993198,69.736,can1  206  [16]  C3 0C C7 09 B3 0C FA E4 0D 0A DB 0C C7 0C 00 00
2025-08-09T23:58:15.320430,70.064,can1  206  [16]  D3 0C C7 09 B7 0C 69 E5 10 0A D7 0C B7 0C 00 00
2025-08-09T23:58:15.320430,70.064,"can1  204  [04]  27 B1 00 00
  can1  206  [16]  C7 0C C7 09 B7 0C FA E4 0B 0A D7 0C C3 0C 00 00"
2025-08-09T23:58:15.654013,70.397,can1  206  [16]  C3 0C C7 09 AF 0C FA E4 0B 0A DB 0C C7 0C 00 00
2025-08-09T23:58:15.659546,70.403,can1  206  [16]  D7 0C C5 09 AF 0C D0 E5 10 0A DB 0C B3 0C 00 00
2025-08-09T23:58:15.985843,70.729,can1  206  [16]  C7 0C C7 09 AF 0C FA E4 0D 0A DB 0C C3 0C 00 00
2025-08-09T23:58:15.985843,70.729,can1  206  [16]  D7 0C C5 09 A7 0C FA E4 10 0A D3 0C BF 0C 00 00
2025-08-09T23:58:15.985843,70.729,can1  206  [16]  B7 0C C5 09 AF 0C 6F EA 0B 0A E8 0C CF 0C 00 00
2025-08-09T23:58:16.306302,71.050,"can1  206  [16]  C7 0C C7 09 B3 0C 7E E4 0B 0A D7 0C BF 0C 00 00
  can1  204  [04]  27 B1 00 00"
2025-08-09T23:58:16.306302,71.050,can1  206  [16]  C7 0C C5 09 AB 0C 69 E5 0D 0A E4 0C C3 0C 00 00
2025-08-09T23:58:16.636928,71.380,can1  206  [16]  C3 0C C7 09 B7 0C FA E4 09 0A DF 0C C3 0C 00 00
2025-08-09T23:58:16.636928,71.380,can1  206  [16]  C3 0C D0 09 B7 0C FA E4 12 0A D7 0C C7 0C 00 00
2025-08-09T23:58:16.636928,71.380,can1  206  [16]  C7 0C C5 09 B3 0C 69 E5 10 0A DB 0C C3 0C 00 00
2025-08-09T23:58:16.969610,71.713,can1  206  [16]  C7 0C C7 09 B7 0C FA E4 09 0A D7 0C C3 0C 00 00
2025-08-09T23:58:16.969610,71.713,can1  206  [16]  CB 0C C5 09 B3 0C 69 E5 10 0A D3 0C BF 0C 00 00
2025-08-09T23:58:17.287286,72.031,can1  206  [16]  D3 0C B7 09 B3 0C 69 E5 0D 0A DB 0C B7 0C 00 00
2025-08-09T23:58:17.298126,72.041,"can1  204  [04]  27 B1 00 00
  can1  206  [16]  C3 0C C7 09 C3 0C 7E E4 10 0A DB 0C BB 0C 00 00"
2025-08-09T23:58:17.620147,72.363,"can1  206  [16]  C7 0C CB 09 B7 0C 7E E4 0B 0A D3 0C BF 0C 00 00
  can1  206  [16]  C3 0C C5 09 B7 0C 7E E4 0D 0A DF 0C C3 0C 00 00"
2025-08-09T23:58:17.620147,72.363,can1  206  [16]  CF 0C C2 09 AB 0C 69 E5 09 0A DF 0C BB 0C 00 00
2025-08-09T23:58:17.955538,72.699,can1  206  [16]  B7 0C C5 09 B3 0C FA E4 0D 0A D3 0C D3 0C 00 00
2025-08-09T23:58:17.955538,72.699,can1  206  [16]  BF 0C C7 09 B3 0C 69 E5 0D 0A CB 0C C7 0C 00 00
2025-08-09T23:58:18.293210,73.036,can1  206  [16]  C3 0C C7 09 BB 0C 69 E5 12 0A CF 0C C3 0C 00 00
2025-08-09T23:58:18.293210,73.036,"can1  206  [16]  CF 0C AA 09 B7 0C 69 E5 0B 0A D3 0C B7 0C 00 00
  can1  204  [04]  27 B1 00 00"
2025-08-09T23:58:18.627601,73.371,can1  206  [16]  C7 0C C7 09 B7 0C 7E E4 10 0A D3 0C BF 0C 00 00
2025-08-09T23:58:18.627601,73.371,can1  206  [16]  D3 0C C7 09 B7 0C 7E E4 16 0A DB 0C B3 0C 00 00
2025-08-09T23:58:18.627601,73.371,can1  206  [16]  CB 0C C2 09 B3 0C FA E4 10 0A DB 0C BB 0C 00 00
2025-08-09T23:58:18.958558,73.702,can1  206  [16]  CB 0C C9 09 B7 0C FA E4 0D 0A D7 0C BB 0C 00 00
2025-08-09T23:58:18.960566,73.704,can1  206  [16]  C7 0C C7 09 B3 0C FA E4 0B 0A D3 0C C3 0C 00 00
2025-08-09T23:58:18.960566,73.704,can1  206  [16]  C3 0C C7 09 AF 0C FA E4 12 0A DB 0C C3 0C 00 00
2025-08-09T23:58:19.271654,74.015,"can1  206  [16]  CB 0C C7 09 AF 0C 7E E4 0B 0A D7 0C BF 0C 00 00
  can1  204  [04]  27 B1 00 00"
2025-08-09T23:58:19.271654,74.015,can1  206  [16]  C3 0C C5 09 AF 0C 69 E5 0D 0A EC 0C C3 0C 00 00
2025-08-09T23:58:19.605082,74.348,can1  206  [16]  D3 0C C9 09 B7 0C FA E4 0D 0A DB 0C B3 0C 00 00
2025-08-09T23:58:19.605082,74.348,can1  206  [16]  CB 0C C5 09 AB 0C FA E4 0D 0A DF 0C C3 0C 00 00
2025-08-09T23:58:19.938771,74.682,can1  206  [16]  BB 0C C7 09 B3 0C 69 E5 0D 0A E4 0C C7 0C 00 00
2025-08-09T23:58:19.945556,74.689,can1  206  [16]  CB 0C C9 09 B3 0C 7E E4 0D 0A DF 0C BB 0C 00 00
2025-08-09T23:58:19.945556,74.689,can1  206  [16]  CB 0C C7 09 B7 0C 7E E4 0B 0A D3 0C BB 0C 00 00
2025-08-09T23:58:20.269506,75.013,can1  206  [16]  CB 0C C5 09 AF 0C FA E4 0D 0A D7 0C BF 0C 00 00
2025-08-09T23:58:20.272017,75.015,can1  204  [04]  27 B1 00 00
2025-08-09T23:58:20.285225,75.028,can1  206  [16]  C3 0C C7 09 B7 0C FA E4 0B 0A D3 0C C3 0C 00 00
2025-08-09T23:58:20.604041,75.347,can1  206  [16]  CB 0C CB 09 B7 0C 69 E5 0D 0A D3 0C BF 0C 00 00
2025-08-09T23:58:20.604041,75.347,can1  206  [16]  CB 0C C5 09 B3 0C 7E E4 09 0A D3 0C BF 0C 00 00
2025-08-09T23:58:20.935202,75.678,can1  206  [16]  B3 0C C2 09 C3 0C FA E4 0D 0A D3 0C C7 0C 00 00
2025-08-09T23:58:20.935202,75.678,can1  206  [16]  B7 0C C9 09 C7 0C FA E4 0B 0A DB 0C BB 0C 00 00
2025-08-09T23:58:20.935202,75.678,can1  206  [16]  C7 0C C5 09 B3 0C FA E4 0D 0A DB 0C C3 0C 00 00
2025-08-09T23:58:21.254763,75.998,can1  206  [16]  D7 0C D0 09 AF 0C 69 E5 0B 0A DB 0C B3 0C 00 00
2025-08-09T23:58:21.254763,75.998,"can1  204  [04]  27 B1 00 00
  can1  206  [16]  B3 0C C7 09 BB 0C 7E E4 0D 0A DF 0C D3 0C 00 00"
2025-08-09T23:58:21.254763,75.998,can1  206  [16]  C7 0C C7 09 B3 0C 69 E5 0D 0A D7 0C C3 0C 00 00
2025-08-09T23:58:21.585536,76.329,can1  206  [16]  C7 0C C7 09 B7 0C 7E E4 0B 0A CF 0C C3 0C 00 00
2025-08-09T23:58:21.585536,76.329,can1  206  [16]  C3 0C C5 09 B7 0C 69 E5 0D 0A DB 0C C7 0C 00 00
2025-08-09T23:58:21.918640,76.662,can1  206  [16]  C7 0C C9 09 B3 0C 57 E3 0D 0A DF 0C BF 0C 00 00
2025-08-09T23:58:21.918640,76.662,can1  206  [16]  C7 0C C7 09 B3 0C 69 E5 04 0A DB 0C BF 0C 00 00
2025-08-09T23:58:22.253711,76.997,can1  206  [16]  CF 0C C7 09 B7 0C F4 E3 0B 0A DF 0C B7 0C 00 00
2025-08-09T23:58:22.253711,76.997,can1  206  [16]  CB 0C C7 09 B3 0C 69 E5 0B 0A DB 0C BF 0C 00 00
2025-08-09T23:58:22.253711,76.997,can1  204  [04]  27 B1 00 00
2025-08-09T23:58:22.253711,76.997,can1  206  [16]  C7 0C C5 09 B7 0C 69 E5 12 0A D3 0C BF 0C 00 00
2025-08-09T23:58:22.584673,77.328,can1  206  [16]  BF 0C C7 09 B7 0C FA E4 07 0A CF 0C CF 0C 00 00
2025-08-09T23:58:22.584673,77.328,can1  206  [16]  CB 0C C5 09 B3 0C 7E E4 10 0A D3 0C BF 0C 00 00
2025-08-09T23:58:22.917909,77.661,can1  206  [16]  C3 0C C5 09 B3 0C 69 E5 0B 0A DB 0C C7 0C 00 00
2025-08-09T23:58:22.917909,77.661,can1  206  [16]  CB 0C C7 09 B3 0C FA E4 0D 0A DB 0C BF 0C 00 00
2025-08-09T23:58:23.260904,78.004,can1  206  [16]  CF 0C C5 09 B3 0C 7E E4 0B 0A CF 0C BB 0C 00 00
2025-08-09T23:58:23.260904,78.004,can1  206  [16]  CB 0C C9 09 A3 0C FA E4 12 0A EC 0C BF 0C 00 00
2025-08-09T23:58:23.266963,78.010,"can1  204  [04]  27 B1 00 00
  can1  206  [16]  C3 0C C5 09 B7 0C FA E4 0B 0A CB 0C C3 0C 00 00"
2025-08-09T23:58:23.569527,78.313,can1  206  [16]  CB 0C C7 09 B3 0C FA E4 0B 0A D7 0C BF 0C 00 00
2025-08-09T23:58:23.569527,78.313,can1  206  [16]  C3 0C C7 09 B7 0C 7E E4 0D 0A DB 0C C3 0C 00 00
2025-08-09T23:58:23.901014,78.644,can1  206  [16]  CF 0C C9 09 B7 0C F4 E3 0B 0A D7 0C BB 0C 00 00
2025-08-09T23:58:23.901014,78.644,can1  206  [16]  C7 0C C7 09 B7 0C 69 E5 0B 0A D7 0C BF 0C 00 00
2025-08-09T23:58:23.901014,78.644,can1  206  [16]  C3 0C C7 09 B3 0C FA E4 10 0A DB 0C C7 0C 00 00
2025-08-09T23:58:24.235130,78.978,can1  206  [16]  C7 0C C7 09 B7 0C 69 E5 0D 0A D3 0C C3 0C 00 00
2025-08-09T23:58:24.238900,78.982,"can1  204  [04]  27 B1 00 00
  can1  206  [16]  C3 0C AC 09 B7 0C 7E E4 00 0A DB 0C C3 0C 00 00"
2025-08-09T23:58:24.554029,79.297,can1  206  [16]  CB 0C C7 09 B3 0C FA E4 0D 0A DB 0C BF 0C 00 00
2025-08-09T23:58:24.554029,79.297,can1  206  [16]  C3 0C C7 09 B7 0C FA E4 0B 0A D3 0C C7 0C 00 00
2025-08-09T23:58:24.885288,79.629,can1  206  [16]  CB 0C C5 09 B3 0C 69 E5 FC 09 DB 0C BF 0C 00 00
2025-08-09T23:58:24.885288,79.629,can1  206  [16]  CF 0C C7 09 B3 0C FA E4 0B 0A D7 0C BB 0C 00 00
2025-08-09T23:58:24.916300,79.660,can1  206  [16]  C7 0C C5 09 AF 0C 69 E5 0B 0A DB 0C C3 0C 00 00
2025-08-09T23:58:25.217893,79.961,can1  206  [16]  C7 0C C5 09 AF 0C 7E E4 0D 0A DB 0C C3 0C 00 00
2025-08-09T23:58:25.222909,79.966,can1  206  [16]  BF 0C C5 09 B7 0C F4 E3 0B 0A DB 0C C7 0C 00 00
2025-08-09T23:58:25.222909,79.966,can1  204  [04]  27 B1 00 00
2025-08-09T23:58:25.557419,80.301,"can1  206  [16]  BF 0C C7 09 BB 0C FA E4 09 0A CB 0C C7 0C 00 00
  can1  206  [16]  CB 0C C5 09 B3 0C 57 E3 0B 0A DB 0C BF 0C 00 00"
2025-08-09T23:58:25.881844,80.625,"can1  206  [16]  C3 0C C5 09 B3 0C FA E4 10 0A D3 0C C7 0C 00 00
  can1  001  [05]  90 5F 01 00 80"
2025-08-09T23:58:25.889386,80.633,can1  206  [16]  E8 0C C7 09 6B 0C 69 E5 10 0A A3 0C A3 0C 00 00
2025-08-09T23:58:25.889386,80.633,can1  206  [16]  F0 0C C5 09 7B 0C 69 E5 12 0A C3 0C AF 0C 00 00
2025-08-09T23:58:26.208865,80.952,can1  206  [16]  BF 0C B7 09 A3 0C 7E E4 10 0A C3 0C B3 0C 00 00
2025-08-09T23:58:26.211865,80.955,"can1  206  [16]  BF 0C C5 09 9B 0C FA E4 0D 0A C7 0C BB 0C 00 00
  can1  204  [04]  61 C4 00 00"
2025-08-09T23:58:26.222854,80.966,can1  206  [16]  AF 0C C5 09 AB 0C 69 E5 0D 0A C7 0C BB 0C 00 00
2025-08-09T23:58:26.542791,81.286,can1  206  [16]  B7 0C C7 09 AB 0C 69 E5 09 0A BB 0C BB 0C 00 00
2025-08-09T23:58:26.542791,81.286,can1  206  [16]  BF 0C C7 09 AB 0C 69 E5 0D 0A C7 0C B3 0C 00 00
2025-08-09T23:58:26.863016,81.606,can1  206  [16]  BF 0C C9 09 A7 0C FA E4 10 0A BF 0C B3 0C 00 00
2025-08-09T23:58:26.865031,81.608,can1  206  [16]  B3 0C C5 09 A7 0C 7E E4 10 0A C7 0C BF 0C 00 00
2025-08-09T23:58:27.196335,81.940,can1  206  [16]  BF 0C C7 09 A7 0C 69 E5 0D 0A BF 0C AF 0C 00 00
2025-08-09T23:58:27.196335,81.940,can1  206  [16]  CB 0C C7 09 9B 0C F4 E3 0D 0A BF 0C AF 0C 00 00
2025-08-09T23:58:27.198348,81.942,can1  204  [04]  E9 0F 01 00
2025-08-09T23:58:27.527072,82.270,can1  206  [16]  C3 0C C7 09 A3 0C 69 E5 0D 0A BF 0C B3 0C 00 00
2025-08-09T23:58:27.527072,82.270,can1  206  [16]  C3 0C C9 09 AB 0C 69 E5 10 0A C3 0C AB 0C 00 00
2025-08-09T23:58:27.527072,82.270,can1  206  [16]  BB 0C C5 09 AB 0C FA E4 0B 0A C7 0C AF 0C 00 00
2025-08-09T23:58:27.860688,82.604,can1  206  [16]  B7 0C CB 09 AF 0C 69 E5 0B 0A CF 0C B7 0C 00 00
2025-08-09T23:58:27.860688,82.604,can1  206  [16]  BF 0C C7 09 AF 0C 69 E5 0D 0A CB 0C BB 0C 00 00
2025-08-09T23:58:28.185111,82.928,can1  206  [16]  CB 0C C5 09 A7 0C FA E4 0B 0A D3 0C B3 0C 00 00
2025-08-09T23:58:28.191150,82.934,can1  206  [16]  C3 0C C5 09 B3 0C FA E4 00 0A CB 0C B7 0C 00 00
2025-08-09T23:58:28.194168,82.937,"can1  204  [04]  56 4C 01 00
  can1  206  [16]  AB 0C C5 09 CB 0C FA E4 10 0A C7 0C B7 0C 00 00"
2025-08-09T23:58:28.512877,83.256,can1  206  [16]  BB 0C C7 09 AF 0C F4 E3 10 0A DB 0C C3 0C 00 00
2025-08-09T23:58:28.512877,83.256,can1  206  [16]  C3 0C C5 09 AF 0C 7E E4 0B 0A D7 0C BF 0C 00 00
2025-08-09T23:58:28.512877,83.256,can1  206  [16]  C7 0C C7 09 B3 0C 69 E5 0D 0A D3 0C BB 0C 00 00
2025-08-09T23:58:28.848146,83.591,can1  206  [16]  CB 0C D0 09 9B 0C F4 E3 12 0A E8 0C BB 0C 00 00
2025-08-09T23:58:28.849239,83.592,can1  206  [16]  C7 0C C7 09 A7 0C 69 E5 0D 0A DF 0C BF 0C 00 00
2025-08-09T23:58:29.178894,83.922,can1  206  [16]  C7 0C C7 09 AF 0C 69 E5 0B 0A DF 0C C3 0C 00 00
2025-08-09T23:58:29.180825,83.924,"can1  206  [16]  C7 0C D0 09 B3 0C FA E4 10 0A DB 0C C3 0C 00 00
  can1  204  [04]  D0 5C 01 00"
2025-08-09T23:58:29.513217,84.256,can1  206  [16]  C7 0C C5 09 AF 0C FA E4 0B 0A E4 0C BF 0C 00 00
2025-08-09T23:58:29.513217,84.256,can1  206  [16]  CF 0C C5 09 AF 0C FA E4 0D 0A DB 0C BF 0C 00 00
2025-08-09T23:58:29.844701,84.588,can1  206  [16]  C7 0C C7 09 B7 0C D0 E5 0B 0A D7 0C C3 0C 00 00
2025-08-09T23:58:29.848390,84.592,can1  206  [16]  C3 0C C5 09 BB 0C FA E4 10 0A CF 0C BF 0C 00 00
2025-08-09T23:58:29.848390,84.592,can1  206  [16]  CB 0C C5 09 B7 0C FA E4 0D 0A DB 0C BB 0C 00 00
2025-08-09T23:58:30.164777,84.908,can1  206  [16]  C3 0C C9 09 BB 0C 69 E5 16 0A D3 0C BF 0C 00 00
2025-08-09T23:58:30.164777,84.908,can1  206  [16]  C3 0C C7 09 B7 0C FA E4 0D 0A DB 0C C3 0C 00 00
2025-08-09T23:58:30.164777,84.908,can1  204  [04]  D0 5C 01 00
2025-08-09T23:58:30.486056,85.229,can1  206  [16]  D3 0C C5 09 AF 0C FA E4 10 0A DB 0C BB 0C 00 00
2025-08-09T23:58:30.486056,85.229,can1  206  [16]  F0 0C C5 09 B3 0C FA E4 0D 0A DB 0C 97 0C 00 00
2025-08-09T23:58:30.815376,85.559,can1  206  [16]  C7 0C C7 09 B7 0C 7E E4 09 0A DF 0C BF 0C 00 00
2025-08-09T23:58:30.816378,85.560,can1  206  [16]  C3 0C C5 09 AF 0C FA E4 09 0A DB 0C C3 0C 00 00
2025-08-09T23:58:30.817376,85.561,can1  206  [16]  CB 0C C7 09 AF 0C 7E E4 07 0A E4 0C BF 0C 00 00
2025-08-09T23:58:31.148159,85.891,can1  206  [16]  C7 0C C9 09 B3 0C 7E E4 0D 0A E4 0C BF 0C 00 00
2025-08-09T23:58:31.153600,85.897,can1  206  [16]  C3 0C C7 09 AF 0C FA E4 0B 0A D7 0C C7 0C 00 00
2025-08-09T23:58:31.153600,85.897,"can1  204  [04]  D0 5C 01 00
  can1  206  [16]  C7 0C C7 09 AF 0C F4 E3 0D 0A DB 0C C7 0C 00 00"
2025-08-09T23:58:31.476546,86.220,can1  206  [16]  C7 0C C7 09 B7 0C 69 E5 0D 0A D7 0C C3 0C 00 00
2025-08-09T23:58:31.477548,86.221,can1  206  [16]  CB 0C C7 09 B3 0C 69 E5 FE 09 D3 0C BF 0C 00 00
2025-08-09T23:58:31.804672,86.548,can1  206  [16]  BF 0C BE 09 AF 0C 7E E4 0B 0A E4 0C C7 0C 00 00
2025-08-09T23:58:31.805669,86.549,can1  206  [16]  C7 0C C7 09 B3 0C 69 E5 0B 0A DF 0C BF 0C 00 00
2025-08-09T23:58:32.129598,86.873,can1  206  [16]  BF 0C C9 09 AF 0C F4 E3 0B 0A DF 0C CB 0C 00 00
2025-08-09T23:58:32.129598,86.873,can1  206  [16]  C7 0C C5 09 B7 0C 7E E4 12 0A D3 0C BF 0C 00 00
2025-08-09T23:58:32.459365,87.203,"can1  204  [04]  D0 5C 01 00
  can1  206  [16]  AF 0C C5 09 B3 0C FA E4 0D 0A DB 0C DB 0C 00 00"
2025-08-09T23:58:32.459365,87.203,can1  206  [16]  C7 0C C5 09 B7 0C 7E E4 0B 0A D3 0C BF 0C 00 00
2025-08-09T23:58:32.459365,87.204,can1  206  [16]  C7 0C C7 09 B7 0C D0 E5 0D 0A D3 0C BF 0C 00 00
2025-08-09T23:58:32.796091,87.539,can1  206  [16]  C3 0C C5 09 B7 0C 69 E5 10 0A D7 0C C3 0C 00 00
2025-08-09T23:58:32.796091,87.539,can1  206  [16]  B7 0C C9 09 B7 0C 69 E5 0D 0A DB 0C CF 0C 00 00
2025-08-09T23:58:33.129371,87.873,can1  206  [16]  C3 0C C7 09 BB 0C FA E4 0B 0A D3 0C C3 0C 00 00
2025-08-09T23:58:33.129371,87.873,can1  206  [16]  C3 0C C5 09 B7 0C D0 E5 12 0A D7 0C C7 0C 00 00
2025-08-09T23:58:33.129371,87.873,can1  206  [16]  CB 0C C5 09 B7 0C FA E4 0B 0A D3 0C BB 0C 00 00
2025-08-09T23:58:33.462716,88.206,can1  204  [04]  D0 5C 01 00
2025-08-09T23:58:33.476026,88.219,can1  206  [16]  C7 0C CD 09 AB 0C 57 E3 0D 0A DF 0C C3 0C 00 00
2025-08-09T23:58:33.476026,88.219,can1  206  [16]  C7 0C C7 09 AF 0C FA E4 0B 0A DF 0C C3 0C 00 00
2025-08-09T23:58:33.798799,88.542,can1  206  [16]  D7 0C C7 09 AF 0C FA E4 0B 0A E4 0C AF 0C 00 00
2025-08-09T23:58:33.828678,88.572,can1  206  [16]  CB 0C C9 09 AB 0C FA E4 0D 0A DF 0C BF 0C 00 00
2025-08-09T23:58:33.828678,88.572,can1  206  [16]  CF 0C C7 09 AF 0C FA E4 0D 0A E4 0C BB 0C 00 00
2025-08-09T23:58:34.129614,88.873,can1  206  [16]  C7 0C C7 09 AB 0C FA E4 0B 0A E8 0C BF 0C 00 00
2025-08-09T23:58:34.129614,88.873,can1  206  [16]  BF 0C C9 09 B3 0C FA E4 10 0A D7 0C C7 0C 00 00
2025-08-09T23:58:34.464744,89.208,"can1  204  [04]  D0 5C 01 00
  can1  206  [16]  CB 0C C5 09 AF 0C FA E4 0B 0A DB 0C BF 0C 00 00"
2025-08-09T23:58:34.468145,89.211,can1  206  [16]  C3 0C C5 09 B3 0C F4 E3 0B 0A DF 0C C3 0C 00 00
2025-08-09T23:58:34.468145,89.211,can1  206  [16]  C7 0C C5 09 B3 0C FA E4 0D 0A D7 0C C3 0C 00 00
2025-08-09T23:58:34.796548,89.540,can1  206  [16]  BF 0C C5 09 BB 0C 7E E4 10 0A D7 0C C3 0C 00 00
2025-08-09T23:58:34.796548,89.540,can1  206  [16]  EC 0C C7 09 8B 0C F4 E3 0D 0A E4 0C BF 0C 00 00
2025-08-09T23:58:35.130929,89.874,can1  206  [16]  CF 0C C7 09 B3 0C FA E4 12 0A DF 0C BB 0C 00 00
2025-08-09T23:58:35.130929,89.874,can1  206  [16]  C3 0C C7 09 B7 0C 69 E5 0B 0A D7 0C C7 0C 00 00
2025-08-09T23:58:35.454910,90.198,"can1  204  [04]  D0 5C 01 00
  can1  206  [16]  D3 0C CD 09 B3 0C 69 E5 0D 0A D3 0C B7 0C 00 00"
2025-08-09T23:58:35.454910,90.198,can1  206  [16]  C3 0C C5 09 B7 0C D0 E5 0D 0A DB 0C C3 0C 00 00
2025-08-09T23:58:35.796621,90.540,"can1  206  [16]  CB 0C C7 09 B3 0C 7E E4 09 0A DB 0C BF 0C 00 00
  can1  206  [16]  D7 0C C7 09 B7 0C FA E4 16 0A DF 0C AF 0C 00 00"
2025-08-09T23:58:36.119357,90.863,"can1  206  [16]  C7 0C C5 09 B3 0C 7E E4 10 0A DB 0C C3 0C 00 00
  can1  206  [16]  C7 0C C5 09 B3 0C FA E4 12 0A D7 0C C3 0C 00 00
  can1  206  [16]  C3 0C C5 09 B3 0C 69 E5 0B 0A DB 0C C7 0C 00 00"
2025-08-09T23:58:36.447631,91.191,"can1  206  [16]  C7 0C C7 09 BB 0C 69 E5 10 0A D3 0C BF 0C 00 00
  can1  204  [04]  D0 5C 01 00
  can1  206  [16]  BB 0C C7 09 B7 0C 7E E4 0B 0A E4 0C C3 0C 00 00"
2025-08-09T23:58:36.782220,91.525,can1  206  [16]  CB 0C C7 09 AB 0C 57 E3 0B 0A E4 0C BF 0C 00 00
2025-08-09T23:58:36.782220,91.525,can1  206  [16]  CB 0C C7 09 B3 0C FA E4 0D 0A DB 0C BF 0C 00 00
2025-08-09T23:58:36.783354,91.527,can1  206  [16]  C3 0C C5 09 B7 0C FA E4 0D 0A D3 0C C3 0C 00 00
2025-08-09T23:58:36.784586,91.528,can1  206  [16]  C7 0C C7 09 B3 0C 7E E4 0D 0A D7 0C C3 0C 00 00
2025-08-09T23:58:37.099024,91.842,can1  206  [16]  CB 0C C5 09 BB 0C 69 E5 0D 0A CB 0C BB 0C 00 00
2025-08-09T23:58:37.431890,92.175,"can1  206  [16]  BF 0C C7 09 BB 0C F4 E3 0B 0A D7 0C C7 0C 00 00
  can1  204  [04]  D0 5C 01 00
  can1  206  [16]  CF 0C CB 09 B3 0C F4 E3 0D 0A D3 0C BB 0C 00 00"
2025-08-09T23:58:37.431890,92.175,can1  206  [16]  CF 0C C7 09 B7 0C FA E4 0B 0A D7 0C BB 0C 00 00
2025-08-09T23:58:37.765006,92.508,can1  206  [16]  BB 0C C5 09 B7 0C F4 E3 0B 0A DB 0C CB 0C 00 00
2025-08-09T23:58:37.765006,92.508,can1  206  [16]  BF 0C C9 09 B7 0C F4 E3 09 0A EC 0C C3 0C 00 00
2025-08-09T23:58:38.097256,92.840,can1  206  [16]  CB 0C C7 09 AB 0C FA E4 0B 0A E4 0C BF 0C 00 00
2025-08-09T23:58:38.097256,92.840,can1  206  [16]  C3 0C C7 09 B3 0C 69 E5 0D 0A D3 0C C7 0C 00 00
2025-08-09T23:58:38.104820,92.848,can1  206  [16]  C7 0C C5 09 B3 0C 69 E5 1B 0A DF 0C C3 0C 00 00
2025-08-09T23:58:38.107095,92.850,can1  204  [04]  D0 5C 01 00
2025-08-09T23:58:38.428545,93.172,can1  206  [16]  CB 0C C5 09 BB 0C FA E4 0D 0A C3 0C BF 0C 00 00
2025-08-09T23:58:38.428545,93.172,can1  206  [16]  CB 0C C7 09 B3 0C FA E4 09 0A CF 0C BF 0C 00 00
2025-08-09T23:58:38.760333,93.504,can1  206  [16]  C3 0C C5 09 BB 0C 7E E4 0B 0A DB 0C BF 0C 00 00
2025-08-09T23:58:38.760333,93.504,can1  206  [16]  C7 0C C9 09 B3 0C 69 E5 0D 0A DB 0C C3 0C 00 00
2025-08-09T23:58:39.089694,93.833,can1  206  [16]  BF 0C C0 09 B3 0C F4 E3 09 0A E4 0C C7 0C 00 00
2025-08-09T23:58:39.089694,93.833,"can1  001  [05]  58 0F 02 00 80
  can1  206  [16]  CF 0C C5 09 AF 0C 69 E5 0D 0A DF 0C BB 0C 00 00
  can1  206  [16]  AF 0C C7 09 B3 0C 69 E5 09 0A BF 0C B3 0C 00 00"
2025-08-09T23:58:39.089694,93.833,can1  204  [04]  8C 6A 01 00
2025-08-09T23:58:39.422219,94.165,can1  206  [16]  AF 0C C7 09 AF 0C F1 E7 18 0A BF 0C BF 0C 00 00
2025-08-09T23:58:39.422219,94.165,can1  206  [16]  B7 0C C5 09 A3 0C C5 E1 12 0A C7 0C BB 0C 00 00
2025-08-09T23:58:39.422219,94.165,can1  206  [16]  BB 0C C7 09 97 0C A0 E2 0D 0A D3 0C B3 0C 00 00
2025-08-09T23:58:39.740751,94.484,can1  206  [16]  C7 0C B7 09 9F 0C FA E4 0D 0A C3 0C AF 0C 00 00
2025-08-09T23:58:39.748726,94.492,can1  206  [16]  C3 0C C7 09 AB 0C FA E4 0D 0A BB 0C AF 0C 00 00
2025-08-09T23:58:40.073257,94.816,can1  206  [16]  BF 0C CB 09 9F 0C 69 E5 18 0A C7 0C B7 0C 00 00
2025-08-09T23:58:40.073257,94.816,can1  206  [16]  C7 0C C7 09 A7 0C F4 E3 12 0A BF 0C AB 0C 00 00
2025-08-09T23:58:40.073257,94.816,"can1  206  [16]  BB 0C C5 09 A3 0C 57 E3 10 0A C3 0C BB 0C 00 00
  can1  204  [04]  55 B3 01 00"
2025-08-09T23:58:40.746785,95.490,"can1  206  [16]  C3 0C C7 09 A3 0C FA E4 09 0A C3 0C B3 0C 00 00
  can1  206  [16]  BB 0C C5 09 A7 0C 57 E3 0D 0A C3 0C B7 0C 00 00
  can1  206  [16]  BF 0C C7 09 A7 0C F4 E3 0D 0A C3 0C B3 0C 00 00"
2025-08-09T23:58:40.749783,95.493,can1  206  [16]  BF 0C C0 09 A3 0C FA E4 10 0A C7 0C B7 0C 00 00
2025-08-09T23:58:41.079780,95.823,can1  206  [16]  CB 0C C5 09 AF 0C FA E4 10 0A B7 0C B3 0C 00 00
2025-08-09T23:58:41.079780,95.823,can1  206  [16]  C7 0C C7 09 AF 0C 7E E4 18 0A C3 0C B3 0C 00 00
2025-08-09T23:58:41.085810,95.829,"can1  206  [16]  C7 0C C5 09 AF 0C FA E4 14 0A CB 0C B7 0C 00 00
  can1  204  [04]  40 F5 01 00"
2025-08-09T23:58:41.397783,96.141,can1  206  [16]  BB 0C C5 09 AF 0C 7E E4 09 0A CF 0C BF 0C 00 00
2025-08-09T23:58:41.399296,96.143,can1  206  [16]  BF 0C C7 09 AF 0C 69 E5 10 0A CF 0C BF 0C 00 00
2025-08-09T23:58:41.724743,96.468,can1  206  [16]  B3 0C C7 09 BB 0C FA E4 09 0A CF 0C C3 0C 00 00
2025-08-09T23:58:41.724743,96.468,can1  206  [16]  CF 0C C5 09 AB 0C FA E4 0D 0A DB 0C B3 0C 00 00
2025-08-09T23:58:41.724743,96.468,can1  206  [16]  CF 0C C2 09 AF 0C FA E4 0B 0A D3 0C B7 0C 00 00
2025-08-09T23:58:42.049593,96.793,can1  206  [16]  C3 0C C7 09 A7 0C FA E4 0B 0A D7 0C C3 0C 00 00
2025-08-09T23:58:42.049593,96.793,can1  206  [16]  BF 0C C7 09 AB 0C FA E4 0D 0A E8 0C C3 0C 00 00
2025-08-09T23:58:42.382407,97.126,can1  204  [04]  98 0C 02 00
2025-08-09T23:58:42.384421,97.128,can1  206  [16]  CB 0C C9 09 B3 0C 99 C6 0D 0A D3 0C BF 0C 00 00
2025-08-09T23:58:42.384421,97.128,can1  206  [16]  B3 0C C7 09 BB 0C 7E E4 09 0A CF 0C D3 0C 00 00
2025-08-09T23:58:42.391501,97.135,can1  206  [16]  CF 0C BE 09 B3 0C FA E4 0D 0A DB 0C BB 0C 00 00
2025-08-09T23:58:42.704769,97.448,can1  206  [16]  CB 0C C2 09 B7 0C FA E4 0D 0A D3 0C BB 0C 00 00
2025-08-09T23:58:42.704769,97.448,can1  206  [16]  CB 0C C5 09 C3 0C 69 E5 0D 0A CB 0C BB 0C 00 00
2025-08-09T23:58:43.040363,97.784,can1  206  [16]  CF 0C C7 09 B3 0C FA E4 0B 0A DB 0C BB 0C 00 00
2025-08-09T23:58:43.040363,97.784,can1  206  [16]  C3 0C C5 09 B3 0C 69 E5 0B 0A D3 0C C7 0C 00 00
2025-08-09T23:58:43.370389,98.114,"can1  204  [04]  98 0C 02 00
  can1  206  [16]  BF 0C C7 09 B7 0C D7 E6 0D 0A DB 0C C7 0C 00 00"
2025-08-09T23:58:43.370389,98.114,can1  206  [16]  E4 0C C7 09 B3 0C 69 E5 10 0A D3 0C A7 0C 00 00
2025-08-09T23:58:43.703336,98.447,can1  206  [16]  C7 0C C9 09 B3 0C 7E E4 0D 0A D3 0C BF 0C 00 00
2025-08-09T23:58:43.703336,98.447,can1  206  [16]  CF 0C C7 09 B7 0C 69 E5 0D 0A DF 0C B7 0C 00 00
2025-08-09T23:58:43.703336,98.447,can1  206  [16]  C3 0C C5 09 B3 0C F4 E3 0D 0A DB 0C C7 0C 00 00
2025-08-09T23:58:44.035892,98.779,can1  206  [16]  CB 0C C7 09 B3 0C 7E E4 0D 0A DB 0C BF 0C 00 00
2025-08-09T23:58:44.052750,98.796,can1  206  [16]  C7 0C C9 09 AF 0C 69 E5 0D 0A D3 0C C3 0C 00 00
2025-08-09T23:58:44.052750,98.796,can1  206  [16]  C3 0C C7 09 B7 0C FA E4 0D 0A D7 0C C3 0C 00 00
2025-08-09T23:58:44.365287,99.109,can1  204  [04]  98 0C 02 00
2025-08-09T23:58:44.365287,99.109,can1  206  [16]  C7 0C CB 09 B3 0C 69 E5 09 0A DB 0C C3 0C 00 00
2025-08-09T23:58:44.369283,99.113,can1  206  [16]  C7 0C C0 09 B3 0C FA E4 0D 0A DB 0C C3 0C 00 00
2025-08-09T23:58:44.698085,99.441,can1  206  [16]  C3 0C D2 09 B3 0C 69 E5 0D 0A E4 0C C7 0C 00 00
2025-08-09T23:58:44.731896,99.475,can1  206  [16]  C3 0C C7 09 B3 0C 7E E4 0B 0A D3 0C C7 0C 00 00
2025-08-09T23:58:44.731896,99.475,"can1  206  [16]  CB 0C C7 09 B3 0C 7E E4 0B 0A DB 0C BF 0C 00 00
  can1  001  [05]  C8 AF 00 00 80"
2025-08-09T23:58:45.022713,99.766,can1  206  [16]  BF 0C C7 09 A3 0C FA E4 10 0A C7 0C B3 0C 00 00
2025-08-09T23:58:45.023711,99.767,can1  206  [16]  C3 0C C7 09 A7 0C 7E E4 10 0A C3 0C AF 0C 00 00
2025-08-09T23:58:45.355983,100.099,"can1  204  [04]  7A 08 02 00
  can1  206  [16]  C3 0C C7 09 AF 0C FA E4 0D 0A B7 0C B3 0C 00 00"
2025-08-09T23:58:45.355983,100.099,can1  206  [16]  C3 0C D0 09 A7 0C 7E E4 0D 0A CB 0C AF 0C 00 00
2025-08-09T23:58:45.685036,100.428,can1  206  [16]  BF 0C C9 09 97 0C 69 E5 0B 0A D3 0C B3 0C 00 00
2025-08-09T23:58:45.685036,100.428,can1  206  [16]  BF 0C C7 09 A7 0C 69 E5 0B 0A C7 0C B3 0C 00 00
2025-08-09T23:58:46.003800,100.747,can1  206  [16]  BB 0C CD 09 9F 0C D0 E5 10 0A C7 0C BB 0C 00 00
2025-08-09T23:58:46.004315,100.748,can1  206  [16]  BB 0C C7 09 A7 0C FA E4 10 0A C7 0C B7 0C 00 00
2025-08-09T23:58:46.004315,100.748,can1  206  [16]  BF 0C C7 09 A3 0C D7 E6 18 0A C3 0C B3 0C 00 00
2025-08-09T23:58:46.337008,101.080,"can1  204  [04]  B1 BF 01 00
  can1  206  [16]  CF 0C C2 09 9F 0C 69 E5 0D 0A C3 0C AB 0C 00 00"
2025-08-09T23:58:46.337008,101.080,can1  206  [16]  C7 0C C7 09 9F 0C 69 E5 10 0A C3 0C B3 0C 00 00
2025-08-09T23:58:46.671022,101.414,can1  206  [16]  BF 0C C5 09 A3 0C 69 E5 10 0A C3 0C B7 0C 00 00
2025-08-09T23:58:46.686853,101.430,can1  206  [16]  BF 0C C9 09 A7 0C 69 E5 0B 0A C3 0C B7 0C 00 00
2025-08-09T23:58:46.686853,101.430,can1  206  [16]  C3 0C C9 09 9F 0C FA E4 0D 0A C3 0C B3 0C 00 00
2025-08-09T23:58:46.997884,101.741,can1  206  [16]  BF 0C D2 09 A7 0C FA E4 0D 0A C3 0C B3 0C 00 00
2025-08-09T23:58:46.997884,101.741,can1  206  [16]  C7 0C D2 09 9B 0C FA E4 10 0A CF 0C B3 0C 00 00
2025-08-09T23:58:47.315466,102.059,"can1  206  [16]  C3 0C C5 09 A7 0C 69 E5 04 0A BF 0C AF 0C 00 00
  can1  204  [04]  C9 72 01 00"
2025-08-09T23:58:47.315466,102.059,can1  206  [16]  BF 0C C7 09 A7 0C 7E E4 0B 0A C3 0C B3 0C 00 00
2025-08-09T23:58:47.651197,102.394,can1  206  [16]  BF 0C C9 09 A7 0C FA E4 0D 0A C3 0C B3 0C 00 00
2025-08-09T23:58:47.653215,102.396,can1  206  [16]  CB 0C C0 09 A3 0C A0 E2 0B 0A BF 0C AB 0C 00 00
2025-08-09T23:58:47.983414,102.727,can1  206  [16]  C3 0C C9 09 A3 0C A0 E2 10 0A C3 0C B3 0C 00 00
2025-08-09T23:58:47.983414,102.727,can1  206  [16]  C3 0C C9 09 A7 0C FA E4 10 0A BF 0C AF 0C 00 00
2025-08-09T23:58:47.983414,102.727,can1  206  [16]  BF 0C C9 09 A7 0C 7E E4 00 0A BF 0C B7 0C 00 00
2025-08-09T23:58:48.302060,103.045,"can1  206  [16]  BF 0C C7 09 A7 0C D0 E5 0B 0A C3 0C B3 0C 00 00
  can1  204  [04]  23 23 01 00"
2025-08-09T23:58:48.304084,103.047,can1  206  [16]  BF 0C C7 09 A3 0C 7E E4 12 0A C3 0C B7 0C 00 00
2025-08-09T23:58:48.304084,103.047,can1  206  [16]  C7 0C C9 09 A7 0C 7E E4 10 0A CF 0C AB 0C 00 00
2025-08-09T23:58:48.631368,103.375,can1  206  [16]  BF 0C C5 09 A7 0C FA E4 12 0A C7 0C B3 0C 00 00
2025-08-09T23:58:48.631368,103.375,can1  206  [16]  BF 0C C7 09 9B 0C 69 E5 0D 0A D7 0C B3 0C 00 00
2025-08-09T23:58:48.965536,103.709,can1  206  [16]  CF 0C C5 09 9B 0C FA E4 0D 0A C3 0C AF 0C 00 00
2025-08-09T23:58:48.965536,103.709,can1  206  [16]  C3 0C BA 09 A3 0C 69 E5 09 0A BB 0C B3 0C 00 00
2025-08-09T23:58:48.965536,103.709,can1  206  [16]  C3 0C CB 09 A3 0C 7E E4 0B 0A CB 0C AF 0C 00 00
2025-08-09T23:58:49.298908,104.042,can1  204  [04]  1D D2 00 00
2025-08-09T23:58:49.298908,104.042,can1  206  [16]  BF 0C C9 09 AB 0C F4 E3 07 0A C3 0C B7 0C 00 00
2025-08-09T23:58:49.298908,104.042,can1  206  [16]  C3 0C C2 09 A7 0C 69 E5 0B 0A CF 0C BF 0C 00 00
2025-08-09T23:58:49.614440,104.358,can1  206  [16]  C3 0C C7 09 AF 0C F4 E3 09 0A CB 0C B7 0C 00 00
2025-08-09T23:58:49.614440,104.358,can1  206  [16]  C7 0C C7 09 A7 0C FA E4 10 0A DB 0C BB 0C 00 00
2025-08-09T23:58:49.946294,104.690,can1  206  [16]  BF 0C D0 09 B7 0C 7E E4 0D 0A D3 0C BB 0C 00 00
2025-08-09T23:58:49.946294,104.690,can1  206  [16]  CB 0C C7 09 B7 0C F4 E3 09 0A CB 0C BF 0C 00 00
2025-08-09T23:58:50.276922,105.020,can1  206  [16]  CB 0C C5 09 BB 0C 7E E4 0D 0A CB 0C BB 0C 00 00
2025-08-09T23:58:50.289938,105.033,"can1  204  [04]  87 B2 00 00
  can1  206  [16]  CB 0C C7 09 B3 0C 69 E5 0D 0A DB 0C BF 0C 00 00"
2025-08-09T23:58:50.289938,105.033,can1  206  [16]  CB 0C C7 09 B7 0C FA E4 0B 0A D7 0C BB 0C 00 00
2025-08-09T23:58:50.614622,105.358,can1  206  [16]  C7 0C CB 09 B7 0C 69 E5 12 0A D7 0C BF 0C 00 00
2025-08-09T23:58:50.618620,105.362,can1  206  [16]  B7 0C C2 09 B7 0C F4 E3 10 0A DF 0C C7 0C 00 00
2025-08-09T23:58:50.924999,105.668,can1  206  [16]  BF 0C C7 09 B3 0C 7E E4 00 0A D3 0C C7 0C 00 00
2025-08-09T23:58:50.924999,105.668,can1  206  [16]  BF 0C C7 09 B7 0C 69 E5 0D 0A DB 0C C7 0C 00 00
2025-08-09T23:58:50.924999,105.668,can1  206  [16]  CF 0C C7 09 AB 0C F4 E3 09 0A E4 0C C3 0C 00 00
2025-08-09T23:58:51.272918,106.016,"can1  206  [16]  CF 0C C7 09 BB 0C FA E4 0D 0A D3 0C B3 0C 00 00
  can1  204  [04]  87 B2 00 00"
2025-08-09T23:58:51.590364,106.334,"can1  206  [16]  CB 0C C9 09 AF 0C 69 E5 0D 0A DF 0C BF 0C 00 00
  can1  206  [16]  2C 0D C7 09 B3 0C 69 E5 0B 0A DB 0C 5F 0C 00 00"
2025-08-09T23:58:51.592889,106.336,can1  206  [16]  C3 0C C7 09 B3 0C 7E E4 12 0A DB 0C C3 0C 00 00
2025-08-09T23:58:51.594053,106.337,can1  206  [16]  BF 0C C7 09 B7 0C 2E E6 0D 0A DF 0C C7 0C 00 00
2025-08-09T23:58:51.911245,106.654,can1  206  [16]  C7 0C CB 09 AF 0C FA E4 10 0A E4 0C BF 0C 00 00
2025-08-09T23:58:51.911756,106.655,can1  206  [16]  CF 0C C5 09 AF 0C 69 E5 09 0A D7 0C BB 0C 00 00
2025-08-09T23:58:52.258985,107.002,can1  206  [16]  CF 0C C7 09 B3 0C D0 E5 0D 0A DB 0C B7 0C 00 00
2025-08-09T23:58:52.258985,107.002,can1  204  [04]  27 B1 00 00
2025-08-09T23:58:52.258985,107.002,can1  206  [16]  C3 0C C7 09 9F 0C FA E4 0D 0A EC 0C C3 0C 00 00
2025-08-09T23:58:52.587071,107.330,can1  206  [16]  CF 0C C7 09 AF 0C 69 E5 0B 0A D7 0C BB 0C 00 00
2025-08-09T23:58:52.587071,107.330,can1  206  [16]  C7 0C C9 09 AF 0C FA E4 12 0A DF 0C BF 0C 00 00
2025-08-09T23:58:52.587071,107.330,can1  206  [16]  C7 0C C7 09 B3 0C FA E4 0D 0A DF 0C BF 0C 00 00
2025-08-09T23:58:52.913189,107.656,can1  206  [16]  C7 0C C5 09 AF 0C 69 E5 0B 0A D7 0C C3 0C 00 00
2025-08-09T23:58:52.914807,107.658,can1  206  [16]  C3 0C C7 09 B3 0C F4 E3 0B 0A DB 0C C7 0C 00 00
2025-08-09T23:58:53.251923,107.995,can1  206  [16]  BB 0C C7 09 C7 0C FA E4 0D 0A DB 0C BB 0C 00 00
2025-08-09T23:58:53.251923,107.995,"can1  204  [04]  87 B2 00 00
  can1  206  [16]  CF 0C C7 09 AB 0C 7E E4 0B 0A DB 0C BB 0C 00 00"
2025-08-09T23:58:53.568140,108.311,can1  206  [16]  C7 0C C5 09 AF 0C FA E4 0B 0A D7 0C BF 0C 00 00
2025-08-09T23:58:53.568140,108.311,can1  206  [16]  C7 0C C7 09 B7 0C 7E E4 0D 0A D3 0C BF 0C 00 00
2025-08-09T23:58:53.584070,108.327,can1  206  [16]  C3 0C C7 09 B7 0C 7E E4 0B 0A DF 0C C3 0C 00 00
2025-08-09T23:58:53.902566,108.646,can1  206  [16]  C7 0C C7 09 B3 0C FA E4 04 0A DF 0C C3 0C 00 00
2025-08-09T23:58:53.903588,108.647,can1  206  [16]  CB 0C C2 09 B3 0C D0 E5 0D 0A D3 0C BF 0C 00 00
2025-08-09T23:58:53.904586,108.648,can1  206  [16]  CB 0C C7 09 B3 0C F4 E3 0D 0A CF 0C BF 0C 00 00
2025-08-09T23:58:54.229880,108.973,"can1  206  [16]  BF 0C C7 09 AF 0C FA E4 10 0A E4 0C C7 0C 00 00
  can1  204  [04]  87 B2 00 00"
2025-08-09T23:58:54.229880,108.973,can1  206  [16]  C3 0C C7 09 AB 0C 7E E4 0D 0A DB 0C C7 0C 00 00
2025-08-09T23:58:54.562750,109.306,can1  206  [16]  D7 0C C5 09 AF 0C 7E E4 0B 0A D7 0C AF 0C 00 00
2025-08-09T23:58:54.562750,109.306,can1  206  [16]  CB 0C C7 09 B7 0C FA E4 0D 0A CB 0C BB 0C 00 00
2025-08-09T23:58:54.882883,109.626,can1  206  [16]  CB 0C C5 09 AF 0C FA E4 0B 0A D7 0C BF 0C 00 00
2025-08-09T23:58:54.882883,109.626,can1  206  [16]  CF 0C C9 09 B3 0C FA E4 0D 0A CF 0C BB 0C 00 00
2025-08-09T23:58:55.213254,109.956,can1  206  [16]  D3 0C C7 09 B3 0C FA E4 12 0A DF 0C B3 0C 00 00
2025-08-09T23:58:55.215776,109.959,can1  206  [16]  CB 0C C5 09 BB 0C 69 E5 18 0A D7 0C BB 0C 00 00
2025-08-09T23:58:55.215776,109.959,can1  204  [04]  87 B2 00 00
2025-08-09T23:58:55.215776,109.959,can1  206  [16]  B7 0C C7 09 B3 0C 69 E5 09 0A D7 0C CF 0C 00 00
2025-08-09T23:58:55.544666,110.288,can1  206  [16]  C7 0C C5 09 B7 0C FA E4 10 0A D7 0C BF 0C 00 00
2025-08-09T23:58:55.544666,110.288,can1  206  [16]  C3 0C C5 09 AB 0C FA E4 0D 0A DF 0C C7 0C 00 00
2025-08-09T23:58:55.877292,110.621,can1  206  [16]  C3 0C CB 09 B3 0C F4 E3 0D 0A CB 0C C7 0C 00 00
2025-08-09T23:58:55.878997,110.622,can1  206  [16]  CB 0C C7 09 B3 0C 69 E5 12 0A D7 0C BB 0C 00 00
2025-08-09T23:58:55.882515,110.626,can1  206  [16]  CF 0C C7 09 AF 0C 69 E5 10 0A D7 0C BB 0C 00 00
2025-08-09T23:58:56.192384,110.936,can1  206  [16]  CF 0C C5 09 B3 0C FA E4 0D 0A CF 0C BB 0C 00 00
2025-08-09T23:58:56.192384,110.936,"can1  204  [04]  87 B2 00 00
  can1  206  [16]  D3 0C C7 09 AB 0C 69 E5 0B 0A D3 0C BF 0C 00 00"
2025-08-09T23:58:56.526551,111.270,can1  206  [16]  BB 0C C7 09 B3 0C 69 E5 0D 0A C7 0C CB 0C 00 00
2025-08-09T23:58:56.526551,111.270,can1  206  [16]  CB 0C C7 09 B3 0C 7E E4 10 0A D3 0C BF 0C 00 00
2025-08-09T23:58:56.526551,111.270,can1  206  [16]  C7 0C C7 09 AF 0C FA E4 0B 0A 8F 0C C3 0C 00 00
2025-08-09T23:58:56.861215,111.604,can1  206  [16]  C3 0C C7 09 B3 0C FA E4 0B 0A DF 0C C3 0C 00 00
2025-08-09T23:58:56.861215,111.606,can1  206  [16]  D3 0C C2 09 AF 0C 69 E5 09 0A DF 0C B7 0C 00 00
2025-08-09T23:58:57.196986,111.940,can1  206  [16]  BB 0C C7 09 BF 0C FA E4 04 0A DB 0C C3 0C 00 00
2025-08-09T23:58:57.196986,111.940,can1  204  [04]  87 B2 00 00
2025-08-09T23:58:57.196986,111.940,can1  206  [16]  C3 0C C9 09 B7 0C 57 E3 10 0A DF 0C C3 0C 00 00
2025-08-09T23:58:57.523699,112.267,"can1  206  [16]  C7 0C C5 09 B3 0C 69 E5 09 0A D7 0C C3 0C 00 00
  can1  206  [16]  CB 0C C7 09 AB 0C 7E E4 0D 0A DB 0C BF 0C 00 00"
2025-08-09T23:58:57.523699,112.267,can1  206  [16]  C7 0C C5 09 AF 0C FA E4 0B 0A DF 0C C3 0C 00 00
2025-08-09T23:58:57.855063,112.598,can1  206  [16]  C7 0C C2 09 AF 0C FA E4 0B 0A DB 0C C3 0C 00 00
2025-08-09T23:58:57.855063,112.598,can1  206  [16]  C7 0C C7 09 B7 0C D0 E5 0D 0A DF 0C BF 0C 00 00
2025-08-09T23:58:58.190053,112.933,can1  206  [16]  C3 0C C5 09 B7 0C 69 E5 09 0A DB 0C C3 0C 00 00
2025-08-09T23:58:58.190053,112.933,"can1  206  [16]  CB 0C C5 09 AF 0C F4 E3 0D 0A E4 0C BB 0C 00 00
  can1  204  [04]  87 B2 00 00"
2025-08-09T23:58:58.202205,112.945,can1  206  [16]  CB 0C C5 09 B7 0C 69 E5 10 0A DB 0C BB 0C 00 00
2025-08-09T23:58:58.503541,113.247,can1  206  [16]  CB 0C C7 09 AF 0C FA E4 0D 0A DF 0C BF 0C 00 00
2025-08-09T23:58:58.503541,113.247,can1  206  [16]  C7 0C C9 09 B3 0C 7E E4 12 0A D7 0C C3 0C 00 00
2025-08-09T23:58:58.838385,113.582,can1  206  [16]  C3 0C C7 09 AF 0C 69 E5 0D 0A D7 0C C7 0C 00 00
2025-08-09T23:58:58.839430,113.583,can1  206  [16]  BF 0C C9 09 B7 0C F4 E3 12 0A D3 0C C7 0C 00 00
2025-08-09T23:58:58.844055,113.587,can1  206  [16]  CB 0C C5 09 B3 0C FA E4 0D 0A D7 0C BF 0C 00 00
2025-08-09T23:58:59.167677,113.911,"can1  206  [16]  C7 0C C5 09 D7 0C 69 E5 0B 0A BB 0C BF 0C 00 00
  can1  204  [04]  87 B2 00 00"
2025-08-09T23:58:59.167677,113.911,can1  206  [16]  C7 0C C7 09 B7 0C FA E4 0B 0A D3 0C C3 0C 00 00
2025-08-09T23:58:59.500972,114.244,can1  206  [16]  CF 0C C7 09 B3 0C 69 E5 12 0A D7 0C BB 0C 00 00
2025-08-09T23:58:59.500972,114.244,can1  206  [16]  CF 0C C5 09 AF 0C 7E E4 0D 0A D3 0C B7 0C 00 00
2025-08-09T23:58:59.817837,114.561,can1  206  [16]  BB 0C C5 09 B7 0C F4 E3 0D 0A E4 0C BF 0C 00 00
2025-08-09T23:58:59.818851,114.562,can1  206  [16]  C7 0C C7 09 BB 0C 69 E5 0D 0A DB 0C BB 0C 00 00
2025-08-09T23:59:00.167488,114.911,can1  206  [16]  C3 0C CB 09 B3 0C FA E4 0B 0A DB 0C C3 0C 00 00
2025-08-09T23:59:00.167488,114.911,can1  206  [16]  C3 0C C5 09 AF 0C FA E4 10 0A D7 0C C7 0C 00 00
2025-08-09T23:59:00.167488,114.911,"can1  204  [04]  87 B2 00 00
  can1  206  [16]  CB 0C C0 09 AF 0C FA E4 09 0A DB 0C BF 0C 00 00"
2025-08-09T23:59:00.482253,115.225,can1  206  [16]  C3 0C C7 09 B7 0C FA E4 0D 0A DB 0C C3 0C 00 00
2025-08-09T23:59:00.482253,115.225,can1  206  [16]  C7 0C C5 09 B3 0C FA E4 FE 09 D7 0C BF 0C 00 00
2025-08-09T23:59:00.807004,115.550,can1  206  [16]  CF 0C C0 09 AF 0C F4 E3 0B 0A DF 0C BB 0C 00 00
2025-08-09T23:59:00.810128,115.553,can1  206  [16]  CB 0C C5 09 B3 0C 69 E5 0D 0A CF 0C BF 0C 00 00
2025-08-09T23:59:00.811132,115.554,can1  206  [16]  CB 0C C5 09 AB 0C FA E4 0D 0A DF 0C BF 0C 00 00
2025-08-09T23:59:01.137433,115.881,can1  206  [16]  DB 0C C7 09 A3 0C 69 E5 10 0A D7 0C BF 0C 00 00
2025-08-09T23:59:01.138432,115.882,"can1  206  [16]  CB 0C C5 09 AF 0C 69 E5 0D 0A D7 0C BF 0C 00 00
  can1  204  [04]  87 B2 00 00"
2025-08-09T23:59:01.457317,116.201,can1  206  [16]  CB 0C C5 09 B3 0C 7E E4 10 0A DB 0C BF 0C 00 00
2025-08-09T23:59:01.462330,116.206,can1  206  [16]  C7 0C C7 09 B3 0C FA E4 0B 0A DB 0C C3 0C 00 00
2025-08-09T23:59:01.794074,116.537,can1  206  [16]  BB 0C C7 09 B3 0C 69 E5 0D 0A DF 0C CB 0C 00 00
2025-08-09T23:59:01.795098,116.538,can1  206  [16]  BF 0C C7 09 AF 0C FA E4 0D 0A D7 0C CB 0C 00 00
2025-08-09T23:59:01.798097,116.541,can1  206  [16]  D3 0C C7 09 AF 0C D7 E6 0B 0A DF 0C B7 0C 00 00
2025-08-09T23:59:02.119802,116.863,can1  206  [16]  BF 0C C5 09 AF 0C FA E4 04 0A DB 0C C7 0C 00 00
2025-08-09T23:59:02.124605,116.868,can1  206  [16]  CB 0C C5 09 B3 0C FA E4 0D 0A D7 0C BF 0C 00 00
2025-08-09T23:59:02.147424,116.891,can1  204  [04]  87 B2 00 00
2025-08-09T23:59:02.443297,117.187,can1  206  [16]  C7 0C C5 09 AF 0C FA E4 0B 0A D3 0C C3 0C 00 00
2025-08-09T23:59:02.467706,117.211,can1  206  [16]  BF 0C C2 09 B7 0C 69 E5 0D 0A D7 0C C3 0C 00 00
2025-08-09T23:59:02.467706,117.211,can1  206  [16]  CB 0C C5 09 AB 0C FA E4 0D 0A DF 0C BF 0C 00 00
2025-08-09T23:59:02.772776,117.516,can1  206  [16]  C7 0C C7 09 B3 0C 69 E5 10 0A DB 0C BF 0C 00 00
2025-08-09T23:59:02.776265,117.520,can1  206  [16]  BF 0C C5 09 AF 0C FA E4 0D 0A DF 0C C7 0C 00 00
2025-08-09T23:59:03.109822,117.853,can1  206  [16]  CB 0C C5 09 A3 0C 7E E4 0D 0A F0 0C BB 0C 00 00
2025-08-09T23:59:03.109822,117.853,can1  206  [16]  C7 0C D2 09 F4 0C F4 E3 0D 0A 97 0C BF 0C 00 00
2025-08-09T23:59:03.109822,117.853,"can1  204  [04]  87 B2 00 00
  can1  206  [16]  BB 0C C7 09 AF 0C FA E4 07 0A DB 0C CB 0C 00 00"
2025-08-09T23:59:03.449548,118.193,can1  206  [16]  CF 0C C7 09 B3 0C FA E4 0D 0A DB 0C BB 0C 00 00
2025-08-09T23:59:03.449548,118.193,can1  206  [16]  BF 0C CB 09 B7 0C 69 E5 0D 0A D3 0C C7 0C 00 00
2025-08-09T23:59:03.764426,118.508,can1  206  [16]  C3 0C CB 09 BF 0C 69 E5 10 0A D3 0C BF 0C 00 00
2025-08-09T23:59:03.764426,118.508,can1  206  [16]  CF 0C C9 09 AF 0C F4 E3 0B 0A DF 0C BB 0C 00 00
2025-08-09T23:59:04.097671,118.841,can1  206  [16]  C3 0C C7 09 B3 0C FA E4 0D 0A DB 0C C3 0C 00 00
2025-08-09T23:59:04.104749,118.848,can1  206  [16]  C7 0C C7 09 B3 0C 7E E4 0D 0A CF 0C C3 0C 00 00
2025-08-09T23:59:04.112844,118.856,"can1  204  [04]  87 B2 00 00
  can1  206  [16]  C7 0C C7 09 AB 0C FA E4 0B 0A D7 0C C3 0C 00 00"
2025-08-09T23:59:04.430753,119.174,"can1  206  [16]  CF 0C C7 09 B3 0C 69 E5 0B 0A D3 0C BB 0C 00 00
  can1  206  [16]  BB 0C C5 09 BB 0C 7E E4 0B 0A D3 0C C7 0C 00 00"
2025-08-09T23:59:04.873472,119.617,can1  206  [16]  C3 0C C7 09 B7 0C 69 E5 0D 0A CF 0C C3 0C 00 00
2025-08-09T23:59:04.876323,119.620,can1  206  [16]  97 0C C5 09 B3 0C 69 E5 10 0A D3 0C F4 0C 00 00
2025-08-09T23:59:04.876323,119.620,can1  206  [16]  BF 0C C5 09 B3 0C 57 E3 0D 0A DF 0C C7 0C 00 00
2025-08-09T23:59:05.300901,120.044,can1  206  [16]  CB 0C C5 09 B3 0C FA E4 0D 0A D3 0C BF 0C 00 00
2025-08-09T23:59:05.302407,120.046,"can1  206  [16]  C7 0C C7 09 AB 0C FA E4 0D 0A E4 0C C3 0C 00 00
  can1  204  [04]  87 B2 00 00"
2025-08-09T23:59:05.303919,120.047,can1  206  [16]  C3 0C C2 09 B7 0C FA E4 10 0A D7 0C C3 0C 00 00
2025-08-09T23:59:05.633536,120.377,can1  206  [16]  CB 0C C7 09 B3 0C F4 E3 12 0A DB 0C BF 0C 00 00
2025-08-09T23:59:05.634536,120.378,can1  206  [16]  CB 0C C7 09 B7 0C D0 E5 0D 0A DF 0C BB 0C 00 00
2025-08-09T23:59:05.635536,120.379,can1  206  [16]  BB 0C C5 09 B3 0C 7E E4 0D 0A D3 0C C7 0C 00 00
2025-08-09T23:59:05.959127,120.702,can1  206  [16]  CB 0C C7 09 B3 0C 7E E4 0D 0A D3 0C BF 0C 00 00
2025-08-09T23:59:05.961199,120.704,can1  206  [16]  CF 0C C5 09 B7 0C A0 E2 0D 0A D7 0C B7 0C 00 00
2025-08-09T23:59:06.292937,121.036,"can1  206  [16]  BF 0C C7 09 BB 0C D7 E6 12 0A DF 0C BF 0C 00 00
  can1  204  [04]  87 B2 00 00"
2025-08-09T23:59:06.296946,121.040,can1  206  [16]  CF 0C C7 09 A7 0C D0 E5 0D 0A DF 0C BF 0C 00 00
2025-08-09T23:59:06.621399,121.365,can1  206  [16]  BF 0C C5 09 AF 0C FA E4 0D 0A EC 0C C7 0C 00 00
2025-08-09T23:59:06.637582,121.381,can1  206  [16]  D3 0C C7 09 AF 0C FA E4 0D 0A DF 0C B7 0C 00 00
2025-08-09T23:59:06.640581,121.384,can1  206  [16]  C3 0C C7 09 AF 0C F4 E3 0B 0A E4 0C BF 0C 00 00
2025-08-09T23:59:06.947880,121.691,can1  206  [16]  BF 0C C7 09 BB 0C FA E4 0D 0A D7 0C BF 0C 00 00
2025-08-09T23:59:06.948869,121.692,can1  206  [16]  CF 0C C7 09 B3 0C F4 E3 09 0A D7 0C BB 0C 00 00
2025-08-09T23:59:06.949872,121.693,can1  206  [16]  C3 0C C5 09 BB 0C 7E E4 10 0A D7 0C C3 0C 00 00
2025-08-09T23:59:07.270930,122.014,can1  204  [04]  87 B2 00 00
2025-08-09T23:59:07.271926,122.015,can1  206  [16]  C3 0C C5 09 B7 0C F4 E3 0D 0A D7 0C C3 0C 00 00
2025-08-09T23:59:07.272923,122.016,can1  206  [16]  CF 0C CB 09 CB 0C F4 E3 1D 0A C3 0C BB 0C 00 00
2025-08-09T23:59:07.603753,122.347,can1  206  [16]  C7 0C C9 09 B3 0C 7E E4 0D 0A DB 0C C3 0C 00 00
2025-08-09T23:59:07.604751,122.348,can1  206  [16]  C3 0C C7 09 B7 0C FA E4 0D 0A C7 0C C7 0C 00 00
2025-08-09T23:59:07.926405,122.670,can1  206  [16]  B7 0C CB 09 C7 0C 7E E4 0D 0A DB 0C BF 0C 00 00
2025-08-09T23:59:07.926405,122.670,can1  206  [16]  C7 0C C5 09 B7 0C A0 E2 16 0A DB 0C BF 0C 00 00
2025-08-09T23:59:08.265581,123.009,can1  206  [16]  C3 0C BA 09 A7 0C FA E4 0D 0A DF 0C C7 0C 00 00
2025-08-09T23:59:08.265581,123.009,"can1  204  [04]  87 B2 00 00
  can1  206  [16]  C3 0C C5 09 B7 0C 69 E5 0D 0A DB 0C C7 0C 00 00"
2025-08-09T23:59:08.283128,123.026,can1  206  [16]  C3 0C C7 09 AF 0C 69 E5 10 0A DF 0C C7 0C 00 00
2025-08-09T23:59:08.582086,123.325,can1  206  [16]  C7 0C C7 09 B7 0C 7E E4 09 0A D7 0C BF 0C 00 00
2025-08-09T23:59:08.582086,123.325,can1  206  [16]  CF 0C C7 09 AB 0C D7 E6 10 0A E8 0C BB 0C 00 00
2025-08-09T23:59:08.913808,123.657,can1  206  [16]  CB 0C C7 09 AF 0C 7E E4 0D 0A DF 0C BB 0C 00 00
2025-08-09T23:59:08.913808,123.657,can1  206  [16]  CF 0C C5 09 B3 0C 69 E5 0B 0A D3 0C BB 0C 00 00
2025-08-09T23:59:08.917676,123.661,can1  206  [16]  C7 0C C7 09 AB 0C 69 E5 0B 0A DF 0C C3 0C 00 00
2025-08-09T23:59:09.246187,123.989,"can1  206  [16]  C3 0C C2 09 BB 0C 69 E5 0B 0A D7 0C C3 0C 00 00
  can1  204  [04]  87 B2 00 00"
2025-08-09T23:59:09.259092,124.002,can1  206  [16]  C7 0C C7 09 AF 0C 7E E4 07 0A CF 0C C3 0C 00 00
2025-08-09T23:59:09.260181,124.003,can1  206  [16]  C7 0C C7 09 B3 0C FA E4 0D 0A D7 0C C3 0C 00 00
2025-08-09T23:59:09.584426,124.328,can1  206  [16]  BF 0C C7 09 B7 0C FA E4 0D 0A DB 0C C7 0C 00 00
2025-08-09T23:59:09.584426,124.328,can1  206  [16]  C7 0C C5 09 B7 0C 1F EA 09 0A CF 0C BF 0C 00 00
2025-08-09T23:59:09.896513,124.640,can1  206  [16]  CF 0C CD 09 B7 0C D0 E5 10 0A CF 0C BB 0C 00 00
2025-08-09T23:59:09.904025,124.647,can1  206  [16]  C7 0C C5 09 B7 0C F4 E3 0D 0A DB 0C BF 0C 00 00
2025-08-09T23:59:10.226045,124.969,can1  206  [16]  BF 0C C5 09 BF 0C FA E4 09 0A D7 0C BF 0C 00 00
2025-08-09T23:59:10.230076,124.973,can1  204  [04]  87 B2 00 00
2025-08-09T23:59:10.234304,124.978,can1  206  [16]  CF 0C C7 09 AF 0C F4 E3 04 0A E8 0C B7 0C 00 00
2025-08-09T23:59:10.558181,125.301,can1  206  [16]  CB 0C C2 09 B3 0C FA E4 0B 0A DB 0C BF 0C 00 00
2025-08-09T23:59:10.560193,125.303,can1  206  [16]  CB 0C C5 09 B3 0C 69 E5 1B 0A D7 0C BF 0C 00 00
2025-08-09T23:59:10.562585,125.306,can1  206  [16]  CB 0C C5 09 B3 0C F4 E3 0B 0A DB 0C BF 0C 00 00
2025-08-09T23:59:10.880198,125.623,can1  206  [16]  CB 0C C5 09 7B 0C 7E E4 09 0A 0C 0D BF 0C 00 00
2025-08-09T23:59:10.880198,125.623,can1  206  [16]  C3 0C C5 09 B7 0C FA E4 0D 0A DB 0C C3 0C 00 00
2025-08-09T23:59:11.209274,125.953,can1  206  [16]  DB 0C C9 09 AF 0C 69 E5 09 0A DB 0C AF 0C 00 00
2025-08-09T23:59:11.209274,125.953,"can1  204  [04]  87 B2 00 00
  can1  206  [16]  CB 0C C7 09 B3 0C 69 E5 0D 0A D7 0C C3 0C 00 00"
2025-08-09T23:59:11.210508,125.954,can1  206  [16]  B3 0C C9 09 C7 0C FA E4 0D 0A DB 0C BF 0C 00 00
2025-08-09T23:59:11.546896,126.290,can1  001  [05]  58 0F 02 00 80
2025-08-09T23:59:11.552313,126.296,can1  206  [16]  DB 0C CB 09 7B 0C D0 E5 0D 0A 97 0C A3 0C 00 00
2025-08-09T23:59:11.562875,126.306,can1  206  [16]  B7 0C C2 09 A3 0C 69 E5 0D 0A CB 0C BB 0C 00 00
2025-08-09T23:59:11.864132,126.607,can1  206  [16]  BF 0C C9 09 A7 0C 7E E4 12 0A B3 0C B3 0C 00 00
2025-08-09T23:59:11.866695,126.610,can1  206  [16]  BF 0C C7 09 A3 0C F4 E3 10 0A CF 0C B3 0C 00 00
2025-08-09T23:59:11.875436,126.619,can1  206  [16]  C7 0C C9 09 A7 0C 69 E5 12 0A CF 0C AB 0C 00 00
2025-08-09T23:59:12.197092,126.940,"can1  206  [16]  EC 0C C9 09 A3 0C FA E4 10 0A C7 0C 87 0C 00 00
  can1  204  [04]  9B D7 00 00"
2025-08-09T23:59:12.198391,126.942,can1  206  [16]  CF 0C C5 09 A7 0C 7E E4 0D 0A CB 0C 9F 0C 00 00
2025-08-09T23:59:12.528654,127.272,can1  206  [16]  BF 0C CB 09 A7 0C 69 E5 10 0A C3 0C B3 0C 00 00
2025-08-09T23:59:12.528654,127.272,can1  206  [16]  B7 0C C7 09 AB 0C 69 E5 0B 0A BB 0C BB 0C 00 00
2025-08-09T23:59:12.845610,127.589,can1  206  [16]  C3 0C C7 09 A3 0C F4 E3 10 0A C7 0C B3 0C 00 00
2025-08-09T23:59:12.845610,127.589,can1  206  [16]  C3 0C C7 09 AB 0C 69 E5 0B 0A BB 0C AF 0C 00 00
2025-08-09T23:59:13.179093,127.922,can1  206  [16]  BB 0C D4 09 A3 0C FA E4 0D 0A C3 0C BB 0C 00 00
2025-08-09T23:59:13.179093,127.922,can1  206  [16]  C7 0C C7 09 AF 0C 7E E4 10 0A B7 0C AB 0C 00 00
2025-08-09T23:59:13.179093,127.922,can1  204  [04]  23 23 01 00
2025-08-09T23:59:13.179093,127.922,can1  206  [16]  BB 0C C5 09 A7 0C 69 E5 07 0A C3 0C B7 0C 00 00
2025-08-09T23:59:13.513038,128.256,can1  206  [16]  C7 0C C7 09 A3 0C 3A DF 0D 0A C7 0C AB 0C 00 00
2025-08-09T23:59:13.513038,128.256,can1  206  [16]  BB 0C C7 09 AB 0C F4 E3 0D 0A BF 0C B3 0C 00 00
2025-08-09T23:59:13.832374,128.576,can1  206  [16]  C3 0C C9 09 AB 0C FA E4 10 0A BF 0C AB 0C 00 00
2025-08-09T23:59:13.839557,128.583,can1  206  [16]  BF 0C C7 09 A3 0C F4 E3 0D 0A C3 0C B7 0C 00 00
2025-08-09T23:59:13.841554,128.585,can1  206  [16]  BB 0C C7 09 AB 0C FA E4 10 0A BB 0C B3 0C 00 00
2025-08-09T23:59:14.171061,128.914,can1  206  [16]  BF 0C C7 09 A3 0C FA E4 12 0A CB 0C B3 0C 00 00
2025-08-09T23:59:14.171061,128.914,"can1  204  [04]  AB 6E 01 00
  can1  206  [16]  BB 0C C7 09 AF 0C 69 E5 0D 0A BF 0C AF 0C 00 00"
2025-08-09T23:59:14.489935,129.233,can1  206  [16]  BB 0C C7 09 A3 0C 69 E5 10 0A C3 0C B7 0C 00 00
2025-08-09T23:59:14.489935,129.233,can1  206  [16]  C3 0C C7 09 A3 0C C5 E1 0D 0A C3 0C AF 0C 00 00
2025-08-09T23:59:14.825269,129.569,can1  206  [16]  B7 0C C9 09 AB 0C 69 E5 10 0A BB 0C B7 0C 00 00
2025-08-09T23:59:14.839572,129.583,can1  206  [16]  C3 0C C9 09 A3 0C 85 E6 0D 0A C7 0C AF 0C 00 00
2025-08-09T23:59:14.839572,129.583,can1  206  [16]  BB 0C C7 09 AB 0C 99 C6 0D 0A C3 0C B3 0C 00 00
2025-08-09T23:59:15.157102,129.900,can1  206  [16]  B3 0C C7 09 AB 0C 69 E5 12 0A BF 0C B7 0C 00 00
2025-08-09T23:59:15.157102,129.900,"can1  204  [04]  D3 B8 01 00
  can1  206  [16]  B7 0C C2 09 A7 0C 69 E5 0D 0A C3 0C BB 0C 00 00"
2025-08-09T23:59:15.474702,130.218,can1  206  [16]  BF 0C C5 09 A7 0C 69 E5 0B 0A BF 0C B3 0C 00 00
2025-08-09T23:59:15.474702,130.218,can1  206  [16]  BB 0C C5 09 A3 0C 7E E4 0B 0A C3 0C B7 0C 00 00
2025-08-09T23:59:15.474702,130.218,can1  206  [16]  B7 0C C5 09 A7 0C 69 E5 0B 0A BF 0C BB 0C 00 00
2025-08-09T23:59:15.808272,130.552,can1  206  [16]  BB 0C C5 09 AF 0C 7E E4 12 0A C3 0C AF 0C 00 00
2025-08-09T23:59:15.811271,130.555,can1  206  [16]  C3 0C C5 09 A3 0C 69 E5 10 0A C3 0C B3 0C 00 00
2025-08-09T23:59:16.130747,130.874,can1  206  [16]  C3 0C C7 09 AB 0C 99 C6 09 0A CF 0C B7 0C 00 00
2025-08-09T23:59:16.141755,130.885,"can1  206  [16]  CB 0C C5 09 AB 0C FA E4 10 0A CF 0C B3 0C 00 00
  can1  204  [04]  FB 02 02 00"
2025-08-09T23:59:16.470280,131.214,can1  206  [16]  BB 0C C5 09 B7 0C 7E E4 14 0A BF 0C BF 0C 00 00
2025-08-09T23:59:16.470280,131.214,can1  206  [16]  CF 0C C7 09 9F 0C 7E E4 0D 0A DB 0C B7 0C 00 00
2025-08-09T23:59:16.470280,131.214,can1  206  [16]  C3 0C CB 09 B3 0C F4 E3 10 0A D7 0C C3 0C 00 00
2025-08-09T23:59:16.790995,131.534,can1  206  [16]  CF 0C C5 09 B7 0C FA E4 0B 0A DB 0C B7 0C 00 00
2025-08-09T23:59:16.795012,131.538,can1  206  [16]  C7 0C C5 09 AF 0C 69 E5 0B 0A CB 0C BF 0C 00 00
2025-08-09T23:59:17.118931,131.862,can1  206  [16]  CB 0C C7 09 AF 0C D0 E5 0B 0A D7 0C BF 0C 00 00
2025-08-09T23:59:17.121019,131.864,can1  206  [16]  CB 0C D2 09 B3 0C 2E E6 07 0A DF 0C BB 0C 00 00
2025-08-09T23:59:17.121019,131.864,can1  204  [04]  F8 0D 02 00
2025-08-09T23:59:17.121019,131.864,can1  206  [16]  C7 0C C7 09 AF 0C 7E E4 0B 0A E4 0C C3 0C 00 00
2025-08-09T23:59:17.449688,132.193,can1  206  [16]  CB 0C E3 09 B3 0C FA E4 0B 0A D7 0C BB 0C 00 00
2025-08-09T23:59:17.453701,132.197,can1  206  [16]  DB 0C C7 09 AF 0C FA E4 0B 0A E4 0C AB 0C 00 00
2025-08-09T23:59:17.777144,132.520,"can1  206  [16]  C7 0C C9 09 AB 0C 7E E4 0D 0A E4 0C BF 0C 00 00
  can1  001  [05]  C8 AF 00 00 80"
2025-08-09T23:59:17.782149,132.525,can1  206  [16]  BF 0C C7 09 A7 0C FA E4 0D 0A C3 0C AF 0C 00 00
2025-08-09T23:59:18.101317,132.845,can1  206  [16]  BF 0C C5 09 A7 0C 7E E4 0B 0A C3 0C B3 0C 00 00
2025-08-09T23:59:18.102285,132.846,can1  206  [16]  C3 0C C2 09 A3 0C FA E4 10 0A C3 0C B3 0C 00 00
2025-08-09T23:59:18.108776,132.852,"can1  204  [04]  BE FA 01 00
  can1  206  [16]  BF 0C C5 09 A3 0C 69 E5 0D 0A C7 0C B3 0C 00 00"
