Timestamp,Elapsed_Time_s,CAN_Message
2025-11-08T02:09:17.818,2.881,can0  204  [16]  17 1A 50 46 50 46 50 46 FA 19 20 4E 30 75 00 00
2025-11-08T02:09:18.423,3.486,can0  206  [16]  A3 0C D3 07 9B 0C C5 E1 EB 07 C3 0C A7 0C 00 00
2025-11-08T02:09:18.423,3.486,can0  204  [16]  17 1A 50 46 50 46 50 46 FA 19 20 4E 30 75 00 00
2025-11-08T02:09:18.423,3.486,can0  204  [16]  17 1A 50 46 50 46 50 46 FA 19 20 4E 30 75 00 00
2025-11-08T02:09:18.423,3.486,can0  204  [16]  17 1A 50 46 50 46 50 46 FA 19 20 4E 30 75 00 00
2025-11-08T02:09:18.424,3.486,can0  206  [16]  9F 0C D6 07 93 0C DA DC E7 07 CF 0C A7 0C 00 00
2025-11-08T02:09:18.424,3.487,can0  041  [04]  9F 00 02 00
2025-11-08T02:09:18.424,3.487,can0  204  [16]  17 1A 50 46 50 46 50 46 FA 19 20 4E 30 75 00 00
2025-11-08T02:09:18.425,3.487,can0  204  [16]  17 1A 50 46 50 46 50 46 FA 19 20 4E 30 75 00 00
2025-11-08T02:09:18.425,3.488,can0  204  [16]  17 1A 50 46 50 46 50 46 FA 19 20 4E 30 75 00 00
2025-11-08T02:09:18.425,3.488,can0  206  [16]  A3 0C D6 07 97 0C 99 C6 ED 07 E3 0C A7 0C 00 00
2025-11-08T02:09:18.426,3.488,can0  204  [16]  17 1A 50 46 50 46 50 46 FA 19 20 4E 30 75 00 00
2025-11-08T02:09:18.426,3.489,can0  041  [04]  9F 00 02 00
2025-11-08T02:09:18.427,3.490,can0  204  [16]  17 1A 50 46 50 46 50 46 FA 19 20 4E 30 75 00 00
2025-11-08T02:09:18.428,3.490,can0  206  [16]  A7 0C D6 07 9F 0C DA DC ED 07 BF 0C A3 0C 00 00
2025-11-08T02:09:18.428,3.490,can0  204  [16]  17 1A 50 46 50 46 50 46 FA 19 20 4E 30 75 00 00
2025-11-08T02:09:19.006,4.069,can0  204  [16]  17 1A 50 46 50 46 50 46 FA 19 20 4E 30 75 00 00
2025-11-08T02:09:19.007,4.069,can0  204  [16]  17 1A 50 46 50 46 50 46 FA 19 20 4E 30 75 00 00
2025-11-08T02:09:19.008,4.070,can0  206  [16]  A3 0C D6 07 8F 0C 6A E8 EF 07 D3 0C AB 0C 00 00
2025-11-08T02:09:19.008,4.071,can0  204  [16]  17 1A 50 46 50 46 50 46 FA 19 20 4E 30 75 00 00
2025-11-08T02:09:19.008,4.071,can0  041  [04]  9F 00 02 00
2025-11-08T02:09:19.008,4.071,can0  204  [16]  17 1A 50 46 50 46 50 46 FA 19 20 4E 30 75 00 00
2025-11-08T02:09:19.008,4.071,can0  204  [16]  17 1A 50 46 50 46 50 46 FA 19 20 4E 30 75 00 00
2025-11-08T02:09:19.008,4.071,can0  206  [16]  C3 0C D6 07 9F 0C DA DC EF 07 C7 0C 83 0C 00 00
2025-11-08T02:09:19.008,4.071,can0  204  [16]  17 1A 50 46 50 46 50 46 FA 19 20 4E 30 75 00 00
2025-11-08T02:09:19.008,4.071,can0  204  [16]  17 1A 50 46 50 46 50 46 FA 19 20 4E 30 75 00 00
2025-11-08T02:09:19.010,4.072,can0  041  [04]  A7 00 02 00
2025-11-08T02:09:19.010,4.072,can0  206  [16]  9F 0C D3 07 9B 0C DA DC ED 07 C3 0C AB 0C 00 00
2025-11-08T02:09:19.010,4.073,can0  204  [16]  17 1A 50 46 50 46 50 46 FA 19 20 4E 30 75 00 00
2025-11-08T02:09:19.010,4.073,can0  204  [16]  17 1A 50 46 50 46 50 46 FA 19 20 4E 30 75 00 00
2025-11-08T02:09:19.583,4.646,can0  204  [16]  17 1A 50 46 50 46 50 46 FA 19 20 4E 30 75 00 00
2025-11-08T02:09:19.584,4.647,can0  206  [16]  A3 0C D3 07 9F 0C DA DC E9 07 CB 0C 9F 0C 00 00
2025-11-08T02:09:19.585,4.647,can0  204  [16]  17 1A 50 46 50 46 50 46 FA 19 20 4E 30 75 00 00
2025-11-08T02:09:19.585,4.648,can0  041  [04]  B5 00 02 00
2025-11-08T02:09:19.586,4.649,can0  204  [16]  17 1A 50 46 50 46 50 46 FA 19 20 4E 30 75 00 00
2025-11-08T02:09:19.587,4.649,can0  206  [16]  A3 0C D8 07 9B 0C B1 E0 EF 07 C3 0C A7 0C 00 00
2025-11-08T02:09:19.587,4.649,can0  204  [16]  17 1A 50 46 50 46 50 46 FA 19 20 4E 30 75 00 00
2025-11-08T02:09:19.587,4.650,can0  204  [16]  17 1A 50 46 50 46 50 46 FA 19 20 4E 30 75 00 00
2025-11-08T02:09:19.587,4.650,can0  204  [16]  17 1A 50 46 50 46 50 46 FA 19 20 4E 30 75 00 00
2025-11-08T02:09:19.588,4.650,can0  206  [16]  AB 0C DA 07 9B 0C 3A DF ED 07 C3 0C A3 0C 00 00
2025-11-08T02:09:19.588,4.650,can0  041  [04]  B5 00 02 00
2025-11-08T02:09:19.588,4.650,can0  204  [16]  17 1A 50 46 50 46 50 46 FA 19 20 4E 30 75 00 00
2025-11-08T02:09:19.588,4.651,can0  204  [16]  17 1A 50 46 50 46 50 46 FA 19 20 4E 30 75 00 00
2025-11-08T02:09:20.242,5.305,can0  204  [16]  17 1A 50 46 50 46 50 46 FA 19 20 4E 30 75 00 00
2025-11-08T02:09:20.243,5.305,can0  206  [16]  9F 0C D3 07 9F 0C 99 C6 EF 07 C7 0C AB 0C 00 00
2025-11-08T02:09:20.243,5.305,can0  204  [16]  17 1A 50 46 50 46 50 46 FA 19 20 4E 30 75 00 00
2025-11-08T02:09:20.243,5.305,can0  204  [16]  17 1A 50 46 50 46 50 46 FA 19 20 4E 30 75 00 00
2025-11-08T02:09:20.243,5.306,can0  041  [04]  B5 00 02 00
2025-11-08T02:09:20.244,5.306,can0  206  [16]  A7 0C D3 07 9F 0C C5 E1 EF 07 BB 0C A7 0C 00 00
2025-11-08T02:09:20.244,5.306,can0  204  [16]  17 1A 50 46 50 46 50 46 FA 19 20 4E 30 75 00 00
2025-11-08T02:09:20.244,5.307,can0  204  [16]  17 1A 50 46 50 46 50 46 FA 19 20 4E 30 75 00 00
2025-11-08T02:09:20.244,5.307,can0  204  [16]  17 1A 50 46 50 46 50 46 FA 19 20 4E 30 75 00 00
2025-11-08T02:09:20.245,5.307,can0  206  [16]  9F 0C B5 07 9B 0C 99 C6 09 08 C3 0C AB 0C 00 00
2025-11-08T02:09:20.245,5.308,can0  204  [16]  17 1A 50 46 50 46 50 46 FA 19 20 4E 30 75 00 00
2025-11-08T02:09:20.245,5.308,can0  041  [04]  A7 00 02 00
2025-11-08T02:09:20.246,5.308,can0  204  [16]  17 1A 50 46 50 46 50 46 FA 19 20 4E 30 75 00 00
2025-11-08T02:09:20.246,5.309,can0  204  [16]  17 1A 50 46 50 46 50 46 FA 19 20 4E 30 75 00 00
2025-11-08T02:09:20.246,5.309,can0  206  [16]  C7 0C D3 07 7B 0C 3A DF EB 07 C3 0C A3 0C 00 00
2025-11-08T02:09:20.247,5.309,can0  204  [16]  17 1A 50 46 50 46 50 46 FA 19 20 4E 30 75 00 00
2025-11-08T02:09:20.247,5.310,can0  204  [16]  17 1A 50 46 50 46 50 46 FA 19 20 4E 30 75 00 00
2025-11-08T02:09:20.247,5.310,can0  206  [16]  9F 0C D3 07 9B 0C DA DC EB 07 C3 0C AB 0C 00 00
2025-11-08T02:09:20.248,5.310,can0  041  [04]  B5 00 02 00
2025-11-08T02:09:20.248,5.310,can0  204  [16]  17 1A 50 46 50 46 50 46 FA 19 20 4E 30 75 00 00
2025-11-08T02:09:20.860,5.923,can0  204  [16]  17 1A 50 46 50 46 50 46 FA 19 20 4E 30 75 00 00
2025-11-08T02:09:20.861,5.923,can0  204  [16]  17 1A 50 46 50 46 50 46 FA 19 20 4E 30 75 00 00
2025-11-08T02:09:20.861,5.923,can0  206  [16]  9F 0C D3 07 9B 0C DA DC EB 07 C3 0C AB 0C 00 00
2025-11-08T02:09:20.861,5.924,can0  204  [16]  17 1A 50 46 50 46 50 46 FA 19 20 4E 30 75 00 00
2025-11-08T02:09:20.861,5.924,can0  041  [04]  97 00 05 00
2025-11-08T02:09:20.862,5.924,can0  204  [16]  17 1A 50 46 50 46 50 46 FA 19 20 4E 30 75 00 00
2025-11-08T02:09:20.862,5.924,can0  206  [16]  A3 0C DE 07 7F 0C DA DC EB 07 DF 0C A3 0C 00 00
2025-11-08T02:09:20.862,5.925,can0  204  [16]  17 1A 50 46 50 46 50 46 FA 19 20 4E 30 75 00 00
2025-11-08T02:09:20.862,5.925,can0  204  [16]  17 1A 50 46 50 46 50 46 FA 19 20 4E 30 75 00 00
2025-11-08T02:09:20.863,5.925,can0  204  [16]  17 1A 50 46 50 46 50 46 FA 19 20 4E 30 75 00 00
2025-11-08T02:09:20.863,5.926,can0  206  [16]  A7 0C D6 07 9B 0C 3A DF ED 07 C7 0C A3 0C 00 00
2025-11-08T02:09:20.863,5.926,can0  204  [16]  17 1A 50 46 50 46 50 46 FA 19 20 4E 30 75 00 00
2025-11-08T02:09:20.864,5.926,can0  041  [04]  A7 00 02 00
2025-11-08T02:09:20.864,5.926,can0  204  [16]  17 1A 50 46 50 46 50 46 FA 19 20 4E 30 75 00 00
2025-11-08T02:09:21.470,6.533,can0  204  [16]  17 1A 50 46 50 46 50 46 FA 19 20 4E 30 75 00 00
2025-11-08T02:09:21.471,6.533,can0  206  [16]  9B 0C D6 07 9F 0C 3A DF EB 07 BF 0C AF 0C 00 00
2025-11-08T02:09:21.471,6.533,can0  204  [16]  17 1A 50 46 50 46 50 46 FA 19 20 4E 30 75 00 00
2025-11-08T02:09:21.471,6.534,can0  204  [16]  17 1A 50 46 50 46 50 46 FA 19 20 4E 30 75 00 00
2025-11-08T02:09:21.471,6.534,can0  041  [04]  97 00 05 00
2025-11-08T02:09:21.472,6.534,can0  206  [16]  BB 0C DA 07 9B 0C DA DC F2 07 C3 0C 93 0C 00 00
2025-11-08T02:09:21.472,6.535,can0  204  [16]  17 1A 50 46 50 46 50 46 FA 19 20 4E 30 75 00 00
2025-11-08T02:09:21.472,6.535,can0  204  [16]  17 1A 50 46 50 46 50 46 FA 19 20 4E 30 75 00 00
2025-11-08T02:09:21.473,6.535,can0  204  [16]  17 1A 50 46 50 46 50 46 FA 19 20 4E 30 75 00 00
2025-11-08T02:09:21.473,6.535,can0  206  [16]  8F 0C D8 07 AB 0C 3A DF EB 07 BF 0C AB 0C 00 00
2025-11-08T02:09:21.473,6.536,can0  204  [16]  17 1A 50 46 50 46 50 46 FA 19 20 4E 30 75 00 00
2025-11-08T02:09:21.473,6.536,can0  041  [04]  B5 00 02 00
2025-11-08T02:09:21.474,6.536,can0  204  [16]  17 1A 50 46 50 46 50 46 FA 19 20 4E 30 75 00 00
2025-11-08T02:09:21.474,6.537,can0  206  [16]  AF 0C D3 07 8B 0C DA DC EB 07 DB 0C 9B 0C 00 00
2025-11-08T02:09:21.474,6.537,can0  204  [16]  17 1A 50 46 50 46 50 46 FA 19 20 4E 30 75 00 00
2025-11-08T02:09:21.475,6.537,can0  204  [16]  17 1A 50 46 50 46 50 46 FA 19 20 4E 30 75 00 00
2025-11-08T02:09:22.104,7.167,can0  204  [16]  17 1A 50 46 50 46 50 46 FA 19 20 4E 30 75 00 00
2025-11-08T02:09:22.104,7.167,can0  206  [16]  9F 0C D6 07 9F 0C 3A DF EB 07 C7 0C A7 0C 00 00
2025-11-08T02:09:22.105,7.167,can0  041  [04]  E4 00 02 00
2025-11-08T02:09:22.105,7.167,can0  204  [16]  17 1A 50 46 50 46 50 46 FA 19 20 4E 30 75 00 00
2025-11-08T02:09:22.105,7.168,can0  204  [16]  17 1A 50 46 50 46 50 46 FA 19 20 4E 30 75 00 00
2025-11-08T02:09:22.106,7.168,can0  204  [16]  17 1A 50 46 50 46 50 46 FA 19 20 4E 30 75 00 00
2025-11-08T02:09:22.106,7.168,can0  206  [16]  A3 0C D6 07 9F 0C DA DC EB 07 B3 0C A3 0C 00 00
2025-11-08T02:09:22.106,7.169,can0  204  [16]  17 1A 50 46 50 46 50 46 FA 19 20 4E 30 75 00 00
2025-11-08T02:09:22.106,7.169,can0  204  [16]  17 1A 50 46 50 46 50 46 FA 19 20 4E 30 75 00 00
2025-11-08T02:09:22.107,7.169,can0  041  [04]  10 01 02 00
2025-11-08T02:09:22.107,7.170,can0  206  [16]  A3 0C D8 07 A3 0C 99 C6 ED 07 B7 0C A7 0C 00 00
2025-11-08T02:09:22.107,7.170,can0  204  [16]  17 1A 50 46 50 46 50 46 FA 19 20 4E 30 75 00 00
2025-11-08T02:09:22.108,7.170,can0  204  [16]  17 1A 50 46 50 46 50 46 FA 19 20 4E 30 75 00 00
2025-11-08T02:09:22.108,7.171,can0  204  [16]  17 1A 50 46 50 46 50 46 FA 19 20 4E 30 75 00 00
2025-11-08T02:09:22.108,7.171,can0  206  [16]  9B 0C C9 07 9B 0C 99 C6 EF 07 C3 0C AF 0C 00 00
2025-11-08T02:09:22.109,7.171,can0  204  [16]  17 1A 50 46 50 46 50 46 FA 19 20 4E 30 75 00 00
2025-11-08T02:09:22.560,7.623,can0  041  [04]  3F 01 02 00
2025-11-08T02:09:22.560,7.623,can0  204  [16]  17 1A 50 46 50 46 50 46 FA 19 20 4E 30 75 00 00
2025-11-08T02:09:22.561,7.624,can0  206  [16]  A7 0C D8 07 9B 0C 3A DF EB 07 C3 0C A3 0C 00 00
2025-11-08T02:09:22.561,7.624,can0  204  [16]  17 1A 50 46 50 46 50 46 FA 19 20 4E 30 75 00 00
2025-11-08T02:09:22.561,7.624,can0  204  [16]  17 1A 50 46 50 46 50 46 FA 19 20 4E 30 75 00 00
2025-11-08T02:09:22.561,7.624,can0  204  [16]  17 1A 50 46 50 46 50 46 FA 19 20 4E 30 75 00 00
2025-11-08T02:09:22.562,7.624,can0  206  [16]  BB 0C DC 07 A3 0C 3A DF EB 07 BB 0C 8B 0C 00 00
2025-11-08T02:09:22.562,7.624,can0  041  [04]  3F 01 02 00
2025-11-08T02:09:22.562,7.625,can0  204  [16]  17 1A 50 46 50 46 50 46 FA 19 20 4E 30 75 00 00
2025-11-08T02:09:22.562,7.625,can0  204  [16]  17 1A 50 46 50 46 50 46 FA 19 20 4E 30 75 00 00
2025-11-08T02:09:22.563,7.625,can0  204  [16]  17 1A 50 46 50 46 50 46 FA 19 20 4E 30 75 00 00
2025-11-08T02:09:22.563,7.625,can0  206  [16]  9F 0C DA 07 A7 0C DA DC D3 07 B3 0C A3 0C 00 00
2025-11-08T02:09:22.563,7.626,can0  204  [16]  17 1A 50 46 50 46 50 46 FA 19 20 4E 30 75 00 00
2025-11-08T02:09:22.919,7.981,can0  041  [04]  B5 00 02 00
2025-11-08T02:09:22.919,7.981,can0  204  [16]  17 1A 50 46 50 46 50 46 FA 19 20 4E 30 75 00 00
2025-11-08T02:09:22.919,7.982,can0  206  [16]  9F 0C D6 07 A7 0C DA DC EB 07 BF 0C A7 0C 00 00
2025-11-08T02:09:22.920,7.982,can0  204  [16]  17 1A 50 46 50 46 50 46 FA 19 20 4E 30 75 00 00
2025-11-08T02:09:22.920,7.983,can0  204  [16]  17 1A 50 46 50 46 50 46 FA 19 20 4E 30 75 00 00
2025-11-08T02:09:22.920,7.983,can0  204  [16]  17 1A 50 46 50 46 50 46 FA 19 20 4E 30 75 00 00
2025-11-08T02:09:22.920,7.983,can0  206  [16]  9F 0C D6 07 9B 0C DA DC ED 07 C7 0C A7 0C 00 00
2025-11-08T02:09:22.920,7.983,can0  204  [16]  17 1A 50 46 50 46 50 46 FA 19 20 4E 30 75 00 00
2025-11-08T02:09:22.920,7.983,can0  041  [04]  8B 00 02 00
2025-11-08T02:09:22.921,7.983,can0  204  [16]  17 1A 50 46 50 46 50 46 FA 19 20 4E 30 75 00 00
2025-11-08T02:09:23.391,8.453,can0  204  [16]  17 1A 50 46 50 46 50 46 FA 19 20 4E 30 75 00 00
2025-11-08T02:09:23.391,8.453,can0  206  [16]  A7 0C D8 07 97 0C 99 C6 ED 07 BB 0C A7 0C 00 00
2025-11-08T02:09:23.391,8.454,can0  204  [16]  17 1A 50 46 50 46 50 46 FA 19 20 4E 30 75 00 00
2025-11-08T02:09:23.391,8.454,can0  204  [16]  17 1A 50 46 50 46 50 46 FA 19 20 4E 30 75 00 00
2025-11-08T02:09:23.391,8.454,can0  041  [04]  8B 00 02 00
2025-11-08T02:09:23.391,8.454,can0  204  [16]  17 1A 50 46 50 46 50 46 FA 19 20 4E 30 75 00 00
2025-11-08T02:09:23.392,8.454,can0  206  [16]  9F 0C D6 07 9B 0C DA DC F6 07 C3 0C AB 0C 00 00
2025-11-08T02:09:23.392,8.454,can0  204  [16]  17 1A 50 46 50 46 50 46 FA 19 20 4E 30 75 00 00
2025-11-08T02:09:23.393,8.456,can0  204  [16]  17 1A 50 46 50 46 50 46 FA 19 20 4E 30 75 00 00
2025-11-08T02:09:23.393,8.456,can0  206  [16]  A3 0C D8 07 9F 0C 99 C6 E9 07 C3 0C A3 0C 00 00
2025-11-08T02:09:23.393,8.456,can0  204  [16]  17 1A 50 46 50 46 50 46 FA 19 20 4E 30 75 00 00
2025-11-08T02:09:23.393,8.456,can0  041  [04]  B5 00 02 00
2025-11-08T02:09:23.969,9.032,can0  204  [16]  17 1A 50 46 50 46 50 46 FA 19 20 4E 30 75 00 00
2025-11-08T02:09:23.970,9.032,can0  204  [16]  17 1A 50 46 50 46 50 46 FA 19 20 4E 30 75 00 00
2025-11-08T02:09:23.970,9.033,can0  206  [16]  AB 0C D1 07 8F 0C 3A DF EB 07 CF 0C 9F 0C 00 00
2025-11-08T02:09:23.970,9.033,can0  204  [16]  17 1A 50 46 50 46 50 46 FA 19 20 4E 30 75 00 00
2025-11-08T02:09:23.971,9.034,can0  204  [16]  17 1A 50 46 50 46 50 46 FA 19 20 4E 30 75 00 00
2025-11-08T02:09:23.971,9.034,can0  204  [16]  17 1A 50 46 50 46 50 46 FA 19 20 4E 30 75 00 00
2025-11-08T02:09:23.972,9.034,can0  041  [04]  8B 00 02 00
2025-11-08T02:09:23.972,9.035,can0  206  [16]  B3 0C D6 07 9F 0C DA DC E9 07 D3 0C 97 0C 00 00
2025-11-08T02:09:23.973,9.036,can0  204  [16]  17 1A 50 46 50 46 50 46 FA 19 20 4E 30 75 00 00
2025-11-08T02:09:23.974,9.036,can0  204  [16]  17 1A 50 46 50 46 50 46 FA 19 20 4E 30 75 00 00
2025-11-08T02:09:23.974,9.036,can0  206  [16]  AB 0C D8 07 97 0C DA DC EF 07 BF 0C A3 0C 00 00
2025-11-08T02:09:23.974,9.037,can0  204  [16]  17 1A 50 46 50 46 50 46 FA 19 20 4E 30 75 00 00
2025-11-08T02:09:23.974,9.037,can0  204  [16]  17 1A 50 46 50 46 50 46 FA 19 20 4E 30 75 00 00
2025-11-08T02:09:23.975,9.037,can0  041  [04]  8B 00 00 00
2025-11-08T02:09:23.975,9.038,can0  204  [16]  17 1A 50 46 50 46 50 46 FA 19 20 4E 30 75 00 00
2025-11-08T02:09:24.543,9.605,can0  206  [16]  9F 0C D6 07 97 0C DA DC E9 07 C3 0C AB 0C 00 00
2025-11-08T02:09:24.544,9.606,can0  204  [16]  17 1A 50 46 50 46 50 46 FA 19 20 4E 30 75 00 00
2025-11-08T02:09:24.544,9.606,can0  204  [16]  17 1A 50 46 50 46 50 46 FA 19 20 4E 30 75 00 00
2025-11-08T02:09:24.544,9.607,can0  206  [16]  A3 0C D8 07 9B 0C A0 E2 EB 07 C7 0C A7 0C 00 00
2025-11-08T02:09:24.544,9.607,can0  204  [16]  17 1A 50 46 50 46 50 46 FA 19 20 4E 30 75 00 00
2025-11-08T02:09:24.544,9.607,can0  041  [04]  8B 00 00 00
2025-11-08T02:09:24.544,9.607,can0  204  [16]  17 1A 50 46 50 46 50 46 FA 19 20 4E 30 75 00 00
2025-11-08T02:09:24.544,9.607,can0  204  [16]  17 1A 50 46 50 46 50 46 FA 19 20 4E 30 75 00 00
2025-11-08T02:09:24.546,9.608,can0  206  [16]  A3 0C D6 07 8F 0C 57 E3 EF 07 D7 0C A7 0C 00 00
2025-11-08T02:09:24.546,9.608,can0  204  [16]  17 1A 50 46 50 46 50 46 FA 19 20 4E 30 75 00 00
2025-11-08T02:09:24.546,9.608,can0  204  [16]  17 1A 50 46 50 46 50 46 FA 19 20 4E 30 75 00 00
2025-11-08T02:09:24.546,9.608,can0  041  [04]  2F 00 00 00
2025-11-08T02:09:24.546,9.608,can0  204  [16]  17 1A 50 46 50 46 50 46 FA 19 20 4E 30 75 00 00
2025-11-08T02:09:24.546,9.609,can0  206  [16]  A3 0C D3 07 A7 0C DA DC E5 07 BF 0C A3 0C 00 00
2025-11-08T02:09:24.547,9.609,can0  204  [16]  17 1A 50 46 50 46 50 46 FA 19 20 4E 30 75 00 00
2025-11-08T02:09:25.151,10.214,can0  204  [16]  17 1A 50 46 50 46 50 46 FA 19 20 4E 30 75 00 00
2025-11-08T02:09:25.153,10.215,can0  206  [16]  B3 0C D3 07 93 0C DA DC E9 07 CB 0C 9B 0C 00 00
2025-11-08T02:09:25.153,10.215,can0  204  [16]  17 1A 50 46 50 46 50 46 FA 19 20 4E 30 75 00 00
2025-11-08T02:09:25.153,10.215,can0  204  [16]  17 1A 50 46 50 46 50 46 FA 19 20 4E 30 75 00 00
2025-11-08T02:09:25.153,10.216,can0  041  [04]  5E 00 00 00
2025-11-08T02:09:25.153,10.216,can0  204  [16]  17 1A 50 46 50 46 50 46 FA 19 20 4E 30 75 00 00
2025-11-08T02:09:25.153,10.216,can0  206  [16]  A7 0C D6 07 9F 0C DA DC ED 07 BF 0C A3 0C 00 00
2025-11-08T02:09:25.153,10.216,can0  204  [16]  17 1A 50 46 50 46 50 46 FA 19 20 4E 30 75 00 00
2025-11-08T02:09:25.154,10.216,can0  204  [16]  17 1A 50 46 50 46 50 46 FA 19 20 4E 30 75 00 00
2025-11-08T02:09:25.154,10.216,can0  204  [16]  17 1A 50 46 50 46 50 46 FA 19 20 4E 30 75 00 00
2025-11-08T02:09:25.154,10.217,can0  206  [16]  9F 0C D6 07 A7 0C DA DC E9 07 B3 0C A7 0C 00 00
2025-11-08T02:09:25.155,10.218,can0  041  [04]  B5 00 02 00
2025-11-08T02:09:25.155,10.218,can0  204  [16]  17 1A 50 46 50 46 50 46 FA 19 20 4E 30 75 00 00
2025-11-08T02:09:25.155,10.218,can0  204  [16]  17 1A 50 46 50 46 50 46 FA 19 20 4E 30 75 00 00
2025-11-08T02:09:25.155,10.218,can0  206  [16]  9F 0C D6 07 93 0C B1 E0 ED 07 CF 0C A7 0C 00 00
2025-11-08T02:09:25.156,10.219,can0  204  [16]  17 1A 50 46 50 46 50 46 FA 19 20 4E 30 75 00 00
2025-11-08T02:09:25.743,10.806,can0  204  [16]  17 1A 50 46 50 46 50 46 FA 19 20 4E 30 75 00 00
2025-11-08T02:09:25.744,10.806,can0  041  [04]  B5 00 02 00
2025-11-08T02:09:25.746,10.808,can0  204  [16]  17 1A 50 46 50 46 50 46 FA 19 20 4E 30 75 00 00
2025-11-08T02:09:25.746,10.809,can0  206  [16]  A7 0C D3 07 97 0C 3A DF ED 07 C7 0C A7 0C 00 00
2025-11-08T02:09:25.746,10.809,can0  204  [16]  17 1A 50 46 50 46 50 46 FA 19 20 4E 30 75 00 00
2025-11-08T02:09:25.746,10.809,can0  204  [16]  17 1A 50 46 50 46 50 46 FA 19 20 4E 30 75 00 00
2025-11-08T02:09:25.746,10.809,can0  204  [16]  17 1A 50 46 50 46 50 46 FA 19 20 4E 30 75 00 00
2025-11-08T02:09:25.746,10.809,can0  206  [16]  A7 0C D8 07 9F 0C 7E E4 ED 07 C3 0C A3 0C 00 00
2025-11-08T02:09:25.746,10.809,can0  041  [04]  B5 00 02 00
2025-11-08T02:09:25.747,10.809,can0  204  [16]  17 1A 50 46 50 46 50 46 FA 19 20 4E 30 75 00 00
2025-11-08T02:09:25.747,10.809,can0  204  [16]  17 1A 50 46 50 46 50 46 FA 19 20 4E 30 75 00 00
2025-11-08T02:09:25.747,10.810,can0  204  [16]  17 1A 50 46 50 46 50 46 FA 19 20 4E 30 75 00 00
2025-11-08T02:09:25.748,10.810,can0  206  [16]  9F 0C D6 07 AF 0C 99 C6 ED 07 B3 0C AB 0C 00 00
2025-11-08T02:09:25.748,10.810,can0  204  [16]  17 1A 50 46 50 46 50 46 FA 19 20 4E 30 75 00 00
2025-11-08T02:09:26.125,11.187,can0  204  [16]  17 1A 50 46 50 46 50 46 FA 19 20 4E 30 75 00 00
2025-11-08T02:09:26.125,11.188,can0  041  [04]  9F 00 02 00
2025-11-08T02:09:26.125,11.188,can0  206  [16]  A7 0C D3 07 9F 0C B1 E0 EF 07 C7 0C A3 0C 00 00
2025-11-08T02:09:26.126,11.188,can0  204  [16]  17 1A 50 46 50 46 50 46 FA 19 20 4E 30 75 00 00
2025-11-08T02:09:26.126,11.189,can0  204  [16]  17 1A 50 46 50 46 50 46 FA 19 20 4E 30 75 00 00
2025-11-08T02:09:26.126,11.189,can0  204  [16]  17 1A 50 46 50 46 50 46 FA 19 20 4E 30 75 00 00
2025-11-08T02:09:26.127,11.189,can0  206  [16]  AF 0C DA 07 9B 0C DA DC EF 07 C7 0C 9F 0C 00 00
2025-11-08T02:09:26.127,11.189,can0  204  [16]  17 1A 50 46 50 46 50 46 FA 19 20 4E 30 75 00 00
2025-11-08T02:09:26.127,11.189,can0  041  [04]  B5 00 02 00
2025-11-08T02:09:26.127,11.190,can0  204  [16]  17 1A 50 46 50 46 50 46 FA 19 20 4E 30 75 00 00
2025-11-08T02:09:26.497,11.560,can0  206  [16]  9F 0C D6 07 9F 0C DA DC EF 07 C7 0C AB 0C 00 00
2025-11-08T02:09:26.498,11.561,can0  204  [16]  17 1A 50 46 50 46 50 46 FA 19 20 4E 30 75 00 00
2025-11-08T02:09:26.498,11.561,can0  204  [16]  17 1A 50 46 50 46 50 46 FA 19 20 4E 30 75 00 00
2025-11-08T02:09:26.498,11.561,can0  204  [16]  17 1A 50 46 50 46 50 46 FA 19 20 4E 30 75 00 00
2025-11-08T02:09:26.499,11.561,can0  206  [16]  A7 0C D8 07 9F 0C DA DC EF 07 BF 0C A3 0C 00 00
2025-11-08T02:09:26.499,11.562,can0  041  [04]  B5 00 02 00
2025-11-08T02:09:26.499,11.562,can0  204  [16]  17 1A 50 46 50 46 50 46 FA 19 20 4E 30 75 00 00
2025-11-08T02:09:26.499,11.562,can0  204  [16]  17 1A 50 46 50 46 50 46 FA 19 20 4E 30 75 00 00
2025-11-08T02:09:26.500,11.562,can0  204  [16]  17 1A 50 46 50 46 50 46 FA 19 20 4E 30 75 00 00
2025-11-08T02:09:26.500,11.562,can0  206  [16]  B3 0C D6 07 9F 0C DA DC ED 07 C7 0C 97 0C 00 00
2025-11-08T02:09:26.879,11.941,can0  204  [16]  17 1A 50 46 50 46 50 46 FA 19 20 4E 30 75 00 00
2025-11-08T02:09:26.879,11.942,can0  041  [04]  B5 00 02 00
2025-11-08T02:09:26.881,11.943,can0  204  [16]  17 1A 50 46 50 46 50 46 FA 19 20 4E 30 75 00 00
2025-11-08T02:09:26.881,11.943,can0  206  [16]  87 0C D8 07 9B 0C 99 C6 ED 07 C7 0C C7 0C 00 00
2025-11-08T02:09:26.881,11.943,can0  204  [16]  17 1A 50 46 50 46 50 46 FA 19 20 4E 30 75 00 00
2025-11-08T02:09:26.881,11.943,can0  204  [16]  17 1A 50 46 50 46 50 46 FA 19 20 4E 30 75 00 00
2025-11-08T02:09:26.881,11.943,can0  204  [16]  17 1A 50 46 50 46 50 46 FA 19 20 4E 30 75 00 00
2025-11-08T02:09:26.881,11.943,can0  206  [16]  A7 0C D3 07 9F 0C DA DC EB 07 D3 0C A3 0C 00 00
2025-11-08T02:09:26.881,11.943,can0  204  [16]  17 1A 50 46 50 46 50 46 FA 19 20 4E 30 75 00 00
2025-11-08T02:09:26.881,11.944,can0  041  [04]  B5 00 02 00
2025-11-08T02:09:27.255,12.318,can0  204  [16]  17 1A 50 46 50 46 50 46 FA 19 20 4E 30 75 00 00
2025-11-08T02:09:27.256,12.318,can0  204  [16]  17 1A 50 46 50 46 50 46 FA 19 20 4E 30 75 00 00
2025-11-08T02:09:27.256,12.318,can0  206  [16]  AF 0C CD 07 97 0C 99 C6 ED 07 D3 0C 9B 0C 00 00
2025-11-08T02:09:27.256,12.318,can0  204  [16]  17 1A 50 46 50 46 50 46 FA 19 20 4E 30 75 00 00
2025-11-08T02:09:27.256,12.318,can0  204  [16]  17 1A 50 46 50 46 50 46 FA 19 20 4E 30 75 00 00
2025-11-08T02:09:27.256,12.319,can0  041  [04]  B5 00 00 00
2025-11-08T02:09:27.256,12.319,can0  206  [16]  A7 0C D6 07 9B 0C 3A DF ED 07 C3 0C A7 0C 00 00
2025-11-08T02:09:27.257,12.319,can0  204  [16]  17 1A 50 46 50 46 50 46 FA 19 20 4E 30 75 00 00
2025-11-08T02:09:27.257,12.320,can0  204  [16]  17 1A 50 46 50 46 50 46 FA 19 20 4E 30 75 00 00
2025-11-08T02:09:27.635,12.698,can0  204  [16]  17 1A 50 46 50 46 50 46 FA 19 20 4E 30 75 00 00
2025-11-08T02:09:27.635,12.698,can0  206  [16]  A3 0C D3 07 A3 0C 99 C6 E9 07 BF 0C A7 0C 00 00
2025-11-08T02:09:27.635,12.698,can0  204  [16]  17 1A 50 46 50 46 50 46 FA 19 20 4E 30 75 00 00
2025-11-08T02:09:27.636,12.698,can0  041  [04]  9F 00 00 00
2025-11-08T02:09:27.636,12.698,can0  204  [16]  17 1A 50 46 50 46 50 46 FA 19 20 4E 30 75 00 00
2025-11-08T02:09:27.636,12.699,can0  204  [16]  17 1A 50 46 50 46 50 46 FA 19 20 4E 30 75 00 00
2025-11-08T02:09:27.637,12.699,can0  206  [16]  AB 0C D6 07 9F 0C 3A DF ED 07 C3 0C A3 0C 00 00
2025-11-08T02:09:27.637,12.699,can0  204  [16]  17 1A 50 46 50 46 50 46 FA 19 20 4E 30 75 00 00
2025-11-08T02:09:27.637,12.699,can0  204  [16]  17 1A 50 46 50 46 50 46 FA 19 20 4E 30 75 00 00
2025-11-08T02:09:27.637,12.700,can0  206  [16]  AF 0C D8 07 9B 0C 99 C6 EB 07 C7 0C 9F 0C 00 00
2025-11-08T02:09:28.017,13.080,can0  041  [04]  2F 00 02 00
2025-11-08T02:09:28.018,13.080,can0  204  [16]  17 1A 50 46 50 46 50 46 FA 19 20 4E 30 75 00 00
2025-11-08T02:09:28.019,13.081,can0  204  [16]  17 1A 50 46 50 46 50 46 FA 19 20 4E 30 75 00 00
2025-11-08T02:09:28.019,13.081,can0  204  [16]  17 1A 50 46 50 46 50 46 FA 19 20 4E 30 75 00 00
2025-11-08T02:09:28.019,13.081,can0  206  [16]  A3 0C D6 07 9F 0C 3A DF EB 07 C3 0C A7 0C 00 00
2025-11-08T02:09:28.019,13.081,can0  204  [16]  17 1A 50 46 50 46 50 46 FA 19 20 4E 30 75 00 00
2025-11-08T02:09:28.019,13.081,can0  204  [16]  17 1A 50 46 50 46 50 46 FA 19 20 4E 30 75 00 00
2025-11-08T02:09:28.019,13.081,can0  041  [04]  2F 00 02 00
2025-11-08T02:09:28.019,13.082,can0  204  [16]  17 1A 50 46 50 46 50 46 FA 19 20 4E 30 75 00 00
2025-11-08T02:09:28.019,13.082,can0  206  [16]  A3 0C D8 07 9F 0C 57 E3 ED 07 C7 0C A7 0C 00 00
2025-11-08T02:09:28.401,13.464,can0  204  [16]  17 1A 50 46 50 46 50 46 FA 19 20 4E 30 75 00 00
2025-11-08T02:09:28.402,13.464,can0  204  [16]  17 1A 50 46 50 46 50 46 FA 19 20 4E 30 75 00 00
2025-11-08T02:09:28.402,13.465,can0  206  [16]  9F 0C D8 07 9B 0C 99 C6 EB 07 BF 0C AB 0C 00 00
2025-11-08T02:09:28.402,13.465,can0  204  [16]  17 1A 50 46 50 46 50 46 FA 19 20 4E 30 75 00 00
2025-11-08T02:09:28.402,13.465,can0  041  [04]  2F 00 02 00
2025-11-08T02:09:28.402,13.465,can0  204  [16]  17 1A 50 46 50 46 50 46 FA 19 20 4E 30 75 00 00
2025-11-08T02:09:28.402,13.465,can0  204  [16]  17 1A 50 46 50 46 50 46 FA 19 20 4E 30 75 00 00
2025-11-08T02:09:28.402,13.465,can0  206  [16]  9F 0C D8 07 9F 0C 3A DF E7 07 C3 0C A7 0C 00 00
2025-11-08T02:09:28.403,13.465,can0  204  [16]  17 1A 50 46 50 46 50 46 FA 19 20 4E 30 75 00 00
2025-11-08T02:09:28.784,13.847,can0  204  [16]  17 1A 50 46 50 46 50 46 FA 19 20 4E 30 75 00 00
2025-11-08T02:09:28.785,13.847,can0  041  [04]  2F 00 02 00
2025-11-08T02:09:28.785,13.848,can0  206  [16]  A3 0C DC 07 97 0C DA DC EB 07 C7 0C AB 0C 00 00
2025-11-08T02:09:28.785,13.848,can0  204  [16]  17 1A 50 46 50 46 50 46 FA 19 20 4E 30 75 00 00
2025-11-08T02:09:28.785,13.848,can0  204  [16]  17 1A 50 46 50 46 50 46 FA 19 20 4E 30 75 00 00
2025-11-08T02:09:28.785,13.848,can0  204  [16]  17 1A 50 46 50 46 50 46 FA 19 20 4E 30 75 00 00
2025-11-08T02:09:28.785,13.848,can0  206  [16]  A3 0C DA 07 9B 0C 3A DF ED 07 CF 0C A7 0C 00 00
2025-11-08T02:09:28.785,13.848,can0  204  [16]  17 1A 50 46 50 46 50 46 FA 19 20 4E 30 75 00 00
2025-11-08T02:09:28.785,13.848,can0  041  [04]  8B 00 02 00
2025-11-08T02:09:28.786,13.848,can0  204  [16]  17 1A 50 46 50 46 50 46 FA 19 20 4E 30 75 00 00
2025-11-08T02:09:29.269,14.332,can0  204  [16]  17 1A 50 46 50 46 50 46 FA 19 20 4E 30 75 00 00
2025-11-08T02:09:29.269,14.332,can0  206  [16]  9F 0C D3 07 9B 0C DA DC ED 07 C3 0C AB 0C 00 00
2025-11-08T02:09:29.271,14.334,can0  204  [16]  17 1A 50 46 50 46 50 46 FA 19 20 4E 30 75 00 00
2025-11-08T02:09:29.272,14.334,can0  204  [16]  17 1A 50 46 50 46 50 46 FA 19 20 4E 30 75 00 00
2025-11-08T02:09:29.272,14.334,can0  206  [16]  B3 0C DA 07 9F 0C DA DC EF 07 C7 0C 93 0C 00 00
2025-11-08T02:09:29.272,14.334,can0  204  [16]  17 1A 50 46 50 46 50 46 FA 19 20 4E 30 75 00 00
2025-11-08T02:09:29.272,14.334,can0  041  [04]  2F 00 02 00
2025-11-08T02:09:29.272,14.334,can0  204  [16]  17 1A 50 46 50 46 50 46 FA 19 20 4E 30 75 00 00
2025-11-08T02:09:29.272,14.334,can0  204  [16]  17 1A 50 46 50 46 50 46 FA 19 20 4E 30 75 00 00
2025-11-08T02:09:29.272,14.334,can0  206  [16]  9F 0C D8 07 9F 0C B1 E0 EB 07 C3 0C AF 0C 00 00
2025-11-08T02:09:29.272,14.334,can0  204  [16]  17 1A 50 46 50 46 50 46 FA 19 20 4E 30 75 00 00
2025-11-08T02:09:29.272,14.334,can0  204  [16]  17 1A 50 46 50 46 50 46 FA 19 20 4E 30 75 00 00
2025-11-08T02:09:29.272,14.334,can0  041  [04]  2F 00 02 00
2025-11-08T02:09:29.659,14.722,can0  206  [16]  B3 0C D6 07 8F 0C 3A DF EB 07 C3 0C A3 0C 00 00
2025-11-08T02:09:29.661,14.723,can0  204  [16]  17 1A 50 46 50 46 50 46 FA 19 20 4E 30 75 00 00
2025-11-08T02:09:29.661,14.724,can0  204  [16]  17 1A 50 46 50 46 50 46 FA 19 20 4E 30 75 00 00
2025-11-08T02:09:29.661,14.724,can0  204  [16]  17 1A 50 46 50 46 50 46 FA 19 20 4E 30 75 00 00
2025-11-08T02:09:29.661,14.724,can0  206  [16]  A7 0C DE 07 9B 0C DA DC E9 07 C3 0C A3 0C 00 00
2025-11-08T02:09:29.661,14.724,can0  204  [16]  17 1A 50 46 50 46 50 46 FA 19 20 4E 30 75 00 00
2025-11-08T02:09:29.661,14.724,can0  041  [04]  2F 00 02 00
2025-11-08T02:09:29.661,14.724,can0  204  [16]  17 1A 50 46 50 46 50 46 FA 19 20 4E 30 75 00 00
2025-11-08T02:09:29.661,14.724,can0  204  [16]  17 1A 50 46 50 46 50 46 FA 19 20 4E 30 75 00 00
2025-11-08T02:09:29.661,14.724,can0  206  [16]  A7 0C D8 07 9B 0C DA DC EB 07 CB 0C A7 0C 00 00
2025-11-08T02:09:29.661,14.724,can0  204  [16]  17 1A 50 46 50 46 50 46 FA 19 20 4E 30 75 00 00
2025-11-08T02:09:30.133,15.195,can0  204  [16]  17 1A 50 46 50 46 50 46 FA 19 20 4E 30 75 00 00
2025-11-08T02:09:30.133,15.195,can0  206  [16]  A3 0C D3 07 9F 0C DA DC EF 07 C7 0C A7 0C 00 00
2025-11-08T02:09:30.133,15.196,can0  041  [04]  8B 00 02 00
2025-11-08T02:09:30.134,15.196,can0  204  [16]  17 1A 50 46 50 46 50 46 FA 19 20 4E 30 75 00 00
2025-11-08T02:09:30.134,15.196,can0  204  [16]  17 1A 50 46 50 46 50 46 FA 19 20 4E 30 75 00 00
2025-11-08T02:09:30.134,15.197,can0  204  [16]  17 1A 50 46 50 46 50 46 FA 19 20 4E 30 75 00 00
2025-11-08T02:09:30.135,15.197,can0  206  [16]  9F 0C D8 07 9F 0C DA DC EB 07 BB 0C AB 0C 00 00
2025-11-08T02:09:30.135,15.198,can0  204  [16]  17 1A 50 46 50 46 50 46 FA 19 20 4E 30 75 00 00
2025-11-08T02:09:30.135,15.198,can0  204  [16]  17 1A 50 46 50 46 50 46 FA 19 20 4E 30 75 00 00
2025-11-08T02:09:30.136,15.198,can0  041  [04]  B5 00 02 00
2025-11-08T02:09:30.136,15.199,can0  204  [16]  17 1A 50 46 50 46 50 46 FA 19 20 4E 30 75 00 00
2025-11-08T02:09:30.136,15.199,can0  206  [16]  A3 0C D8 07 A3 0C 3A DF E9 07 C3 0C A3 0C 00 00
2025-11-08T02:09:30.752,15.814,can0  204  [16]  17 1A 50 46 50 46 50 46 FA 19 20 4E 30 75 00 00
2025-11-08T02:09:30.756,15.818,can0  204  [16]  17 1A 50 46 50 46 50 46 FA 19 20 4E 30 75 00 00
2025-11-08T02:09:30.756,15.818,can0  206  [16]  A3 0C D6 07 97 0C DA DC EF 07 BF 0C AB 0C 00 00
2025-11-08T02:09:30.756,15.818,can0  204  [16]  17 1A 50 46 50 46 50 46 FA 19 20 4E 30 75 00 00
2025-11-08T02:09:30.756,15.818,can0  041  [04]  B5 00 02 00
2025-11-08T02:09:30.756,15.818,can0  204  [16]  17 1A 50 46 50 46 50 46 FA 19 20 4E 30 75 00 00
2025-11-08T02:09:30.756,15.818,can0  204  [16]  17 1A 50 46 50 46 50 46 FA 19 20 4E 30 75 00 00
2025-11-08T02:09:30.756,15.818,can0  206  [16]  AB 0C D3 07 9B 0C 99 C6 E7 07 C3 0C 9F 0C 00 00
2025-11-08T02:09:30.756,15.818,can0  204  [16]  17 1A 50 46 50 46 50 46 FA 19 20 4E 30 75 00 00
2025-11-08T02:09:30.756,15.818,can0  204  [16]  17 1A 50 46 50 46 50 46 FA 19 20 4E 30 75 00 00
2025-11-08T02:09:30.756,15.819,can0  041  [04]  B5 00 02 00
2025-11-08T02:09:30.756,15.819,can0  204  [16]  17 1A 50 46 50 46 50 46 FA 19 20 4E 30 75 00 00
2025-11-08T02:09:30.757,15.819,can0  206  [16]  A7 0C D6 07 9F 0C 3A DF ED 07 BF 0C A3 0C 00 00
2025-11-08T02:09:30.758,15.821,can0  204  [16]  17 1A 50 46 50 46 50 46 FA 19 20 4E 30 75 00 00
2025-11-08T02:09:30.758,15.821,can0  204  [16]  17 1A 50 46 50 46 50 46 FA 19 20 4E 30 75 00 00
2025-11-08T02:09:31.379,16.441,can0  206  [16]  A3 0C D6 07 9B 0C 99 C6 EB 07 CF 0C A7 0C 00 00
2025-11-08T02:09:31.381,16.443,can0  204  [16]  17 1A 50 46 50 46 50 46 FA 19 20 4E 30 75 00 00
2025-11-08T02:09:31.381,16.444,can0  041  [04]  B5 00 02 00
2025-11-08T02:09:31.382,16.444,can0  204  [16]  17 1A 50 46 50 46 50 46 FA 19 20 4E 30 75 00 00
2025-11-08T02:09:31.383,16.445,can0  204  [16]  17 1A 50 46 50 46 50 46 FA 19 20 4E 30 75 00 00
2025-11-08T02:09:31.383,16.446,can0  206  [16]  97 0C D3 07 A3 0C B1 E0 EB 07 BF 0C AF 0C 00 00
2025-11-08T02:09:31.386,16.449,can0  204  [16]  17 1A 50 46 50 46 50 46 FA 19 20 4E 30 75 00 00
2025-11-08T02:09:31.387,16.449,can0  204  [16]  17 1A 50 46 50 46 50 46 FA 19 20 4E 30 75 00 00
2025-11-08T02:09:31.388,16.451,can0  204  [16]  17 1A 50 46 50 46 50 46 FA 19 20 4E 30 75 00 00
2025-11-08T02:09:31.388,16.451,can0  206  [16]  9F 0C D6 07 A3 0C 3A DF EB 07 BF 0C A7 0C 00 00
2025-11-08T02:09:31.388,16.451,can0  041  [04]  B5 00 02 00
2025-11-08T02:09:31.388,16.451,can0  204  [16]  17 1A 50 46 50 46 50 46 FA 19 20 4E 30 75 00 00
2025-11-08T02:09:31.388,16.451,can0  204  [16]  17 1A 50 46 50 46 50 46 FA 19 20 4E 30 75 00 00
2025-11-08T02:09:31.388,16.451,can0  206  [16]  93 0C D8 07 AB 0C 3A DF ED 07 BB 0C AB 0C 00 00
2025-11-08T02:09:31.388,16.451,can0  204  [16]  17 1A 50 46 50 46 50 46 FA 19 20 4E 30 75 00 00
2025-11-08T02:09:31.388,16.451,can0  204  [16]  17 1A 50 46 50 46 50 46 FA 19 20 4E 30 75 00 00
2025-11-08T02:09:31.389,16.451,can0  041  [04]  B5 00 02 00
2025-11-08T02:09:32.014,17.076,can0  204  [16]  17 1A 50 46 50 46 50 46 FA 19 20 4E 30 75 00 00
2025-11-08T02:09:32.017,17.080,can0  206  [16]  9B 0C D1 07 9F 0C 99 C6 EB 07 C3 0C AB 0C 00 00
2025-11-08T02:09:32.017,17.080,can0  204  [16]  17 1A 50 46 50 46 50 46 FA 19 20 4E 30 75 00 00
2025-11-08T02:09:32.017,17.080,can0  204  [16]  17 1A 50 46 50 46 50 46 FA 19 20 4E 30 75 00 00
2025-11-08T02:09:32.017,17.080,can0  204  [16]  17 1A 50 46 50 46 50 46 FA 19 20 4E 30 75 00 00
2025-11-08T02:09:32.017,17.080,can0  206  [16]  9B 0C DA 07 9F 0C DA DC ED 07 BF 0C AB 0C 00 00
2025-11-08T02:09:32.017,17.080,can0  041  [04]  B5 00 02 00
2025-11-08T02:09:32.017,17.080,can0  204  [16]  17 1A 50 46 50 46 50 46 FA 19 20 4E 30 75 00 00
2025-11-08T02:09:32.017,17.080,can0  204  [16]  17 1A 50 46 50 46 50 46 FA 19 20 4E 30 75 00 00
2025-11-08T02:09:32.017,17.080,can0  206  [16]  9F 0C DC 07 A7 0C B1 E0 EF 07 C3 0C A7 0C 00 00
2025-11-08T02:09:32.017,17.080,can0  204  [16]  17 1A 50 46 50 46 50 46 FA 19 20 4E 30 75 00 00
2025-11-08T02:09:32.017,17.080,can0  204  [16]  17 1A 50 46 50 46 50 46 FA 19 20 4E 30 75 00 00
2025-11-08T02:09:32.018,17.080,can0  041  [04]  B5 00 02 00
2025-11-08T02:09:32.018,17.080,can0  204  [16]  17 1A 50 46 50 46 50 46 FA 19 20 4E 30 75 00 00
2025-11-08T02:09:32.018,17.081,can0  206  [16]  9F 0C D6 07 A3 0C 3A DF EF 07 C7 0C A7 0C 00 00
2025-11-08T02:09:32.019,17.081,can0  204  [16]  17 1A 50 46 50 46 50 46 FA 19 20 4E 30 75 00 00
2025-11-08T02:09:32.432,17.495,can0  204  [16]  17 1A 50 46 50 46 50 46 FA 19 20 4E 30 75 00 00
2025-11-08T02:09:32.433,17.495,can0  204  [16]  17 1A 50 46 50 46 50 46 FA 19 20 4E 30 75 00 00
2025-11-08T02:09:32.433,17.495,can0  206  [16]  9B 0C D6 07 9F 0C DA DC ED 07 AB 0C AF 0C 00 00
2025-11-08T02:09:32.433,17.496,can0  204  [16]  17 1A 50 46 50 46 50 46 FA 19 20 4E 30 75 00 00
2025-11-08T02:09:32.433,17.496,can0  041  [04]  B5 00 02 00
2025-11-08T02:09:32.434,17.496,can0  204  [16]  17 1A 50 46 50 46 50 46 FA 19 20 4E 30 75 00 00
2025-11-08T02:09:32.434,17.496,can0  206  [16]  97 0C D8 07 9F 0C DA DC EB 07 BF 0C B3 0C 00 00
2025-11-08T02:09:32.434,17.497,can0  204  [16]  17 1A 50 46 50 46 50 46 FA 19 20 4E 30 75 00 00
2025-11-08T02:09:32.435,17.497,can0  204  [16]  17 1A 50 46 50 46 50 46 FA 19 20 4E 30 75 00 00
2025-11-08T02:09:32.435,17.497,can0  204  [16]  17 1A 50 46 50 46 50 46 FA 19 20 4E 30 75 00 00
2025-11-08T02:09:32.435,17.498,can0  206  [16]  A3 0C D8 07 9F 0C DA DC ED 07 BF 0C A7 0C 00 00
2025-11-08T02:09:32.811,17.873,can0  041  [04]  B5 00 02 00
2025-11-08T02:09:32.811,17.874,can0  204  [16]  17 1A 50 46 50 46 50 46 FA 19 20 4E 30 75 00 00
2025-11-08T02:09:32.812,17.874,can0  204  [16]  17 1A 50 46 50 46 50 46 FA 19 20 4E 30 75 00 00
2025-11-08T02:09:32.812,17.875,can0  206  [16]  AF 0C D6 07 9B 0C DA DC EB 07 C3 0C 9B 0C 00 00
2025-11-08T02:09:32.812,17.875,can0  204  [16]  17 1A 50 46 50 46 50 46 FA 19 20 4E 30 75 00 00
2025-11-08T02:09:32.813,17.875,can0  204  [16]  17 1A 50 46 50 46 50 46 FA 19 20 4E 30 75 00 00
2025-11-08T02:09:32.813,17.876,can0  041  [04]  B5 00 02 00
2025-11-08T02:09:32.813,17.876,can0  204  [16]  17 1A 50 46 50 46 50 46 FA 19 20 4E 30 75 00 00
2025-11-08T02:09:32.813,17.876,can0  206  [16]  9B 0C D6 07 A3 0C B1 E0 EF 07 C7 0C AB 0C 00 00
2025-11-08T02:09:32.814,17.876,can0  204  [16]  17 1A 50 46 50 46 50 46 FA 19 20 4E 30 75 00 00
2025-11-08T02:09:33.199,18.261,can0  204  [16]  17 1A 50 46 50 46 50 46 FA 19 20 4E 30 75 00 00
2025-11-08T02:09:33.199,18.262,can0  204  [16]  17 1A 50 46 50 46 50 46 FA 19 20 4E 30 75 00 00
2025-11-08T02:09:33.199,18.262,can0  206  [16]  9B 0C D8 07 A3 0C 99 C6 ED 07 BB 0C AB 0C 00 00
2025-11-08T02:09:33.200,18.262,can0  204  [16]  17 1A 50 46 50 46 50 46 FA 19 20 4E 30 75 00 00
2025-11-08T02:09:33.201,18.263,can0  041  [04]  B5 00 02 00
2025-11-08T02:09:33.201,18.263,can0  204  [16]  17 1A 50 46 50 46 50 46 FA 19 20 4E 30 75 00 00
2025-11-08T02:09:33.201,18.264,can0  204  [16]  17 1A 50 46 50 46 50 46 FA 19 20 4E 30 75 00 00
2025-11-08T02:09:33.201,18.264,can0  206  [16]  A3 0C D6 07 97 0C DA DC E9 07 BF 0C AB 0C 00 00
2025-11-08T02:09:33.201,18.264,can0  204  [16]  17 1A 50 46 50 46 50 46 FA 19 20 4E 30 75 00 00
2025-11-08T02:09:33.588,18.650,can0  204  [16]  17 1A 50 46 50 46 50 46 FA 19 20 4E 30 75 00 00
2025-11-08T02:09:33.588,18.651,can0  041  [04]  B5 00 02 00
2025-11-08T02:09:33.589,18.652,can0  206  [16]  A3 0C D3 07 97 0C 99 C6 ED 07 C7 0C A7 0C 00 00
2025-11-08T02:09:33.589,18.652,can0  204  [16]  17 1A 50 46 50 46 50 46 FA 19 20 4E 30 75 00 00
2025-11-08T02:09:33.590,18.652,can0  204  [16]  17 1A 50 46 50 46 50 46 FA 19 20 4E 30 75 00 00
2025-11-08T02:09:33.590,18.652,can0  204  [16]  17 1A 50 46 50 46 50 46 FA 19 20 4E 30 75 00 00
2025-11-08T02:09:33.590,18.653,can0  206  [16]  A7 0C DA 07 9F 0C 3A DF EB 07 B7 0C A3 0C 00 00
2025-11-08T02:09:33.590,18.653,can0  204  [16]  17 1A 50 46 50 46 50 46 FA 19 20 4E 30 75 00 00
2025-11-08T02:09:33.590,18.653,can0  041  [04]  B5 00 00 00
2025-11-08T02:09:33.591,18.653,can0  204  [16]  17 1A 50 46 50 46 50 46 FA 19 20 4E 30 75 00 00
2025-11-08T02:09:34.065,19.128,can0  206  [16]  A3 0C DE 07 A3 0C DA DC ED 07 9F 0C A3 0C 00 00
2025-11-08T02:09:34.065,19.128,can0  204  [16]  17 1A 50 46 50 46 50 46 FA 19 20 4E 30 75 00 00
2025-11-08T02:09:34.066,19.128,can0  204  [16]  17 1A 50 46 50 46 50 46 FA 19 20 4E 30 75 00 00
2025-11-08T02:09:34.066,19.128,can0  204  [16]  17 1A 50 46 50 46 50 46 FA 19 20 4E 30 75 00 00
2025-11-08T02:09:34.066,19.129,can0  206  [16]  9F 0C DC 07 9F 0C 3A DF EF 07 BF 0C AB 0C 00 00
2025-11-08T02:09:34.067,19.130,can0  041  [04]  8B 00 00 00
2025-11-08T02:09:34.067,19.130,can0  204  [16]  17 1A 50 46 50 46 50 46 FA 19 20 4E 30 75 00 00
2025-11-08T02:09:34.067,19.130,can0  204  [16]  17 1A 50 46 50 46 50 46 FA 19 20 4E 30 75 00 00
2025-11-08T02:09:34.067,19.130,can0  204  [16]  17 1A 50 46 50 46 50 46 FA 19 20 4E 30 75 00 00
2025-11-08T02:09:34.068,19.130,can0  206  [16]  A7 0C D6 07 93 0C B1 E0 ED 07 C3 0C AB 0C 00 00
2025-11-08T02:09:34.068,19.131,can0  204  [16]  17 1A 50 46 50 46 50 46 FA 19 20 4E 30 75 00 00
2025-11-08T02:09:34.068,19.131,can0  204  [16]  17 1A 50 46 50 46 50 46 FA 19 20 4E 30 75 00 00
2025-11-08T02:09:34.069,19.131,can0  041  [04]  8B 00 00 00
2025-11-08T02:09:34.459,19.522,can0  206  [16]  9F 0C D6 07 9F 0C C5 E1 E3 07 BF 0C AB 0C 00 00
2025-11-08T02:09:34.460,19.523,can0  204  [16]  17 1A 50 46 50 46 50 46 FA 19 20 4E 30 75 00 00
2025-11-08T02:09:34.460,19.523,can0  204  [16]  17 1A 50 46 50 46 50 46 FA 19 20 4E 30 75 00 00
2025-11-08T02:09:34.461,19.524,can0  204  [16]  17 1A 50 46 50 46 50 46 FA 19 20 4E 30 75 00 00
2025-11-08T02:09:34.461,19.524,can0  206  [16]  A3 0C D8 07 A3 0C 99 C6 ED 07 C7 0C A3 0C 00 00
2025-11-08T02:09:34.461,19.524,can0  204  [16]  17 1A 50 46 50 46 50 46 FA 19 20 4E 30 75 00 00
2025-11-08T02:09:34.461,19.524,can0  041  [04]  2F 00 00 00
2025-11-08T02:09:34.461,19.524,can0  204  [16]  17 1A 50 46 50 46 50 46 FA 19 20 4E 30 75 00 00
2025-11-08T02:09:34.461,19.524,can0  204  [16]  17 1A 50 46 50 46 50 46 FA 19 20 4E 30 75 00 00
2025-11-08T02:09:34.461,19.524,can0  206  [16]  A3 0C D6 07 8B 0C 3A DF ED 07 D3 0C A7 0C 00 00
2025-11-08T02:09:34.852,19.914,can0  204  [16]  17 1A 50 46 50 46 50 46 FA 19 20 4E 30 75 00 00
2025-11-08T02:09:34.852,19.915,can0  204  [16]  17 1A 50 46 50 46 50 46 FA 19 20 4E 30 75 00 00
2025-11-08T02:09:34.852,19.915,can0  041  [04]  8B 00 00 00
2025-11-08T02:09:34.852,19.915,can0  206  [16]  AB 0C D6 07 14 0D DA DC ED 07 46 0C A3 0C 00 00
2025-11-08T02:09:34.852,19.915,can0  204  [16]  17 1A 50 46 50 46 50 46 FA 19 20 4E 30 75 00 00
2025-11-08T02:09:34.853,19.915,can0  204  [16]  17 1A 50 46 50 46 50 46 FA 19 20 4E 30 75 00 00
2025-11-08T02:09:34.853,19.916,can0  204  [16]  17 1A 50 46 50 46 50 46 FA 19 20 4E 30 75 00 00
2025-11-08T02:09:34.854,19.916,can0  206  [16]  A3 0C D6 07 97 0C A0 E2 EB 07 BF 0C AB 0C 00 00
2025-11-08T02:09:34.854,19.916,can0  204  [16]  17 1A 50 46 50 46 50 46 FA 19 20 4E 30 75 00 00
2025-11-08T02:09:35.247,20.310,can0  041  [04]  B5 00 00 00
2025-11-08T02:09:35.248,20.310,can0  204  [16]  17 1A 50 46 50 46 50 46 FA 19 20 4E 30 75 00 00
2025-11-08T02:09:35.248,20.311,can0  204  [16]  17 1A 50 46 50 46 50 46 FA 19 20 4E 30 75 00 00
2025-11-08T02:09:35.248,20.311,can0  206  [16]  A7 0C D3 07 9B 0C DA DC EB 07 BF 0C A3 0C 00 00
2025-11-08T02:09:35.248,20.311,can0  204  [16]  17 1A 50 46 50 46 50 46 FA 19 20 4E 30 75 00 00
2025-11-08T02:09:35.248,20.311,can0  204  [16]  17 1A 50 46 50 46 50 46 FA 19 20 4E 30 75 00 00
2025-11-08T02:09:35.248,20.311,can0  206  [16]  B3 0C D8 07 9B 0C 99 C6 EF 07 BF 0C 9B 0C 00 00
2025-11-08T02:09:35.248,20.311,can0  041  [04]  B5 00 00 00
2025-11-08T02:09:35.248,20.311,can0  204  [16]  17 1A 50 46 50 46 50 46 FA 19 20 4E 30 75 00 00
2025-11-08T02:09:35.249,20.311,can0  204  [16]  17 1A 50 46 50 46 50 46 FA 19 20 4E 30 75 00 00
2025-11-08T02:09:35.249,20.311,can0  204  [16]  17 1A 50 46 50 46 50 46 FA 19 20 4E 30 75 00 00
2025-11-08T02:09:35.636,20.698,can0  206  [16]  9F 0C D6 07 9B 0C DA DC ED 07 D3 0C AB 0C 00 00
2025-11-08T02:09:35.636,20.698,can0  204  [16]  17 1A 50 46 50 46 50 46 FA 19 20 4E 30 75 00 00
2025-11-08T02:09:35.636,20.699,can0  204  [16]  17 1A 50 46 50 46 50 46 FA 19 20 4E 30 75 00 00
2025-11-08T02:09:35.637,20.700,can0  041  [04]  2F 00 00 00
2025-11-08T02:09:35.638,20.700,can0  204  [16]  17 1A 50 46 50 46 50 46 FA 19 20 4E 30 75 00 00
2025-11-08T02:09:35.638,20.700,can0  206  [16]  9F 0C D3 07 A7 0C 3A DF DC 07 BB 0C AB 0C 00 00
2025-11-08T02:09:35.638,20.700,can0  204  [16]  17 1A 50 46 50 46 50 46 FA 19 20 4E 30 75 00 00
2025-11-08T02:09:35.638,20.700,can0  204  [16]  17 1A 50 46 50 46 50 46 FA 19 20 4E 30 75 00 00
2025-11-08T02:09:36.033,21.095,can0  206  [16]  A3 0C D8 07 9F 0C 3A DF EB 07 C3 0C A7 0C 00 00
2025-11-08T02:09:36.034,21.096,can0  204  [16]  17 1A 50 46 50 46 50 46 FA 19 20 4E 30 75 00 00
2025-11-08T02:09:36.034,21.097,can0  041  [04]  2F 00 02 00
2025-11-08T02:09:36.034,21.097,can0  204  [16]  17 1A 50 46 50 46 50 46 FA 19 20 4E 30 75 00 00
2025-11-08T02:09:36.034,21.097,can0  204  [16]  17 1A 50 46 50 46 50 46 FA 19 20 4E 30 75 00 00
2025-11-08T02:09:36.034,21.097,can0  206  [16]  A7 0C D6 07 9F 0C 99 C6 EB 07 BB 0C A7 0C 00 00
2025-11-08T02:09:36.034,21.097,can0  204  [16]  17 1A 50 46 50 46 50 46 FA 19 20 4E 30 75 00 00
2025-11-08T02:09:36.035,21.098,can0  204  [16]  17 1A 50 46 50 46 50 46 FA 19 20 4E 30 75 00 00
2025-11-08T02:09:36.036,21.098,can0  041  [04]  2F 00 02 00
2025-11-08T02:09:36.036,21.098,can0  204  [16]  17 1A 50 46 50 46 50 46 FA 19 20 4E 30 75 00 00
2025-11-08T02:09:36.036,21.098,can0  206  [16]  A7 0C D6 07 9F 0C DA DC EB 07 BF 0C A3 0C 00 00
2025-11-08T02:09:36.036,21.098,can0  204  [16]  17 1A 50 46 50 46 50 46 FA 19 20 4E 30 75 00 00
2025-11-08T02:09:36.393,21.456,can0  204  [16]  17 1A 50 46 50 46 50 46 FA 19 20 4E 30 75 00 00
2025-11-08T02:09:36.394,21.456,can0  206  [16]  A7 0C DA 07 9B 0C DA DC ED 07 BF 0C A3 0C 00 00
2025-11-08T02:09:36.394,21.456,can0  204  [16]  17 1A 50 46 50 46 50 46 FA 19 20 4E 30 75 00 00
2025-11-08T02:09:36.394,21.456,can0  041  [04]  02 00 02 00
2025-11-08T02:09:36.394,21.457,can0  204  [16]  17 1A 50 46 50 46 50 46 FA 19 20 4E 30 75 00 00
2025-11-08T02:09:36.395,21.458,can0  204  [16]  17 1A 50 46 50 46 50 46 FA 19 20 4E 30 75 00 00
2025-11-08T02:09:36.395,21.458,can0  206  [16]  9F 0C D6 07 A3 0C B1 E0 ED 07 B7 0C A7 0C 00 00
2025-11-08T02:09:36.395,21.458,can0  204  [16]  17 1A 50 46 50 46 50 46 FA 19 20 4E 30 75 00 00
2025-11-08T02:09:36.395,21.458,can0  204  [16]  17 1A 50 46 50 46 50 46 FA 19 20 4E 30 75 00 00
2025-11-08T02:09:36.733,21.795,can0  204  [16]  17 1A 50 46 50 46 50 46 FA 19 20 4E 30 75 00 00
2025-11-08T02:09:36.734,21.796,can0  206  [16]  A7 0C E0 07 97 0C 99 C6 F2 07 C3 0C A3 0C 00 00
2025-11-08T02:09:36.734,21.796,can0  041  [04]  8B 00 02 00
2025-11-08T02:09:36.734,21.796,can0  204  [16]  17 1A 50 46 50 46 50 46 FA 19 20 4E 30 75 00 00
2025-11-08T02:09:36.734,21.796,can0  204  [16]  17 1A 50 46 50 46 50 46 FA 19 20 4E 30 75 00 00
2025-11-08T02:09:36.734,21.796,can0  206  [16]  AB 0C D1 07 9B 0C 3A DF EB 07 C7 0C 9F 0C 00 00
2025-11-08T02:09:36.734,21.797,can0  204  [16]  17 1A 50 46 50 46 50 46 FA 19 20 4E 30 75 00 00
2025-11-08T02:09:36.734,21.797,can0  204  [16]  17 1A 50 46 50 46 50 46 FA 19 20 4E 30 75 00 00
2025-11-08T02:09:36.735,21.798,can0  041  [04]  B5 00 02 00
2025-11-08T02:09:36.735,21.798,can0  204  [16]  17 1A 50 46 50 46 50 46 FA 19 20 4E 30 75 00 00
2025-11-08T02:09:37.095,22.157,can0  206  [16]  9F 0C D8 07 A7 0C DA DC EB 07 BB 0C A7 0C 00 00
2025-11-08T02:09:37.095,22.157,can0  204  [16]  17 1A 50 46 50 46 50 46 FA 19 20 4E 30 75 00 00
2025-11-08T02:09:37.095,22.158,can0  204  [16]  17 1A 50 46 50 46 50 46 FA 19 20 4E 30 75 00 00
2025-11-08T02:09:37.095,22.158,can0  206  [16]  A3 0C D8 07 97 0C DA DC EB 07 C3 0C AB 0C 00 00
2025-11-08T02:09:37.095,22.158,can0  204  [16]  17 1A 50 46 50 46 50 46 FA 19 20 4E 30 75 00 00
2025-11-08T02:09:37.095,22.158,can0  041  [04]  8B 00 02 00
2025-11-08T02:09:37.096,22.158,can0  204  [16]  17 1A 50 46 50 46 50 46 FA 19 20 4E 30 75 00 00
2025-11-08T02:09:37.494,22.556,can0  204  [16]  17 1A 50 46 50 46 50 46 FA 19 20 4E 30 75 00 00
2025-11-08T02:09:37.495,22.557,can0  206  [16]  9B 0C DA 07 9B 0C 99 C6 EB 07 C7 0C AB 0C 00 00
2025-11-08T02:09:37.495,22.557,can0  204  [16]  17 1A 50 46 50 46 50 46 FA 19 20 4E 30 75 00 00
2025-11-08T02:09:37.495,22.557,can0  204  [16]  17 1A 50 46 50 46 50 46 FA 19 20 4E 30 75 00 00
2025-11-08T02:09:37.495,22.557,can0  041  [04]  2F 00 02 00
2025-11-08T02:09:37.495,22.557,can0  204  [16]  17 1A 50 46 50 46 50 46 FA 19 20 4E 30 75 00 00
2025-11-08T02:09:37.495,22.558,can0  206  [16]  A7 0C D6 07 9B 0C 99 C6 EB 07 C7 0C A3 0C 00 00
2025-11-08T02:09:37.497,22.559,can0  204  [16]  17 1A 50 46 50 46 50 46 FA 19 20 4E 30 75 00 00
2025-11-08T02:09:37.497,22.560,can0  204  [16]  17 1A 50 46 50 46 50 46 FA 19 20 4E 30 75 00 00
2025-11-08T02:09:37.497,22.560,can0  206  [16]  A7 0C CD 07 9F 0C C5 E1 ED 07 BF 0C A3 0C 00 00
2025-11-08T02:09:37.497,22.560,can0  204  [16]  17 1A 50 46 50 46 50 46 FA 19 20 4E 30 75 00 00
2025-11-08T02:09:37.497,22.560,can0  204  [16]  17 1A 50 46 50 46 50 46 FA 19 20 4E 30 75 00 00
2025-11-08T02:09:37.497,22.560,can0  041  [04]  02 00 00 00
2025-11-08T02:09:37.858,22.921,can0  204  [16]  17 1A 50 46 50 46 50 46 FA 19 20 4E 30 75 00 00
2025-11-08T02:09:37.859,22.921,can0  206  [16]  9B 0C D6 07 A3 0C DA DC FC 07 C3 0C AB 0C 00 00
2025-11-08T02:09:37.859,22.921,can0  204  [16]  17 1A 50 46 50 46 50 46 FA 19 20 4E 30 75 00 00
2025-11-08T02:09:37.859,22.921,can0  204  [16]  17 1A 50 46 50 46 50 46 FA 19 20 4E 30 75 00 00
2025-11-08T02:09:37.859,22.922,can0  204  [16]  17 1A 50 46 50 46 50 46 FA 19 20 4E 30 75 00 00
2025-11-08T02:09:37.859,22.922,can0  206  [16]  A7 0C CD 07 9F 0C DA DC EF 07 BF 0C A3 0C 00 00
2025-11-08T02:09:37.860,22.923,can0  041  [04]  02 00 00 00
2025-11-08T02:09:37.860,22.923,can0  204  [16]  17 1A 50 46 50 46 50 46 FA 19 20 4E 30 75 00 00
2025-11-08T02:09:37.860,22.923,can0  204  [16]  17 1A 50 46 50 46 50 46 FA 19 20 4E 30 75 00 00
2025-11-08T02:09:38.209,23.272,can0  206  [16]  5B 0C D6 07 A3 0C C5 E1 ED 07 CF 0C EC 0C 00 00
2025-11-08T02:09:38.210,23.272,can0  204  [16]  17 1A 50 46 50 46 50 46 FA 19 20 4E 30 75 00 00
2025-11-08T02:09:38.210,23.272,can0  204  [16]  17 1A 50 46 50 46 50 46 FA 19 20 4E 30 75 00 00
2025-11-08T02:09:38.211,23.273,can0  041  [04]  02 00 00 00
2025-11-08T02:09:38.211,23.273,can0  204  [16]  17 1A 50 46 50 46 50 46 FA 19 20 4E 30 75 00 00
2025-11-08T02:09:38.211,23.273,can0  206  [16]  B3 0C D3 07 9B 0C 3A DF ED 07 C3 0C 97 0C 00 00
2025-11-08T02:09:38.211,23.273,can0  204  [16]  17 1A 50 46 50 46 50 46 FA 19 20 4E 30 75 00 00
2025-11-08T02:09:38.211,23.274,can0  204  [16]  17 1A 50 46 50 46 50 46 FA 19 20 4E 30 75 00 00
2025-11-08T02:09:38.575,23.638,can0  206  [16]  A7 0C D6 07 9B 0C 3A DF F2 07 BF 0C A7 0C 00 00
2025-11-08T02:09:38.575,23.638,can0  204  [16]  17 1A 50 46 50 46 50 46 FA 19 20 4E 30 75 00 00
2025-11-08T02:09:38.575,23.638,can0  041  [04]  02 00 00 00
2025-11-08T02:09:38.575,23.638,can0  204  [16]  17 1A 50 46 50 46 50 46 FA 19 20 4E 30 75 00 00
2025-11-08T02:09:38.575,23.638,can0  204  [16]  17 1A 50 46 50 46 50 46 FA 19 20 4E 30 75 00 00
2025-11-08T02:09:38.575,23.638,can0  206  [16]  A3 0C CF 07 A3 0C DA DC EB 07 BB 0C A7 0C 00 00
2025-11-08T02:09:38.576,23.639,can0  204  [16]  17 1A 50 46 50 46 50 46 FA 19 20 4E 30 75 00 00
2025-11-08T02:09:38.576,23.639,can0  204  [16]  17 1A 50 46 50 46 50 46 FA 19 20 4E 30 75 00 00
2025-11-08T02:09:38.576,23.639,can0  204  [16]  17 1A 50 46 50 46 50 46 FA 19 20 4E 30 75 00 00
2025-11-08T02:09:38.576,23.639,can0  206  [16]  9F 0C D3 07 9F 0C 99 C6 EF 07 C3 0C AB 0C 00 00
2025-11-08T02:09:38.577,23.639,can0  041  [04]  E4 00 02 00
2025-11-08T02:09:38.949,24.012,can0  204  [16]  17 1A 50 46 50 46 50 46 FA 19 20 4E 30 75 00 00
2025-11-08T02:09:38.950,24.013,can0  204  [16]  17 1A 50 46 50 46 50 46 FA 19 20 4E 30 75 00 00
2025-11-08T02:09:38.951,24.013,can0  206  [16]  9F 0C D3 07 9B 0C B1 E0 E5 07 BF 0C AB 0C 00 00
2025-11-08T02:09:38.951,24.013,can0  204  [16]  17 1A 50 46 50 46 50 46 FA 19 20 4E 30 75 00 00
2025-11-08T02:09:38.951,24.013,can0  204  [16]  17 1A 50 46 50 46 50 46 FA 19 20 4E 30 75 00 00
2025-11-08T02:09:38.951,24.013,can0  041  [04]  02 00 02 00
2025-11-08T02:09:38.951,24.013,can0  204  [16]  17 1A 50 46 50 46 50 46 FA 19 20 4E 30 75 00 00
2025-11-08T02:09:38.951,24.013,can0  206  [16]  A3 0C D3 07 9B 0C 3A DF ED 07 C3 0C A7 0C 00 00
2025-11-08T02:09:38.951,24.014,can0  204  [16]  17 1A 50 46 50 46 50 46 FA 19 20 4E 30 75 00 00
2025-11-08T02:09:39.315,24.377,can0  204  [16]  17 1A 50 46 50 46 50 46 FA 19 20 4E 30 75 00 00
2025-11-08T02:09:39.315,24.377,can0  204  [16]  17 1A 50 46 50 46 50 46 FA 19 20 4E 30 75 00 00
2025-11-08T02:09:39.315,24.377,can0  206  [16]  9F 0C D6 07 9B 0C DA DC EF 07 C3 0C AF 0C 00 00
2025-11-08T02:09:39.315,24.377,can0  041  [04]  02 00 02 00
2025-11-08T02:09:39.315,24.377,can0  204  [16]  17 1A 50 46 50 46 50 46 FA 19 20 4E 30 75 00 00
2025-11-08T02:09:39.315,24.378,can0  204  [16]  17 1A 50 46 50 46 50 46 FA 19 20 4E 30 75 00 00
2025-11-08T02:09:39.315,24.378,can0  206  [16]  AB 0C D6 07 9B 0C 99 C6 F2 07 C3 0C A3 0C 00 00
2025-11-08T02:09:39.316,24.378,can0  204  [16]  17 1A 50 46 50 46 50 46 FA 19 20 4E 30 75 00 00
2025-11-08T02:09:39.316,24.379,can0  204  [16]  17 1A 50 46 50 46 50 46 FA 19 20 4E 30 75 00 00
2025-11-08T02:09:39.678,24.741,can0  041  [04]  02 00 02 00
2025-11-08T02:09:39.679,24.742,can0  204  [16]  17 1A 50 46 50 46 50 46 FA 19 20 4E 30 75 00 00
2025-11-08T02:09:39.679,24.742,can0  206  [16]  8F 0C D6 07 AF 0C 3A DF E9 07 BB 0C AB 0C 00 00
2025-11-08T02:09:39.679,24.742,can0  204  [16]  17 1A 50 46 50 46 50 46 FA 19 20 4E 30 75 00 00
2025-11-08T02:09:39.679,24.742,can0  204  [16]  17 1A 50 46 50 46 50 46 FA 19 20 4E 30 75 00 00
2025-11-08T02:09:39.680,24.742,can0  204  [16]  17 1A 50 46 50 46 50 46 FA 19 20 4E 30 75 00 00
2025-11-08T02:09:39.680,24.742,can0  206  [16]  A7 0C D3 07 9B 0C 99 C6 ED 07 C3 0C A3 0C 00 00
2025-11-08T02:09:39.680,24.743,can0  204  [16]  17 1A 50 46 50 46 50 46 FA 19 20 4E 30 75 00 00
2025-11-08T02:09:39.681,24.743,can0  041  [04]  3F 01 02 00
2025-11-08T02:09:39.681,24.744,can0  204  [16]  17 1A 50 46 50 46 50 46 FA 19 20 4E 30 75 00 00
2025-11-08T02:09:40.044,25.106,can0  206  [16]  AF 0C D6 07 8F 0C DA DC ED 07 BF 0C AB 0C 00 00
2025-11-08T02:09:40.044,25.107,can0  204  [16]  17 1A 50 46 50 46 50 46 FA 19 20 4E 30 75 00 00
2025-11-08T02:09:40.044,25.107,can0  204  [16]  17 1A 50 46 50 46 50 46 FA 19 20 4E 30 75 00 00
2025-11-08T02:09:40.045,25.108,can0  204  [16]  17 1A 50 46 50 46 50 46 FA 19 20 4E 30 75 00 00
2025-11-08T02:09:40.046,25.108,can0  206  [16]  97 0C D3 07 A7 0C 99 C6 EB 07 BB 0C AB 0C 00 00
2025-11-08T02:09:40.046,25.108,can0  041  [04]  02 00 02 00
2025-11-08T02:09:40.046,25.108,can0  204  [16]  17 1A 50 46 50 46 50 46 FA 19 20 4E 30 75 00 00
2025-11-08T02:09:40.046,25.108,can0  204  [16]  17 1A 50 46 50 46 50 46 FA 19 20 4E 30 75 00 00
2025-11-08T02:09:40.403,25.466,can0  204  [16]  17 1A 50 46 50 46 50 46 FA 19 20 4E 30 75 00 00
2025-11-08T02:09:40.404,25.466,can0  206  [16]  AB 0C D3 07 97 0C 99 C6 ED 07 C3 0C A3 0C 00 00
2025-11-08T02:09:40.404,25.467,can0  204  [16]  17 1A 50 46 50 46 50 46 FA 19 20 4E 30 75 00 00
2025-11-08T02:09:40.404,25.467,can0  041  [04]  02 00 00 00
2025-11-08T02:09:40.404,25.467,can0  204  [16]  17 1A 50 46 50 46 50 46 FA 19 20 4E 30 75 00 00
2025-11-08T02:09:40.404,25.467,can0  206  [16]  9B 0C D8 07 A7 0C DA DC EB 07 BF 0C A7 0C 00 00
2025-11-08T02:09:40.405,25.468,can0  204  [16]  17 1A 50 46 50 46 50 46 FA 19 20 4E 30 75 00 00
2025-11-08T02:09:40.405,25.468,can0  204  [16]  17 1A 50 46 50 46 50 46 FA 19 20 4E 30 75 00 00
2025-11-08T02:09:40.405,25.468,can0  204  [16]  17 1A 50 46 50 46 50 46 FA 19 20 4E 30 75 00 00
2025-11-08T02:09:40.406,25.468,can0  206  [16]  A3 0C CF 07 9B 0C 3A DF ED 07 C7 0C A7 0C 00 00
2025-11-08T02:09:40.792,25.855,can0  041  [04]  3F 01 00 00
2025-11-08T02:09:40.793,25.855,can0  204  [16]  17 1A 50 46 50 46 50 46 FA 19 20 4E 30 75 00 00
2025-11-08T02:09:40.793,25.855,can0  204  [16]  17 1A 50 46 50 46 50 46 FA 19 20 4E 30 75 00 00
2025-11-08T02:09:40.806,25.869,can0  206  [16]  9F 0C D8 07 97 0C 99 C6 ED 07 CF 0C AB 0C 00 00
2025-11-08T02:09:40.807,25.869,can0  204  [16]  17 1A 50 46 50 46 50 46 FA 19 20 4E 30 75 00 00
2025-11-08T02:09:40.807,25.869,can0  204  [16]  17 1A 50 46 50 46 50 46 FA 19 20 4E 30 75 00 00
2025-11-08T02:09:40.807,25.869,can0  204  [16]  17 1A 50 46 50 46 50 46 FA 19 20 4E 30 75 00 00
2025-11-08T02:09:40.807,25.869,can0  041  [04]  02 00 00 00
2025-11-08T02:09:40.807,25.869,can0  206  [16]  8F 0C D6 07 A3 0C DA DC ED 07 B7 0C BB 0C 00 00
2025-11-08T02:09:40.807,25.869,can0  204  [16]  17 1A 50 46 50 46 50 46 FA 19 20 4E 30 75 00 00
2025-11-08T02:09:41.136,26.198,can0  204  [16]  17 1A 50 46 50 46 50 46 FA 19 20 4E 30 75 00 00
2025-11-08T02:09:41.136,26.199,can0  204  [16]  17 1A 50 46 50 46 50 46 FA 19 20 4E 30 75 00 00
2025-11-08T02:09:41.136,26.199,can0  206  [16]  A3 0C D6 07 9F 0C B1 E0 ED 07 BF 0C A7 0C 00 00
2025-11-08T02:09:41.136,26.199,can0  204  [16]  17 1A 50 46 50 46 50 46 FA 19 20 4E 30 75 00 00
2025-11-08T02:09:41.137,26.199,can0  041  [04]  02 00 00 00
2025-11-08T02:09:41.137,26.199,can0  204  [16]  17 1A 50 46 50 46 50 46 FA 19 20 4E 30 75 00 00
2025-11-08T02:09:41.137,26.199,can0  204  [16]  17 1A 50 46 50 46 50 46 FA 19 20 4E 30 75 00 00
2025-11-08T02:09:41.137,26.199,can0  206  [16]  A3 0C D6 07 97 0C DA DC ED 07 C3 0C AB 0C 00 00
2025-11-08T02:09:41.137,26.199,can0  204  [16]  17 1A 50 46 50 46 50 46 FA 19 20 4E 30 75 00 00
2025-11-08T02:09:41.501,26.563,can0  204  [16]  17 1A 50 46 50 46 50 46 FA 19 20 4E 30 75 00 00
2025-11-08T02:09:41.501,26.564,can0  206  [16]  97 0C D3 07 A3 0C 3A DF EB 07 B7 0C AF 0C 00 00
2025-11-08T02:09:41.501,26.564,can0  041  [04]  02 00 02 00
2025-11-08T02:09:41.502,26.564,can0  204  [16]  17 1A 50 46 50 46 50 46 FA 19 20 4E 30 75 00 00
2025-11-08T02:09:41.502,26.565,can0  204  [16]  17 1A 50 46 50 46 50 46 FA 19 20 4E 30 75 00 00
2025-11-08T02:09:41.502,26.565,can0  204  [16]  17 1A 50 46 50 46 50 46 FA 19 20 4E 30 75 00 00
2025-11-08T02:09:41.502,26.565,can0  206  [16]  9B 0C D8 07 A3 0C B1 E0 E9 07 B3 0C AF 0C 00 00
2025-11-08T02:09:41.503,26.565,can0  204  [16]  17 1A 50 46 50 46 50 46 FA 19 20 4E 30 75 00 00
2025-11-08T02:09:41.503,26.565,can0  204  [16]  17 1A 50 46 50 46 50 46 FA 19 20 4E 30 75 00 00
2025-11-08T02:09:41.503,26.566,can0  041  [04]  3F 01 02 00
2025-11-08T02:09:42.233,27.296,can0  206  [16]  97 0C D8 07 A3 0C DA DC EF 07 BF 0C AB 0C 00 00
2025-11-08T02:09:42.241,27.304,can0  204  [16]  17 1A 50 46 50 46 50 46 FA 19 20 4E 30 75 00 00
2025-11-08T02:09:42.241,27.304,can0  204  [16]  17 1A 50 46 50 46 50 46 FA 19 20 4E 30 75 00 00
2025-11-08T02:09:42.241,27.304,can0  204  [16]  17 1A 50 46 50 46 50 46 FA 19 20 4E 30 75 00 00
2025-11-08T02:09:42.241,27.304,can0  206  [16]  AB 0C D6 07 9B 0C 99 C6 EF 07 C7 0C 9F 0C 00 00
2025-11-08T02:09:42.241,27.304,can0  204  [16]  17 1A 50 46 50 46 50 46 FA 19 20 4E 30 75 00 00
2025-11-08T02:09:42.241,27.304,can0  041  [04]  E4 00 00 00
2025-11-08T02:09:42.241,27.304,can0  204  [16]  17 1A 50 46 50 46 50 46 FA 19 20 4E 30 75 00 00
2025-11-08T02:09:42.241,27.304,can0  204  [16]  17 1A 50 46 50 46 50 46 FA 19 20 4E 30 75 00 00
2025-11-08T02:09:42.241,27.304,can0  206  [16]  AF 0C D6 07 9B 0C B1 E0 EB 07 BF 0C 9B 0C 00 00
2025-11-08T02:09:42.241,27.304,can0  204  [16]  17 1A 50 46 50 46 50 46 FA 19 20 4E 30 75 00 00
2025-11-08T02:09:42.241,27.304,can0  204  [16]  17 1A 50 46 50 46 50 46 FA 19 20 4E 30 75 00 00
2025-11-08T02:09:42.241,27.304,can0  206  [16]  A3 0C D6 07 9B 0C B1 E0 EB 07 CF 0C A3 0C 00 00
2025-11-08T02:09:42.241,27.304,can0  041  [04]  02 00 00 00
2025-11-08T02:09:42.241,27.304,can0  204  [16]  17 1A 50 46 50 46 50 46 FA 19 20 4E 30 75 00 00
2025-11-08T02:09:42.241,27.304,can0  204  [16]  17 1A 50 46 50 46 50 46 FA 19 20 4E 30 75 00 00
2025-11-08T02:09:42.241,27.304,can0  204  [16]  17 1A 50 46 50 46 50 46 FA 19 20 4E 30 75 00 00
2025-11-08T02:09:42.242,27.304,can0  206  [16]  A7 0C D6 07 A3 0C 57 E3 F2 07 BF 0C 9F 0C 00 00
2025-11-08T02:09:43.054,28.117,can0  204  [16]  17 1A 50 46 50 46 50 46 FA 19 20 4E 30 75 00 00
2025-11-08T02:09:43.054,28.117,can0  041  [04]  02 00 02 00
2025-11-08T02:09:43.059,28.122,can0  204  [16]  17 1A 50 46 50 46 50 46 FA 19 20 4E 30 75 00 00
2025-11-08T02:09:43.059,28.122,can0  206  [16]  A3 0C E5 07 9B 0C 3A DF ED 07 BF 0C A7 0C 00 00
2025-11-08T02:09:43.059,28.122,can0  204  [16]  17 1A 50 46 50 46 50 46 FA 19 20 4E 30 75 00 00
2025-11-08T02:09:43.059,28.122,can0  204  [16]  17 1A 50 46 50 46 50 46 FA 19 20 4E 30 75 00 00
2025-11-08T02:09:43.059,28.122,can0  204  [16]  17 1A 50 46 50 46 50 46 FA 19 20 4E 30 75 00 00
2025-11-08T02:09:43.059,28.122,can0  206  [16]  AF 0C DA 07 93 0C B1 E0 EB 07 C7 0C A3 0C 00 00
2025-11-08T02:09:43.059,28.122,can0  204  [16]  17 1A 50 46 50 46 50 46 FA 19 20 4E 30 75 00 00
2025-11-08T02:09:43.059,28.122,can0  041  [04]  02 00 02 00
2025-11-08T02:09:43.059,28.122,can0  204  [16]  17 1A 50 46 50 46 50 46 FA 19 20 4E 30 75 00 00
2025-11-08T02:09:43.059,28.122,can0  204  [16]  17 1A 50 46 50 46 50 46 FA 19 20 4E 30 75 00 00
2025-11-08T02:09:43.059,28.122,can0  206  [16]  B3 0C D6 07 97 0C 3A DF E9 07 BF 0C 9B 0C 00 00
2025-11-08T02:09:43.062,28.125,can0  204  [16]  17 1A 50 46 50 46 50 46 FA 19 20 4E 30 75 00 00
2025-11-08T02:09:43.063,28.125,can0  204  [16]  17 1A 50 46 50 46 50 46 FA 19 20 4E 30 75 00 00
2025-11-08T02:09:43.063,28.125,can0  041  [04]  02 00 00 00
2025-11-08T02:09:43.063,28.125,can0  206  [16]  A7 0C D8 07 9F 0C 99 C6 EF 07 BF 0C A3 0C 00 00
2025-11-08T02:09:43.063,28.125,can0  204  [16]  17 1A 50 46 50 46 50 46 FA 19 20 4E 30 75 00 00
2025-11-08T02:09:43.063,28.125,can0  204  [16]  17 1A 50 46 50 46 50 46 FA 19 20 4E 30 75 00 00
2025-11-08T02:09:43.063,28.125,can0  204  [16]  17 1A 50 46 50 46 50 46 FA 19 20 4E 30 75 00 00
2025-11-08T02:09:43.063,28.125,can0  206  [16]  A7 0C D6 07 97 0C 99 C6 EB 07 CB 0C A3 0C 00 00
2025-11-08T02:09:43.063,28.125,can0  204  [16]  17 1A 50 46 50 46 50 46 FA 19 20 4E 30 75 00 00
2025-11-08T02:09:43.736,28.798,can0  041  [04]  3F 01 00 00
2025-11-08T02:09:43.736,28.798,can0  204  [16]  17 1A 50 46 50 46 50 46 FA 19 20 4E 30 75 00 00
2025-11-08T02:09:43.736,28.798,can0  206  [16]  9F 0C D1 07 9F 0C DA DC EB 07 BF 0C A7 0C 00 00
2025-11-08T02:09:43.736,28.798,can0  204  [16]  17 1A 50 46 50 46 50 46 FA 19 20 4E 30 75 00 00
2025-11-08T02:09:43.736,28.798,can0  204  [16]  17 1A 50 46 50 46 50 46 FA 19 20 4E 30 75 00 00
2025-11-08T02:09:43.736,28.798,can0  204  [16]  17 1A 50 46 50 46 50 46 FA 19 20 4E 30 75 00 00
2025-11-08T02:09:43.736,28.798,can0  206  [16]  9B 0C D8 07 97 0C B1 E0 EB 07 D3 0C A7 0C 00 00
2025-11-08T02:09:43.739,28.801,can0  041  [04]  E4 00 00 00
2025-11-08T02:09:43.739,28.801,can0  204  [16]  17 1A 50 46 50 46 50 46 FA 19 20 4E 30 75 00 00
2025-11-08T02:09:43.739,28.801,can0  204  [16]  17 1A 50 46 50 46 50 46 FA 19 20 4E 30 75 00 00
2025-11-08T02:09:43.739,28.801,can0  204  [16]  17 1A 50 46 50 46 50 46 FA 19 20 4E 30 75 00 00
2025-11-08T02:09:43.739,28.801,can0  206  [16]  A7 0C D6 07 9B 0C DA DC E5 07 CB 0C A3 0C 00 00
2025-11-08T02:09:43.739,28.801,can0  204  [16]  17 1A 50 46 50 46 50 46 FA 19 20 4E 30 75 00 00
2025-11-08T02:09:43.739,28.801,can0  204  [16]  17 1A 50 46 50 46 50 46 FA 19 20 4E 30 75 00 00
2025-11-08T02:09:43.739,28.801,can0  041  [04]  B5 00 00 00
2025-11-08T02:09:43.739,28.801,can0  204  [16]  17 1A 50 46 50 46 50 46 FA 19 20 4E 30 75 00 00
2025-11-08T02:09:43.739,28.801,can0  206  [16]  AB 0C D6 07 9B 0C 99 C6 EB 07 BF 0C 9F 0C 00 00
2025-11-08T02:09:44.363,29.426,can0  204  [16]  17 1A 50 46 50 46 50 46 FA 19 20 4E 30 75 00 00
2025-11-08T02:09:44.363,29.426,can0  204  [16]  17 1A 50 46 50 46 50 46 FA 19 20 4E 30 75 00 00
2025-11-08T02:09:44.363,29.426,can0  206  [16]  9B 0C D8 07 9B 0C DA DC ED 07 BF 0C AF 0C 00 00
2025-11-08T02:09:44.363,29.426,can0  204  [16]  17 1A 50 46 50 46 50 46 FA 19 20 4E 30 75 00 00
2025-11-08T02:09:44.364,29.426,can0  041  [04]  B5 00 02 00
2025-11-08T02:09:44.364,29.426,can0  204  [16]  17 1A 50 46 50 46 50 46 FA 19 20 4E 30 75 00 00
2025-11-08T02:09:44.364,29.426,can0  204  [16]  17 1A 50 46 50 46 50 46 FA 19 20 4E 30 75 00 00
2025-11-08T02:09:44.364,29.426,can0  206  [16]  9B 0C D6 07 9F 0C 99 C6 FC 07 BB 0C AF 0C 00 00
2025-11-08T02:09:44.364,29.427,can0  204  [16]  17 1A 50 46 50 46 50 46 FA 19 20 4E 30 75 00 00
2025-11-08T02:09:44.365,29.427,can0  204  [16]  17 1A 50 46 50 46 50 46 FA 19 20 4E 30 75 00 00
2025-11-08T02:09:44.365,29.428,can0  041  [04]  B5 00 00 00
2025-11-08T02:09:44.365,29.428,can0  206  [16]  A3 0C D8 07 9F 0C 3A DF ED 07 C3 0C A7 0C 00 00
2025-11-08T02:09:44.366,29.428,can0  204  [16]  17 1A 50 46 50 46 50 46 FA 19 20 4E 30 75 00 00
2025-11-08T02:09:44.366,29.429,can0  204  [16]  17 1A 50 46 50 46 50 46 FA 19 20 4E 30 75 00 00
2025-11-08T02:09:44.369,29.432,can0  204  [16]  17 1A 50 46 50 46 50 46 FA 19 20 4E 30 75 00 00
2025-11-08T02:09:44.369,29.432,can0  206  [16]  A3 0C D8 07 A3 0C 99 C6 EF 07 C7 0C A3 0C 00 00
2025-11-08T02:09:44.985,30.047,can0  204  [16]  17 1A 50 46 50 46 50 46 FA 19 20 4E 30 75 00 00
2025-11-08T02:09:44.986,30.048,can0  041  [04]  B5 00 00 00
2025-11-08T02:09:44.986,30.049,can0  204  [16]  17 1A 50 46 50 46 50 46 FA 19 20 4E 30 75 00 00
2025-11-08T02:09:44.987,30.049,can0  204  [16]  17 1A 50 46 50 46 50 46 FA 19 20 4E 30 75 00 00
2025-11-08T02:09:44.987,30.050,can0  206  [16]  F4 0C D6 07 9F 0C DA DC EB 07 BB 0C 56 0C 00 00
2025-11-08T02:09:44.987,30.050,can0  204  [16]  17 1A 50 46 50 46 50 46 FA 19 20 4E 30 75 00 00
2025-11-08T02:09:44.988,30.050,can0  204  [16]  17 1A 50 46 50 46 50 46 FA 19 20 4E 30 75 00 00
2025-11-08T02:09:44.988,30.051,can0  206  [16]  9F 0C C0 07 A3 0C DA DC ED 07 BB 0C AB 0C 00 00
2025-11-08T02:09:44.989,30.051,can0  204  [16]  17 1A 50 46 50 46 50 46 FA 19 20 4E 30 75 00 00
2025-11-08T02:09:44.989,30.051,can0  041  [04]  B5 00 00 00
2025-11-08T02:09:44.989,30.052,can0  204  [16]  17 1A 50 46 50 46 50 46 FA 19 20 4E 30 75 00 00
2025-11-08T02:09:44.990,30.052,can0  204  [16]  17 1A 50 46 50 46 50 46 FA 19 20 4E 30 75 00 00
2025-11-08T02:09:44.990,30.053,can0  206  [16]  9F 0C D3 07 A3 0C DA DC EB 07 BF 0C A7 0C 00 00
2025-11-08T02:09:44.990,30.053,can0  204  [16]  17 1A 50 46 50 46 50 46 FA 19 20 4E 30 75 00 00
2025-11-08T02:09:44.991,30.053,can0  204  [16]  17 1A 50 46 50 46 50 46 FA 19 20 4E 30 75 00 00
2025-11-08T02:09:44.991,30.054,can0  041  [04]  B5 00 00 00
2025-11-08T02:09:45.589,30.651,can0  204  [16]  17 1A 50 46 50 46 50 46 FA 19 20 4E 30 75 00 00
2025-11-08T02:09:45.590,30.652,can0  206  [16]  9F 0C D3 07 9B 0C 99 C6 EB 07 C3 0C AB 0C 00 00
2025-11-08T02:09:45.590,30.653,can0  204  [16]  17 1A 50 46 50 46 50 46 FA 19 20 4E 30 75 00 00
2025-11-08T02:09:45.591,30.653,can0  204  [16]  17 1A 50 46 50 46 50 46 FA 19 20 4E 30 75 00 00
2025-11-08T02:09:45.591,30.653,can0  206  [16]  A7 0C D3 07 9B 0C 99 C6 E9 07 BB 0C A3 0C 00 00
2025-11-08T02:09:45.591,30.654,can0  204  [16]  17 1A 50 46 50 46 50 46 FA 19 20 4E 30 75 00 00
2025-11-08T02:09:45.592,30.654,can0  041  [04]  E4 00 02 00
2025-11-08T02:09:45.592,30.655,can0  204  [16]  17 1A 50 46 50 46 50 46 FA 19 20 4E 30 75 00 00
2025-11-08T02:09:45.592,30.655,can0  204  [16]  17 1A 50 46 50 46 50 46 FA 19 20 4E 30 75 00 00
2025-11-08T02:09:45.595,30.658,can0  206  [16]  CF 0C D3 07 77 0C DA DC EB 07 CF 0C 97 0C 00 00
2025-11-08T02:09:45.595,30.658,can0  204  [16]  17 1A 50 46 50 46 50 46 FA 19 20 4E 30 75 00 00
2025-11-08T02:09:45.595,30.658,can0  204  [16]  17 1A 50 46 50 46 50 46 FA 19 20 4E 30 75 00 00
2025-11-08T02:09:45.595,30.658,can0  206  [16]  A3 0C D8 07 9F 0C 99 C6 ED 07 BF 0C A7 0C 00 00
2025-11-08T02:09:45.595,30.658,can0  041  [04]  B5 00 02 00
2025-11-08T02:09:45.595,30.658,can0  204  [16]  17 1A 50 46 50 46 50 46 FA 19 20 4E 30 75 00 00
2025-11-08T02:09:45.595,30.658,can0  204  [16]  17 1A 50 46 50 46 50 46 FA 19 20 4E 30 75 00 00
2025-11-08T02:09:46.189,31.252,can0  204  [16]  17 1A 50 46 50 46 50 46 FA 19 20 4E 30 75 00 00
2025-11-08T02:09:46.190,31.253,can0  206  [16]  9F 0C D6 07 9B 0C B1 E0 ED 07 C3 0C AB 0C 00 00
2025-11-08T02:09:46.191,31.253,can0  204  [16]  17 1A 50 46 50 46 50 46 FA 19 20 4E 30 75 00 00
2025-11-08T02:09:46.191,31.254,can0  204  [16]  17 1A 50 46 50 46 50 46 FA 19 20 4E 30 75 00 00
2025-11-08T02:09:46.191,31.254,can0  041  [04]  E4 00 00 00
2025-11-08T02:09:46.192,31.254,can0  204  [16]  17 1A 50 46 50 46 50 46 FA 19 20 4E 30 75 00 00
2025-11-08T02:09:46.192,31.255,can0  206  [16]  97 0C D8 07 A3 0C 3A DF EB 07 BB 0C AF 0C 00 00
2025-11-08T02:09:46.193,31.255,can0  204  [16]  17 1A 50 46 50 46 50 46 FA 19 20 4E 30 75 00 00
2025-11-08T02:09:46.193,31.256,can0  204  [16]  17 1A 50 46 50 46 50 46 FA 19 20 4E 30 75 00 00
2025-11-08T02:09:46.193,31.256,can0  206  [16]  97 0C DA 07 A3 0C 57 E3 EB 07 C3 0C AB 0C 00 00
2025-11-08T02:09:46.194,31.256,can0  204  [16]  17 1A 50 46 50 46 50 46 FA 19 20 4E 30 75 00 00
2025-11-08T02:09:46.194,31.257,can0  041  [04]  3F 01 00 00
2025-11-08T02:09:46.194,31.257,can0  204  [16]  17 1A 50 46 50 46 50 46 FA 19 20 4E 30 75 00 00
2025-11-08T02:09:46.195,31.257,can0  204  [16]  17 1A 50 46 50 46 50 46 FA 19 20 4E 30 75 00 00
2025-11-08T02:09:46.195,31.258,can0  206  [16]  A3 0C D6 07 A3 0C 3A DF EB 07 C3 0C A3 0C 00 00
2025-11-08T02:09:46.791,31.854,can0  204  [16]  17 1A 50 46 50 46 50 46 FA 19 20 4E 30 75 00 00
2025-11-08T02:09:46.794,31.857,can0  204  [16]  17 1A 50 46 50 46 50 46 FA 19 20 4E 30 75 00 00
2025-11-08T02:09:46.794,31.857,can0  041  [04]  3F 01 00 00
2025-11-08T02:09:46.794,31.857,can0  206  [16]  A7 0C E0 07 9F 0C DA DC E5 07 C3 0C 9F 0C 00 00
2025-11-08T02:09:46.794,31.857,can0  204  [16]  17 1A 50 46 50 46 50 46 FA 19 20 4E 30 75 00 00
2025-11-08T02:09:46.794,31.857,can0  204  [16]  17 1A 50 46 50 46 50 46 FA 19 20 4E 30 75 00 00
2025-11-08T02:09:46.794,31.857,can0  204  [16]  17 1A 50 46 50 46 50 46 FA 19 20 4E 30 75 00 00
2025-11-08T02:09:46.794,31.857,can0  206  [16]  A7 0C D8 07 93 0C 3A DF ED 07 BF 0C A7 0C 00 00
2025-11-08T02:09:46.794,31.857,can0  204  [16]  17 1A 50 46 50 46 50 46 FA 19 20 4E 30 75 00 00
2025-11-08T02:09:46.795,31.857,can0  041  [04]  3F 01 02 00
2025-11-08T02:09:46.795,31.858,can0  204  [16]  17 1A 50 46 50 46 50 46 FA 19 20 4E 30 75 00 00
2025-11-08T02:09:46.795,31.858,can0  204  [16]  17 1A 50 46 50 46 50 46 FA 19 20 4E 30 75 00 00
2025-11-08T02:09:46.796,31.858,can0  206  [16]  A7 0C D6 07 9F 0C DA DC E7 07 BF 0C A3 0C 00 00
2025-11-08T02:09:46.796,31.859,can0  204  [16]  17 1A 50 46 50 46 50 46 FA 19 20 4E 30 75 00 00
2025-11-08T02:09:46.797,31.859,can0  204  [16]  17 1A 50 46 50 46 50 46 FA 19 20 4E 30 75 00 00
2025-11-08T02:09:47.391,32.453,can0  204  [16]  17 1A 50 46 50 46 50 46 FA 19 20 4E 30 75 00 00
2025-11-08T02:09:47.398,32.461,can0  206  [16]  A7 0C D6 07 9F 0C 99 C6 F6 07 BF 0C A3 0C 00 00
2025-11-08T02:09:47.398,32.461,can0  041  [04]  B5 00 02 00
2025-11-08T02:09:47.398,32.461,can0  204  [16]  17 1A 50 46 50 46 50 46 FA 19 20 4E 30 75 00 00
2025-11-08T02:09:47.398,32.461,can0  204  [16]  17 1A 50 46 50 46 50 46 FA 19 20 4E 30 75 00 00
2025-11-08T02:09:47.398,32.461,can0  206  [16]  A7 0C DC 07 97 0C C5 E1 ED 07 BF 0C A7 0C 00 00
2025-11-08T02:09:47.399,32.461,can0  204  [16]  17 1A 50 46 50 46 50 46 FA 19 20 4E 30 75 00 00
2025-11-08T02:09:47.399,32.461,can0  204  [16]  17 1A 50 46 50 46 50 46 FA 19 20 4E 30 75 00 00
2025-11-08T02:09:47.399,32.461,can0  041  [04]  B5 00 02 00
2025-11-08T02:09:47.399,32.461,can0  204  [16]  17 1A 50 46 50 46 50 46 FA 19 20 4E 30 75 00 00
2025-11-08T02:09:47.399,32.461,can0  206  [16]  AB 0C D6 07 9F 0C 3A DF EB 07 F0 0C 9F 0C 00 00
2025-11-08T02:09:47.399,32.461,can0  204  [16]  17 1A 50 46 50 46 50 46 FA 19 20 4E 30 75 00 00
2025-11-08T02:09:47.399,32.461,can0  204  [16]  17 1A 50 46 50 46 50 46 FA 19 20 4E 30 75 00 00
2025-11-08T02:09:47.399,32.461,can0  206  [16]  A3 0C D6 07 97 0C 99 C6 ED 07 CB 0C A7 0C 00 00
2025-11-08T02:09:47.399,32.461,can0  204  [16]  17 1A 50 46 50 46 50 46 FA 19 20 4E 30 75 00 00
2025-11-08T02:09:47.399,32.461,can0  041  [04]  E4 00 02 00
2025-11-08T02:09:47.399,32.461,can0  204  [16]  17 1A 50 46 50 46 50 46 FA 19 20 4E 30 75 00 00
2025-11-08T02:09:47.996,33.059,can0  204  [16]  17 1A 50 46 50 46 50 46 FA 19 20 4E 30 75 00 00
2025-11-08T02:09:47.997,33.060,can0  206  [16]  A7 0C D1 07 97 0C 99 C6 ED 07 C7 0C A3 0C 00 00
2025-11-08T02:09:47.998,33.060,can0  204  [16]  17 1A 50 46 50 46 50 46 FA 19 20 4E 30 75 00 00
2025-11-08T02:09:47.998,33.061,can0  204  [16]  17 1A 50 46 50 46 50 46 FA 19 20 4E 30 75 00 00
2025-11-08T02:09:47.999,33.061,can0  041  [04]  E4 00 02 00
2025-11-08T02:09:47.999,33.062,can0  204  [16]  17 1A 50 46 50 46 50 46 FA 19 20 4E 30 75 00 00
2025-11-08T02:09:48.000,33.062,can0  206  [16]  A3 0C D6 07 9B 0C DA DC E9 07 C3 0C A7 0C 00 00
2025-11-08T02:09:48.000,33.062,can0  204  [16]  17 1A 50 46 50 46 50 46 FA 19 20 4E 30 75 00 00
2025-11-08T02:09:48.002,33.064,can0  204  [16]  17 1A 50 46 50 46 50 46 FA 19 20 4E 30 75 00 00
2025-11-08T02:09:48.002,33.064,can0  206  [16]  AB 0C D3 07 93 0C 99 C6 ED 07 BF 0C A7 0C 00 00
2025-11-08T02:09:48.002,33.064,can0  204  [16]  17 1A 50 46 50 46 50 46 FA 19 20 4E 30 75 00 00
2025-11-08T02:09:48.002,33.064,can0  204  [16]  17 1A 50 46 50 46 50 46 FA 19 20 4E 30 75 00 00
2025-11-08T02:09:48.002,33.064,can0  041  [04]  3F 01 02 00
2025-11-08T02:09:48.002,33.065,can0  204  [16]  17 1A 50 46 50 46 50 46 FA 19 20 4E 30 75 00 00
2025-11-08T02:09:48.003,33.065,can0  206  [16]  A3 0C D6 07 9F 0C DA DC EF 07 C7 0C A3 0C 00 00
2025-11-08T02:09:48.003,33.065,can0  204  [16]  17 1A 50 46 50 46 50 46 FA 19 20 4E 30 75 00 00
2025-11-08T02:09:48.613,33.676,can0  204  [16]  17 1A 50 46 50 46 50 46 FA 19 20 4E 30 75 00 00
2025-11-08T02:09:48.614,33.677,can0  206  [16]  9B 0C D6 07 A3 0C 99 C6 EB 07 C3 0C A7 0C 00 00
2025-11-08T02:09:48.615,33.678,can0  204  [16]  17 1A 50 46 50 46 50 46 FA 19 20 4E 30 75 00 00
2025-11-08T02:09:48.616,33.679,can0  041  [04]  3F 01 02 00
2025-11-08T02:09:48.616,33.679,can0  204  [16]  17 1A 50 46 50 46 50 46 FA 19 20 4E 30 75 00 00
2025-11-08T02:09:48.617,33.679,can0  204  [16]  17 1A 50 46 50 46 50 46 FA 19 20 4E 30 75 00 00
2025-11-08T02:09:48.617,33.680,can0  206  [16]  A3 0C D3 07 9F 0C DA DC ED 07 BF 0C A7 0C 00 00
2025-11-08T02:09:48.618,33.680,can0  204  [16]  17 1A 50 46 50 46 50 46 FA 19 20 4E 30 75 00 00
2025-11-08T02:09:48.618,33.681,can0  204  [16]  17 1A 50 46 50 46 50 46 FA 19 20 4E 30 75 00 00
2025-11-08T02:09:48.618,33.681,can0  041  [04]  B5 00 02 00
2025-11-08T02:09:48.619,33.681,can0  204  [16]  17 1A 50 46 50 46 50 46 FA 19 20 4E 30 75 00 00
2025-11-08T02:09:48.619,33.682,can0  206  [16]  9F 0C DC 07 9B 0C A0 E2 EF 07 C3 0C AB 0C 00 00
2025-11-08T02:09:48.619,33.682,can0  204  [16]  17 1A 50 46 50 46 50 46 FA 19 20 4E 30 75 00 00
2025-11-08T02:09:48.620,33.682,can0  204  [16]  17 1A 50 46 50 46 50 46 FA 19 20 4E 30 75 00 00
2025-11-08T02:09:48.620,33.682,can0  206  [16]  9F 0C D6 07 97 0C DA DC EB 07 C7 0C AB 0C 00 00
2025-11-08T02:09:48.620,33.683,can0  204  [16]  17 1A 50 46 50 46 50 46 FA 19 20 4E 30 75 00 00
2025-11-08T02:09:49.238,34.301,can0  041  [04]  B5 00 02 00
2025-11-08T02:09:49.239,34.302,can0  204  [16]  17 1A 50 46 50 46 50 46 FA 19 20 4E 30 75 00 00
2025-11-08T02:09:49.240,34.303,can0  204  [16]  17 1A 50 46 50 46 50 46 FA 19 20 4E 30 75 00 00
2025-11-08T02:09:49.241,34.303,can0  206  [16]  A7 0C DA 07 9B 0C 3A DF F6 07 C3 0C A7 0C 00 00
2025-11-08T02:09:49.241,34.303,can0  204  [16]  17 1A 50 46 50 46 50 46 FA 19 20 4E 30 75 00 00
2025-11-08T02:09:49.241,34.304,can0  204  [16]  17 1A 50 46 50 46 50 46 FA 19 20 4E 30 75 00 00
2025-11-08T02:09:49.243,34.305,can0  204  [16]  17 1A 50 46 50 46 50 46 FA 19 20 4E 30 75 00 00
2025-11-08T02:09:49.243,34.306,can0  041  [04]  B5 00 00 00
2025-11-08T02:09:49.244,34.306,can0  206  [16]  73 0C DA 07 A3 0C 3A DF EF 07 C7 0C D3 0C 00 00
2025-11-08T02:09:49.244,34.306,can0  204  [16]  17 1A 50 46 50 46 50 46 FA 19 20 4E 30 75 00 00
2025-11-08T02:09:49.244,34.307,can0  204  [16]  17 1A 50 46 50 46 50 46 FA 19 20 4E 30 75 00 00
2025-11-08T02:09:49.244,34.307,can0  206  [16]  A7 0C D3 07 A3 0C 99 C6 ED 07 C3 0C 9F 0C 00 00
2025-11-08T02:09:49.245,34.307,can0  204  [16]  17 1A 50 46 50 46 50 46 FA 19 20 4E 30 75 00 00
2025-11-08T02:09:49.245,34.308,can0  204  [16]  17 1A 50 46 50 46 50 46 FA 19 20 4E 30 75 00 00
2025-11-08T02:09:49.245,34.308,can0  041  [04]  B5 00 00 00
2025-11-08T02:09:49.865,34.927,can0  204  [16]  17 1A 50 46 50 46 50 46 FA 19 20 4E 30 75 00 00
2025-11-08T02:09:49.867,34.929,can0  206  [16]  B3 0C DA 07 9B 0C DA DC ED 07 BF 0C 97 0C 00 00
2025-11-08T02:09:49.867,34.929,can0  204  [16]  17 1A 50 46 50 46 50 46 FA 19 20 4E 30 75 00 00
2025-11-08T02:09:49.867,34.929,can0  204  [16]  17 1A 50 46 50 46 50 46 FA 19 20 4E 30 75 00 00
2025-11-08T02:09:49.867,34.929,can0  204  [16]  17 1A 50 46 50 46 50 46 FA 19 20 4E 30 75 00 00
2025-11-08T02:09:49.867,34.929,can0  206  [16]  9F 0C D8 07 9B 0C DA DC EB 07 CB 0C AB 0C 00 00
2025-11-08T02:09:49.867,34.929,can0  041  [04]  B5 00 02 00
2025-11-08T02:09:49.867,34.930,can0  204  [16]  17 1A 50 46 50 46 50 46 FA 19 20 4E 30 75 00 00
2025-11-08T02:09:49.867,34.930,can0  204  [16]  17 1A 50 46 50 46 50 46 FA 19 20 4E 30 75 00 00
2025-11-08T02:09:49.867,34.930,can0  204  [16]  17 1A 50 46 50 46 50 46 FA 19 20 4E 30 75 00 00
2025-11-08T02:09:49.868,34.930,can0  206  [16]  AF 0C D6 07 97 0C 99 C6 D6 07 C3 0C A3 0C 00 00
2025-11-08T02:09:49.868,34.931,can0  204  [16]  17 1A 50 46 50 46 50 46 FA 19 20 4E 30 75 00 00
2025-11-08T02:09:49.869,34.931,can0  041  [04]  B5 00 00 00
2025-11-08T02:09:49.869,34.931,can0  204  [16]  17 1A 50 46 50 46 50 46 FA 19 20 4E 30 75 00 00
2025-11-08T02:09:49.869,34.932,can0  206  [16]  9F 0C D6 07 9F 0C DA DC EB 07 BF 0C AB 0C 00 00
2025-11-08T02:09:49.869,34.932,can0  204  [16]  17 1A 50 46 50 46 50 46 FA 19 20 4E 30 75 00 00
2025-11-08T02:09:49.870,34.933,can0  204  [16]  17 1A 50 46 50 46 50 46 FA 19 20 4E 30 75 00 00
2025-11-08T02:09:50.482,35.544,can0  204  [16]  17 1A 50 46 50 46 50 46 FA 19 20 4E 30 75 00 00
2025-11-08T02:09:50.482,35.545,can0  206  [16]  9F 0C D6 07 9B 0C DA DC ED 07 CB 0C AB 0C 00 00
2025-11-08T02:09:50.483,35.545,can0  204  [16]  17 1A 50 46 50 46 50 46 FA 19 20 4E 30 75 00 00
2025-11-08T02:09:50.483,35.545,can0  041  [04]  B5 00 00 00
2025-11-08T02:09:50.483,35.546,can0  204  [16]  17 1A 50 46 50 46 50 46 FA 19 20 4E 30 75 00 00
2025-11-08T02:09:50.484,35.547,can0  206  [16]  A7 0C D8 07 9F 0C DA DC EF 07 BB 0C A3 0C 00 00
2025-11-08T02:09:50.484,35.547,can0  204  [16]  17 1A 50 46 50 46 50 46 FA 19 20 4E 30 75 00 00
2025-11-08T02:09:50.484,35.547,can0  204  [16]  17 1A 50 46 50 46 50 46 FA 19 20 4E 30 75 00 00
2025-11-08T02:09:50.485,35.547,can0  204  [16]  17 1A 50 46 50 46 50 46 FA 19 20 4E 30 75 00 00
2025-11-08T02:09:50.485,35.548,can0  041  [04]  8B 00 00 00
2025-11-08T02:09:50.485,35.548,can0  206  [16]  A3 0C D6 07 A3 0C DA DC EF 07 BF 0C A3 0C 00 00
2025-11-08T02:09:50.486,35.549,can0  204  [16]  17 1A 50 46 50 46 50 46 FA 19 20 4E 30 75 00 00
2025-11-08T02:09:50.486,35.549,can0  204  [16]  17 1A 50 46 50 46 50 46 FA 19 20 4E 30 75 00 00
2025-11-08T02:09:50.486,35.549,can0  204  [16]  17 1A 50 46 50 46 50 46 FA 19 20 4E 30 75 00 00
2025-11-08T02:09:50.487,35.550,can0  206  [16]  A3 0C D6 07 97 0C DA DC EB 07 CB 0C AB 0C 00 00
2025-11-08T02:09:51.097,36.159,can0  204  [16]  17 1A 50 46 50 46 50 46 FA 19 20 4E 30 75 00 00
2025-11-08T02:09:51.098,36.161,can0  041  [04]  8B 00 02 00
2025-11-08T02:09:51.098,36.161,can0  204  [16]  17 1A 50 46 50 46 50 46 FA 19 20 4E 30 75 00 00
2025-11-08T02:09:51.098,36.161,can0  206  [16]  93 0C D6 07 AB 0C 3A DF EF 07 BB 0C AF 0C 00 00
2025-11-08T02:09:51.098,36.161,can0  204  [16]  17 1A 50 46 50 46 50 46 FA 19 20 4E 30 75 00 00
2025-11-08T02:09:51.099,36.162,can0  204  [16]  17 1A 50 46 50 46 50 46 FA 19 20 4E 30 75 00 00
2025-11-08T02:09:51.099,36.162,can0  204  [16]  17 1A 50 46 50 46 50 46 FA 19 20 4E 30 75 00 00
2025-11-08T02:09:51.099,36.162,can0  206  [16]  97 0C D8 07 93 0C 3A DF F2 07 C7 0C B3 0C 00 00
2025-11-08T02:09:51.100,36.163,can0  204  [16]  17 1A 50 46 50 46 50 46 FA 19 20 4E 30 75 00 00
2025-11-08T02:09:51.100,36.163,can0  041  [04]  9F 00 00 00
2025-11-08T02:09:51.100,36.163,can0  204  [16]  17 1A 50 46 50 46 50 46 FA 19 20 4E 30 75 00 00
2025-11-08T02:09:51.101,36.164,can0  204  [16]  17 1A 50 46 50 46 50 46 FA 19 20 4E 30 75 00 00
2025-11-08T02:09:51.101,36.164,can0  206  [16]  AB 0C D3 07 97 0C 99 C6 E9 07 C7 0C A3 0C 00 00
2025-11-08T02:09:51.101,36.164,can0  204  [16]  17 1A 50 46 50 46 50 46 FA 19 20 4E 30 75 00 00
2025-11-08T02:09:51.102,36.164,can0  204  [16]  17 1A 50 46 50 46 50 46 FA 19 20 4E 30 75 00 00
2025-11-08T02:09:51.707,36.769,can0  041  [04]  9F 00 02 00
2025-11-08T02:09:51.707,36.770,can0  206  [16]  8F 0C D8 07 A3 0C DA DC EF 07 D3 0C AB 0C 00 00
2025-11-08T02:09:51.707,36.770,can0  204  [16]  17 1A 50 46 50 46 50 46 FA 19 20 4E 30 75 00 00
2025-11-08T02:09:51.709,36.771,can0  204  [16]  17 1A 50 46 50 46 50 46 FA 19 20 4E 30 75 00 00
2025-11-08T02:09:51.709,36.771,can0  204  [16]  17 1A 50 46 50 46 50 46 FA 19 20 4E 30 75 00 00
2025-11-08T02:09:51.709,36.771,can0  206  [16]  9B 0C D6 07 A7 0C 99 C6 ED 07 CB 0C AB 0C 00 00
2025-11-08T02:09:51.709,36.771,can0  204  [16]  17 1A 50 46 50 46 50 46 FA 19 20 4E 30 75 00 00
2025-11-08T02:09:51.709,36.771,can0  041  [04]  9F 00 02 00
2025-11-08T02:09:51.709,36.772,can0  204  [16]  17 1A 50 46 50 46 50 46 FA 19 20 4E 30 75 00 00
2025-11-08T02:09:51.710,36.773,can0  206  [16]  A7 0C D3 07 9F 0C 3A DF EB 07 CB 0C A3 0C 00 00
2025-11-08T02:09:51.710,36.773,can0  204  [16]  17 1A 50 46 50 46 50 46 FA 19 20 4E 30 75 00 00
2025-11-08T02:09:51.710,36.773,can0  204  [16]  17 1A 50 46 50 46 50 46 FA 19 20 4E 30 75 00 00
2025-11-08T02:09:51.712,36.775,can0  204  [16]  17 1A 50 46 50 46 50 46 FA 19 20 4E 30 75 00 00
2025-11-08T02:09:51.712,36.775,can0  206  [16]  AF 0C D6 07 93 0C 99 C6 EB 07 BF 0C A7 0C 00 00
2025-11-08T02:09:51.712,36.775,can0  041  [04]  9F 00 02 00
2025-11-08T02:09:51.712,36.775,can0  204  [16]  17 1A 50 46 50 46 50 46 FA 19 20 4E 30 75 00 00
2025-11-08T02:09:51.712,36.775,can0  204  [16]  17 1A 50 46 50 46 50 46 FA 19 20 4E 30 75 00 00
2025-11-08T02:09:52.226,37.289,can0  204  [16]  17 1A 50 46 50 46 50 46 FA 19 20 4E 30 75 00 00
2025-11-08T02:09:52.227,37.290,can0  206  [16]  9F 0C D8 07 9B 0C 99 C6 E5 07 CB 0C AB 0C 00 00
2025-11-08T02:09:52.227,37.290,can0  204  [16]  17 1A 50 46 50 46 50 46 FA 19 20 4E 30 75 00 00
2025-11-08T02:09:52.227,37.290,can0  204  [16]  17 1A 50 46 50 46 50 46 FA 19 20 4E 30 75 00 00
2025-11-08T02:09:52.227,37.290,can0  041  [04]  8B 00 02 00
2025-11-08T02:09:52.227,37.290,can0  206  [16]  9F 0C D6 07 9B 0C DA DC EF 07 BF 0C AF 0C 00 00
2025-11-08T02:09:52.228,37.290,can0  204  [16]  17 1A 50 46 50 46 50 46 FA 19 20 4E 30 75 00 00
2025-11-08T02:09:52.229,37.292,can0  204  [16]  17 1A 50 46 50 46 50 46 FA 19 20 4E 30 75 00 00
2025-11-08T02:09:52.229,37.292,can0  204  [16]  17 1A 50 46 50 46 50 46 FA 19 20 4E 30 75 00 00
2025-11-08T02:09:52.229,37.292,can0  206  [16]  A3 0C D6 07 9B 0C DA DC E9 07 BF 0C A7 0C 00 00
2025-11-08T02:09:52.229,37.292,can0  204  [16]  17 1A 50 46 50 46 50 46 FA 19 20 4E 30 75 00 00
2025-11-08T02:09:52.229,37.292,can0  041  [04]  9F 00 02 00
2025-11-08T02:09:52.229,37.292,can0  204  [16]  17 1A 50 46 50 46 50 46 FA 19 20 4E 30 75 00 00
2025-11-08T02:09:52.616,37.678,can0  206  [16]  A7 0C D8 07 9B 0C 3A DF EB 07 AF 0C A7 0C 00 00
2025-11-08T02:09:52.616,37.679,can0  204  [16]  17 1A 50 46 50 46 50 46 FA 19 20 4E 30 75 00 00
2025-11-08T02:09:52.616,37.679,can0  204  [16]  17 1A 50 46 50 46 50 46 FA 19 20 4E 30 75 00 00
2025-11-08T02:09:52.616,37.679,can0  204  [16]  17 1A 50 46 50 46 50 46 FA 19 20 4E 30 75 00 00
2025-11-08T02:09:52.616,37.679,can0  041  [04]  8B 00 02 00
2025-11-08T02:09:52.617,37.679,can0  206  [16]  A7 0C DC 07 9B 0C DA DC EB 07 C7 0C A3 0C 00 00
2025-11-08T02:09:52.617,37.680,can0  204  [16]  17 1A 50 46 50 46 50 46 FA 19 20 4E 30 75 00 00
2025-11-08T02:09:52.617,37.680,can0  204  [16]  17 1A 50 46 50 46 50 46 FA 19 20 4E 30 75 00 00
2025-11-08T02:09:52.618,37.680,can0  204  [16]  17 1A 50 46 50 46 50 46 FA 19 20 4E 30 75 00 00
2025-11-08T02:09:52.618,37.681,can0  206  [16]  A3 0C D3 07 A3 0C DA DC F2 07 C3 0C A3 0C 00 00
2025-11-08T02:09:53.061,38.124,can0  204  [16]  17 1A 50 46 50 46 50 46 FA 19 20 4E 30 75 00 00
2025-11-08T02:09:53.062,38.124,can0  041  [04]  2F 00 02 00
2025-11-08T02:09:53.062,38.124,can0  204  [16]  17 1A 50 46 50 46 50 46 FA 19 20 4E 30 75 00 00
2025-11-08T02:09:53.062,38.125,can0  206  [16]  9F 0C CF 07 67 0C 99 C6 ED 07 F8 0C AB 0C 00 00
2025-11-08T02:09:53.062,38.125,can0  204  [16]  17 1A 50 46 50 46 50 46 FA 19 20 4E 30 75 00 00
2025-11-08T02:09:53.063,38.125,can0  204  [16]  17 1A 50 46 50 46 50 46 FA 19 20 4E 30 75 00 00
2025-11-08T02:09:53.064,38.127,can0  204  [16]  17 1A 50 46 50 46 50 46 FA 19 20 4E 30 75 00 00
2025-11-08T02:09:53.065,38.127,can0  206  [16]  8B 0C DA 07 9F 0C 3A DF EB 07 B3 0C C3 0C 00 00
2025-11-08T02:09:53.065,38.127,can0  204  [16]  17 1A 50 46 50 46 50 46 FA 19 20 4E 30 75 00 00
2025-11-08T02:09:53.065,38.127,can0  041  [04]  02 00 02 00
2025-11-08T02:09:53.065,38.127,can0  204  [16]  17 1A 50 46 50 46 50 46 FA 19 20 4E 30 75 00 00
2025-11-08T02:09:53.065,38.127,can0  204  [16]  17 1A 50 46 50 46 50 46 FA 19 20 4E 30 75 00 00
2025-11-08T02:09:53.451,38.514,can0  206  [16]  A3 0C D8 07 9B 0C DA DC ED 07 C7 0C AB 0C 00 00
2025-11-08T02:09:53.451,38.514,can0  204  [16]  17 1A 50 46 50 46 50 46 FA 19 20 4E 30 75 00 00
2025-11-08T02:09:53.451,38.514,can0  204  [16]  17 1A 50 46 50 46 50 46 FA 19 20 4E 30 75 00 00
2025-11-08T02:09:53.452,38.514,can0  041  [04]  02 00 00 00
2025-11-08T02:09:53.452,38.514,can0  206  [16]  A3 0C D3 07 A7 0C DA DC EF 07 B3 0C A3 0C 00 00
2025-11-08T02:09:53.452,38.515,can0  204  [16]  17 1A 50 46 50 46 50 46 FA 19 20 4E 30 75 00 00
2025-11-08T02:09:53.453,38.516,can0  204  [16]  17 1A 50 46 50 46 50 46 FA 19 20 4E 30 75 00 00
2025-11-08T02:09:53.453,38.516,can0  204  [16]  17 1A 50 46 50 46 50 46 FA 19 20 4E 30 75 00 00
2025-11-08T02:09:53.453,38.516,can0  206  [16]  9F 0C DA 07 A3 0C B1 E0 EB 07 CB 0C A7 0C 00 00
2025-11-08T02:09:53.453,38.516,can0  204  [16]  17 1A 50 46 50 46 50 46 FA 19 20 4E 30 75 00 00
2025-11-08T02:09:53.852,38.914,can0  041  [04]  02 00 00 00
2025-11-08T02:09:53.853,38.915,can0  204  [16]  17 1A 50 46 50 46 50 46 FA 19 20 4E 30 75 00 00
2025-11-08T02:09:53.853,38.916,can0  206  [16]  A3 0C D3 07 9F 0C 3A DF E9 07 BF 0C A7 0C 00 00
2025-11-08T02:09:53.853,38.916,can0  204  [16]  17 1A 50 46 50 46 50 46 FA 19 20 4E 30 75 00 00
2025-11-08T02:09:53.853,38.916,can0  204  [16]  17 1A 50 46 50 46 50 46 FA 19 20 4E 30 75 00 00
2025-11-08T02:09:53.853,38.916,can0  204  [16]  17 1A 50 46 50 46 50 46 FA 19 20 4E 30 75 00 00
2025-11-08T02:09:53.853,38.916,can0  206  [16]  B3 0C D6 07 9B 0C 3A DF EF 07 C3 0C 97 0C 00 00
2025-11-08T02:09:53.853,38.916,can0  041  [04]  02 00 00 00
2025-11-08T02:09:53.853,38.916,can0  204  [16]  17 1A 50 46 50 46 50 46 FA 19 20 4E 30 75 00 00
2025-11-08T02:09:53.854,38.916,can0  204  [16]  17 1A 50 46 50 46 50 46 FA 19 20 4E 30 75 00 00
2025-11-08T02:09:54.244,39.307,can0  204  [16]  17 1A 50 46 50 46 50 46 FA 19 20 4E 30 75 00 00
2025-11-08T02:09:54.244,39.307,can0  206  [16]  9B 0C D8 07 9F 0C 99 C6 EB 07 C3 0C AB 0C 00 00
2025-11-08T02:09:54.244,39.307,can0  204  [16]  17 1A 50 46 50 46 50 46 FA 19 20 4E 30 75 00 00
2025-11-08T02:09:54.245,39.307,can0  204  [16]  17 1A 50 46 50 46 50 46 FA 19 20 4E 30 75 00 00
2025-11-08T02:09:54.245,39.307,can0  041  [04]  8B 00 00 00
2025-11-08T02:09:54.245,39.308,can0  204  [16]  17 1A 50 46 50 46 50 46 FA 19 20 4E 30 75 00 00
2025-11-08T02:09:54.245,39.308,can0  206  [16]  A3 0C D8 07 9B 0C B1 E0 ED 07 BF 0C A7 0C 00 00
2025-11-08T02:09:54.246,39.308,can0  204  [16]  17 1A 50 46 50 46 50 46 FA 19 20 4E 30 75 00 00
2025-11-08T02:09:54.246,39.308,can0  204  [16]  17 1A 50 46 50 46 50 46 FA 19 20 4E 30 75 00 00
2025-11-08T02:09:54.247,39.309,can0  206  [16]  A3 0C DA 07 9F 0C 99 C6 ED 07 C7 0C A3 0C 00 00
2025-11-08T02:09:54.642,39.705,can0  204  [16]  17 1A 50 46 50 46 50 46 FA 19 20 4E 30 75 00 00
2025-11-08T02:09:54.643,39.706,can0  041  [04]  8B 00 00 00
2025-11-08T02:09:54.644,39.706,can0  204  [16]  17 1A 50 46 50 46 50 46 FA 19 20 4E 30 75 00 00
2025-11-08T02:09:54.644,39.706,can0  204  [16]  17 1A 50 46 50 46 50 46 FA 19 20 4E 30 75 00 00
2025-11-08T02:09:54.644,39.706,can0  206  [16]  93 0C D6 07 A3 0C 99 C6 ED 07 C3 0C B3 0C 00 00
2025-11-08T02:09:54.644,39.706,can0  204  [16]  17 1A 50 46 50 46 50 46 FA 19 20 4E 30 75 00 00
2025-11-08T02:09:54.644,39.706,can0  204  [16]  17 1A 50 46 50 46 50 46 FA 19 20 4E 30 75 00 00
2025-11-08T02:09:54.644,39.706,can0  041  [04]  8B 00 00 00
2025-11-08T02:09:54.644,39.706,can0  206  [16]  9F 0C D3 07 A3 0C DA DC E9 07 AF 0C AB 0C 00 00
2025-11-08T02:09:54.644,39.707,can0  204  [16]  17 1A 50 46 50 46 50 46 FA 19 20 4E 30 75 00 00
2025-11-08T02:09:54.645,39.707,can0  204  [16]  17 1A 50 46 50 46 50 46 FA 19 20 4E 30 75 00 00
2025-11-08T02:09:55.261,40.323,can0  204  [16]  17 1A 50 46 50 46 50 46 FA 19 20 4E 30 75 00 00
2025-11-08T02:09:55.263,40.325,can0  206  [16]  A3 0C D6 07 A7 0C 99 C6 ED 07 BF 0C A3 0C 00 00
2025-11-08T02:09:55.263,40.325,can0  204  [16]  17 1A 50 46 50 46 50 46 FA 19 20 4E 30 75 00 00
2025-11-08T02:09:55.263,40.325,can0  041  [04]  B5 00 00 00
2025-11-08T02:09:55.263,40.325,can0  204  [16]  17 1A 50 46 50 46 50 46 FA 19 20 4E 30 75 00 00
2025-11-08T02:09:55.263,40.325,can0  204  [16]  17 1A 50 46 50 46 50 46 FA 19 20 4E 30 75 00 00
2025-11-08T02:09:55.263,40.325,can0  206  [16]  AB 0C D8 07 9F 0C DA DC EF 07 BF 0C 9F 0C 00 00
2025-11-08T02:09:55.263,40.326,can0  204  [16]  17 1A 50 46 50 46 50 46 FA 19 20 4E 30 75 00 00
2025-11-08T02:09:55.264,40.326,can0  204  [16]  17 1A 50 46 50 46 50 46 FA 19 20 4E 30 75 00 00
2025-11-08T02:09:55.264,40.326,can0  206  [16]  A3 0C D6 07 9B 0C 99 C6 EB 07 C3 0C A7 0C 00 00
2025-11-08T02:09:55.264,40.327,can0  204  [16]  17 1A 50 46 50 46 50 46 FA 19 20 4E 30 75 00 00
2025-11-08T02:09:55.264,40.327,can0  041  [04]  B5 00 02 00
2025-11-08T02:09:55.264,40.327,can0  204  [16]  17 1A 50 46 50 46 50 46 FA 19 20 4E 30 75 00 00
2025-11-08T02:09:55.265,40.328,can0  204  [16]  17 1A 50 46 50 46 50 46 FA 19 20 4E 30 75 00 00
2025-11-08T02:09:55.265,40.328,can0  206  [16]  A3 0C D8 07 9B 0C F4 E3 F6 07 C3 0C AB 0C 00 00
2025-11-08T02:09:55.265,40.328,can0  204  [16]  17 1A 50 46 50 46 50 46 FA 19 20 4E 30 75 00 00
2025-11-08T02:09:55.693,40.755,can0  204  [16]  17 1A 50 46 50 46 50 46 FA 19 20 4E 30 75 00 00
2025-11-08T02:09:55.693,40.756,can0  041  [04]  8B 00 00 00
2025-11-08T02:09:55.694,40.757,can0  206  [16]  9F 0C DC 07 9B 0C 99 C6 E9 07 BF 0C AB 0C 00 00
2025-11-08T02:09:55.694,40.757,can0  204  [16]  17 1A 50 46 50 46 50 46 FA 19 20 4E 30 75 00 00
2025-11-08T02:09:55.694,40.757,can0  204  [16]  17 1A 50 46 50 46 50 46 FA 19 20 4E 30 75 00 00
2025-11-08T02:09:55.694,40.757,can0  204  [16]  17 1A 50 46 50 46 50 46 FA 19 20 4E 30 75 00 00
2025-11-08T02:09:55.694,40.757,can0  206  [16]  A3 0C DA 07 9F 0C DA DC ED 07 BB 0C AB 0C 00 00
2025-11-08T02:09:55.694,40.757,can0  204  [16]  17 1A 50 46 50 46 50 46 FA 19 20 4E 30 75 00 00
2025-11-08T02:09:55.694,40.757,can0  041  [04]  B5 00 02 00
2025-11-08T02:09:55.695,40.758,can0  204  [16]  17 1A 50 46 50 46 50 46 FA 19 20 4E 30 75 00 00
2025-11-08T02:09:55.696,40.758,can0  204  [16]  17 1A 50 46 50 46 50 46 FA 19 20 4E 30 75 00 00
2025-11-08T02:09:56.117,41.179,can0  206  [16]  9B 0C DE 07 BF 0C DA DC ED 07 A3 0C AB 0C 00 00
2025-11-08T02:09:56.117,41.180,can0  204  [16]  17 1A 50 46 50 46 50 46 FA 19 20 4E 30 75 00 00
2025-11-08T02:09:56.117,41.180,can0  204  [16]  17 1A 50 46 50 46 50 46 FA 19 20 4E 30 75 00 00
2025-11-08T02:09:56.118,41.180,can0  206  [16]  A7 0C D8 07 9B 0C B1 E0 E9 07 BB 0C AB 0C 00 00
2025-11-08T02:09:56.118,41.181,can0  041  [04]  8B 00 00 00
2025-11-08T02:09:56.118,41.181,can0  204  [16]  17 1A 50 46 50 46 50 46 FA 19 20 4E 30 75 00 00
2025-11-08T02:09:56.118,41.181,can0  204  [16]  17 1A 50 46 50 46 50 46 FA 19 20 4E 30 75 00 00
2025-11-08T02:09:56.118,41.181,can0  204  [16]  17 1A 50 46 50 46 50 46 FA 19 20 4E 30 75 00 00
2025-11-08T02:09:56.118,41.181,can0  206  [16]  93 0C D6 07 A3 0C DA DC E9 07 BB 0C B3 0C 00 00
2025-11-08T02:09:56.119,41.182,can0  204  [16]  17 1A 50 46 50 46 50 46 FA 19 20 4E 30 75 00 00
2025-11-08T02:09:56.514,41.577,can0  041  [04]  8B 00 00 00
2025-11-08T02:09:56.514,41.577,can0  204  [16]  17 1A 50 46 50 46 50 46 FA 19 20 4E 30 75 00 00
2025-11-08T02:09:56.514,41.577,can0  206  [16]  9F 0C D6 07 9B 0C FA E4 ED 07 BF 0C AB 0C 00 00
2025-11-08T02:09:56.515,41.577,can0  204  [16]  17 1A 50 46 50 46 50 46 FA 19 20 4E 30 75 00 00
2025-11-08T02:09:56.516,41.578,can0  204  [16]  17 1A 50 46 50 46 50 46 FA 19 20 4E 30 75 00 00
2025-11-08T02:09:56.516,41.578,can0  204  [16]  17 1A 50 46 50 46 50 46 FA 19 20 4E 30 75 00 00
2025-11-08T02:09:56.516,41.579,can0  206  [16]  A3 0C D1 07 A3 0C 99 C6 ED 07 C7 0C A3 0C 00 00
2025-11-08T02:09:56.516,41.579,can0  204  [16]  17 1A 50 46 50 46 50 46 FA 19 20 4E 30 75 00 00
2025-11-08T02:09:56.516,41.579,can0  041  [04]  8B 00 02 00
2025-11-08T02:09:56.516,41.579,can0  204  [16]  17 1A 50 46 50 46 50 46 FA 19 20 4E 30 75 00 00
2025-11-08T02:09:56.516,41.579,can0  204  [16]  17 1A 50 46 50 46 50 46 FA 19 20 4E 30 75 00 00
2025-11-08T02:09:56.985,42.048,can0  206  [16]  BB 0C D6 07 8F 0C 99 C6 ED 07 BF 0C 9F 0C 00 00
2025-11-08T02:09:56.987,42.049,can0  204  [16]  17 1A 50 46 50 46 50 46 FA 19 20 4E 30 75 00 00
2025-11-08T02:09:56.987,42.049,can0  204  [16]  17 1A 50 46 50 46 50 46 FA 19 20 4E 30 75 00 00
2025-11-08T02:09:56.987,42.049,can0  041  [04]  2F 00 02 00
2025-11-08T02:09:56.987,42.049,can0  206  [16]  9B 0C D6 07 A7 0C DA DC EB 07 C3 0C AB 0C 00 00
2025-11-08T02:09:56.987,42.049,can0  204  [16]  17 1A 50 46 50 46 50 46 FA 19 20 4E 30 75 00 00
2025-11-08T02:09:56.987,42.049,can0  204  [16]  17 1A 50 46 50 46 50 46 FA 19 20 4E 30 75 00 00
2025-11-08T02:09:56.987,42.049,can0  204  [16]  17 1A 50 46 50 46 50 46 FA 19 20 4E 30 75 00 00
2025-11-08T02:09:56.987,42.049,can0  206  [16]  A7 0C D3 07 9B 0C DA DC EF 07 C7 0C A3 0C 00 00
2025-11-08T02:09:56.989,42.051,can0  204  [16]  17 1A 50 46 50 46 50 46 FA 19 20 4E 30 75 00 00
2025-11-08T02:09:56.989,42.051,can0  041  [04]  02 00 02 00
2025-11-08T02:09:57.005,42.067,can0  204  [16]  17 1A 50 46 50 46 50 46 FA 19 20 4E 30 75 00 00
2025-11-08T02:09:57.574,42.636,can0  204  [16]  17 1A 50 46 50 46 50 46 FA 19 20 4E 30 75 00 00
2025-11-08T02:09:57.575,42.637,can0  206  [16]  9F 0C DE 07 8F 0C 99 C6 EF 07 D7 0C A7 0C 00 00
2025-11-08T02:09:57.575,42.637,can0  204  [16]  17 1A 50 46 50 46 50 46 FA 19 20 4E 30 75 00 00
2025-11-08T02:09:57.575,42.638,can0  204  [16]  17 1A 50 46 50 46 50 46 FA 19 20 4E 30 75 00 00
2025-11-08T02:09:57.575,42.638,can0  206  [16]  9F 0C D6 07 9F 0C DA DC DE 07 BB 0C AB 0C 00 00
2025-11-08T02:09:57.576,42.638,can0  041  [04]  2F 00 02 00
2025-11-08T02:09:57.576,42.638,can0  204  [16]  17 1A 50 46 50 46 50 46 FA 19 20 4E 30 75 00 00
2025-11-08T02:09:57.576,42.639,can0  204  [16]  17 1A 50 46 50 46 50 46 FA 19 20 4E 30 75 00 00
2025-11-08T02:09:57.576,42.639,can0  204  [16]  17 1A 50 46 50 46 50 46 FA 19 20 4E 30 75 00 00
2025-11-08T02:09:57.576,42.639,can0  206  [16]  9B 0C D6 07 97 0C 3A DF ED 07 C7 0C AF 0C 00 00
2025-11-08T02:09:57.577,42.639,can0  204  [16]  17 1A 50 46 50 46 50 46 FA 19 20 4E 30 75 00 00
2025-11-08T02:09:57.577,42.640,can0  204  [16]  17 1A 50 46 50 46 50 46 FA 19 20 4E 30 75 00 00
2025-11-08T02:09:57.578,42.640,can0  041  [04]  02 00 02 00
2025-11-08T02:09:57.578,42.640,can0  204  [16]  17 1A 50 46 50 46 50 46 FA 19 20 4E 30 75 00 00
2025-11-08T02:09:57.578,42.640,can0  206  [16]  8F 0C DA 07 9F 0C DA DC EF 07 C3 0C BB 0C 00 00
2025-11-08T02:09:57.578,42.641,can0  204  [16]  17 1A 50 46 50 46 50 46 FA 19 20 4E 30 75 00 00
2025-11-08T02:09:57.984,43.047,can0  204  [16]  17 1A 50 46 50 46 50 46 FA 19 20 4E 30 75 00 00
2025-11-08T02:09:57.985,43.047,can0  206  [16]  9B 0C D8 07 9B 0C B1 E0 ED 07 C3 0C AB 0C 00 00
2025-11-08T02:09:57.985,43.048,can0  204  [16]  17 1A 50 46 50 46 50 46 FA 19 20 4E 30 75 00 00
2025-11-08T02:09:57.986,43.049,can0  041  [04]  2F 00 02 00
2025-11-08T02:09:57.986,43.049,can0  204  [16]  17 1A 50 46 50 46 50 46 FA 19 20 4E 30 75 00 00
2025-11-08T02:09:57.986,43.049,can0  204  [16]  17 1A 50 46 50 46 50 46 FA 19 20 4E 30 75 00 00
2025-11-08T02:09:57.987,43.049,can0  206  [16]  9F 0C D6 07 9F 0C 99 C6 E5 07 BB 0C AB 0C 00 00
2025-11-08T02:09:57.987,43.049,can0  204  [16]  17 1A 50 46 50 46 50 46 FA 19 20 4E 30 75 00 00
2025-11-08T02:09:57.987,43.050,can0  204  [16]  17 1A 50 46 50 46 50 46 FA 19 20 4E 30 75 00 00
2025-11-08T02:09:58.392,43.454,can0  041  [04]  2F 00 02 00
2025-11-08T02:09:58.393,43.455,can0  204  [16]  17 1A 50 46 50 46 50 46 FA 19 20 4E 30 75 00 00
2025-11-08T02:09:58.393,43.456,can0  206  [16]  A3 0C D1 07 9F 0C DA DC EF 07 BF 0C A7 0C 00 00
2025-11-08T02:09:58.393,43.456,can0  204  [16]  17 1A 50 46 50 46 50 46 FA 19 20 4E 30 75 00 00
2025-11-08T02:09:58.393,43.456,can0  204  [16]  17 1A 50 46 50 46 50 46 FA 19 20 4E 30 75 00 00
2025-11-08T02:09:58.394,43.456,can0  206  [16]  A7 0C D6 07 97 0C B1 E0 EB 07 C3 0C A3 0C 00 00
2025-11-08T02:09:58.394,43.457,can0  204  [16]  17 1A 50 46 50 46 50 46 FA 19 20 4E 30 75 00 00
2025-11-08T02:09:58.394,43.457,can0  041  [04]  B5 00 02 00
2025-11-08T02:09:58.395,43.457,can0  204  [16]  17 1A 50 46 50 46 50 46 FA 19 20 4E 30 75 00 00
2025-11-08T02:09:58.395,43.458,can0  204  [16]  17 1A 50 46 50 46 50 46 FA 19 20 4E 30 75 00 00
2025-11-08T02:09:58.395,43.458,can0  206  [16]  A7 0C D6 07 97 0C 3A DF ED 07 C3 0C A3 0C 00 00
2025-11-08T02:09:58.395,43.458,can0  204  [16]  17 1A 50 46 50 46 50 46 FA 19 20 4E 30 75 00 00
2025-11-08T02:09:58.742,43.805,can0  204  [16]  17 1A 50 46 50 46 50 46 FA 19 20 4E 30 75 00 00
2025-11-08T02:09:58.744,43.806,can0  206  [16]  A7 0C D6 07 97 0C 99 C6 E9 07 BF 0C A3 0C 00 00
2025-11-08T02:09:58.744,43.807,can0  204  [16]  17 1A 50 46 50 46 50 46 FA 19 20 4E 30 75 00 00
2025-11-08T02:09:58.744,43.807,can0  041  [04]  8B 00 02 00
2025-11-08T02:09:58.744,43.807,can0  204  [16]  17 1A 50 46 50 46 50 46 FA 19 20 4E 30 75 00 00
2025-11-08T02:09:58.745,43.807,can0  204  [16]  17 1A 50 46 50 46 50 46 FA 19 20 4E 30 75 00 00
2025-11-08T02:09:58.745,43.807,can0  206  [16]  97 0C D8 07 AB 0C C5 E1 ED 07 C7 0C A7 0C 00 00
2025-11-08T02:09:58.745,43.808,can0  204  [16]  17 1A 50 46 50 46 50 46 FA 19 20 4E 30 75 00 00
2025-11-08T02:09:59.109,44.172,can0  204  [16]  17 1A 50 46 50 46 50 46 FA 19 20 4E 30 75 00 00
2025-11-08T02:09:59.110,44.173,can0  041  [04]  8B 00 02 00
2025-11-08T02:09:59.110,44.173,can0  204  [16]  17 1A 50 46 50 46 50 46 FA 19 20 4E 30 75 00 00
2025-11-08T02:09:59.111,44.173,can0  206  [16]  A3 0C D8 07 93 0C DA DC F2 07 CF 0C A7 0C 00 00
2025-11-08T02:09:59.111,44.173,can0  204  [16]  17 1A 50 46 50 46 50 46 FA 19 20 4E 30 75 00 00
2025-11-08T02:09:59.111,44.174,can0  204  [16]  17 1A 50 46 50 46 50 46 FA 19 20 4E 30 75 00 00
2025-11-08T02:09:59.112,44.174,can0  206  [16]  AB 0C D8 07 9B 0C DA DC E9 07 C3 0C 9B 0C 00 00
2025-11-08T02:09:59.112,44.174,can0  204  [16]  17 1A 50 46 50 46 50 46 FA 19 20 4E 30 75 00 00
2025-11-08T02:09:59.112,44.174,can0  041  [04]  2F 00 02 00
2025-11-08T02:09:59.112,44.174,can0  204  [16]  17 1A 50 46 50 46 50 46 FA 19 20 4E 30 75 00 00
2025-11-08T02:09:59.466,44.529,can0  204  [16]  17 1A 50 46 50 46 50 46 FA 19 20 4E 30 75 00 00
2025-11-08T02:09:59.466,44.529,can0  206  [16]  97 0C D8 07 A7 0C DA DC ED 07 B7 0C AF 0C 00 00
2025-11-08T02:09:59.467,44.529,can0  204  [16]  17 1A 50 46 50 46 50 46 FA 19 20 4E 30 75 00 00
2025-11-08T02:09:59.467,44.530,can0  204  [16]  17 1A 50 46 50 46 50 46 FA 19 20 4E 30 75 00 00
2025-11-08T02:09:59.467,44.530,can0  206  [16]  A3 0C D8 07 A3 0C 3A DF ED 07 C3 0C A3 0C 00 00
2025-11-08T02:09:59.468,44.531,can0  204  [16]  17 1A 50 46 50 46 50 46 FA 19 20 4E 30 75 00 00
2025-11-08T02:09:59.469,44.531,can0  041  [04]  2F 00 02 00
2025-11-08T02:09:59.469,44.531,can0  204  [16]  17 1A 50 46 50 46 50 46 FA 19 20 4E 30 75 00 00
2025-11-08T02:09:59.469,44.531,can0  204  [16]  17 1A 50 46 50 46 50 46 FA 19 20 4E 30 75 00 00
2025-11-08T02:09:59.819,44.882,can0  206  [16]  A7 0C D6 07 97 0C 99 C6 ED 07 C3 0C A7 0C 00 00
2025-11-08T02:09:59.820,44.882,can0  204  [16]  17 1A 50 46 50 46 50 46 FA 19 20 4E 30 75 00 00
2025-11-08T02:09:59.820,44.882,can0  204  [16]  17 1A 50 46 50 46 50 46 FA 19 20 4E 30 75 00 00
2025-11-08T02:09:59.820,44.882,can0  041  [04]  2F 00 00 00
2025-11-08T02:09:59.820,44.882,can0  204  [16]  17 1A 50 46 50 46 50 46 FA 19 20 4E 30 75 00 00
2025-11-08T02:09:59.821,44.884,can0  206  [16]  9F 0C DA 07 9F 0C B1 E0 ED 07 BF 0C AB 0C 00 00
2025-11-08T02:09:59.821,44.884,can0  204  [16]  17 1A 50 46 50 46 50 46 FA 19 20 4E 30 75 00 00
2025-11-08T02:09:59.821,44.884,can0  204  [16]  17 1A 50 46 50 46 50 46 FA 19 20 4E 30 75 00 00
2025-11-08T02:10:00.185,45.247,can0  204  [16]  17 1A 50 46 50 46 50 46 FA 19 20 4E 30 75 00 00
2025-11-08T02:10:00.185,45.248,can0  206  [16]  9F 0C D8 07 9F 0C C5 E1 ED 07 C3 0C A7 0C 00 00
2025-11-08T02:10:00.185,45.248,can0  041  [04]  2F 00 00 00
2025-11-08T02:10:00.186,45.248,can0  204  [16]  17 1A 50 46 50 46 50 46 FA 19 20 4E 30 75 00 00
2025-11-08T02:10:00.186,45.249,can0  204  [16]  17 1A 50 46 50 46 50 46 FA 19 20 4E 30 75 00 00
2025-11-08T02:10:00.187,45.250,can0  206  [16]  A7 0C CB 07 9F 0C DA DC ED 07 BF 0C A3 0C 00 00
2025-11-08T02:10:00.187,45.250,can0  204  [16]  17 1A 50 46 50 46 50 46 FA 19 20 4E 30 75 00 00
2025-11-08T02:10:00.188,45.250,can0  204  [16]  17 1A 50 46 50 46 50 46 FA 19 20 4E 30 75 00 00
2025-11-08T02:10:00.188,45.250,can0  041  [04]  2F 00 02 00
