Timestamp,Elapsed_Time_s,CAN_Message
2025-11-08T03:08:13.226454,2.829,can0  204  [16]  E1 22 50 46 50 46 50 46 28 23 20 4E 30 75 00 00
2025-11-08T03:08:13.268527,2.871,can0  204  [16]  E1 22 50 46 50 46 50 46 28 23 20 4E 30 75 00 00
2025-11-08T03:08:13.316112,2.918,can0  206  [16]  9F 0C DC 07 9F 0C 57 E3 E0 07 BB 0C A7 0C 00 00
2025-11-08T03:08:13.342923,2.945,can0  204  [16]  E1 22 50 46 50 46 50 46 28 23 20 4E 30 75 00 00
2025-11-08T03:08:13.343461,2.946,can0  041  [04]  3F 01 00 00
2025-11-08T03:08:13.383183,2.985,can0  204  [16]  E1 22 50 46 50 46 50 46 28 23 20 4E 30 75 00 00
2025-11-08T03:08:13.445939,3.048,can0  204  [16]  E1 22 50 46 50 46 50 46 28 23 20 4E 30 75 00 00
2025-11-08T03:08:13.479982,3.082,can0  206  [16]  A3 0C DA 07 9F 0C F4 E3 F2 07 BF 0C A3 0C 00 00
2025-11-08T03:08:13.494591,3.097,can0  204  [16]  E1 22 50 46 50 46 50 46 28 23 20 4E 30 75 00 00
2025-11-08T03:08:13.557819,3.160,can0  204  [16]  E1 22 50 46 50 46 50 46 28 23 20 4E 30 75 00 00
2025-11-08T03:08:13.607064,3.209,can0  041  [04]  3F 01 00 00
2025-11-08T03:08:13.610307,3.213,can0  204  [16]  E1 22 50 46 50 46 50 46 28 23 20 4E 30 75 00 00
2025-11-08T03:08:13.647427,3.250,can0  206  [16]  8F 0C DA 07 A7 0C DA DC F6 07 BB 0C AB 0C 00 00
2025-11-08T03:08:13.668132,3.270,can0  204  [16]  E1 22 50 46 50 46 50 46 28 23 20 4E 30 75 00 00
2025-11-08T03:08:13.723507,3.326,can0  204  [16]  E1 22 50 46 50 46 50 46 28 23 20 4E 30 75 00 00
2025-11-08T03:08:13.782852,3.385,can0  204  [16]  E1 22 50 46 50 46 50 46 28 23 20 4E 30 75 00 00
2025-11-08T03:08:13.823032,3.425,can0  206  [16]  9F 0C DC 07 9F 0C 3A DF F2 07 BF 0C A7 0C 00 00
2025-11-08T03:08:13.838264,3.441,can0  204  [16]  E1 22 50 46 50 46 50 46 28 23 20 4E 30 75 00 00
2025-11-08T03:08:13.874657,3.477,can0  041  [04]  E4 00 00 00
2025-11-08T03:08:13.899233,3.502,can0  204  [16]  E1 22 50 46 50 46 50 46 28 23 20 4E 30 75 00 00
2025-11-08T03:08:13.970332,3.573,can0  204  [16]  E1 22 50 46 50 46 50 46 28 23 20 4E 30 75 00 00
2025-11-08T03:08:14.008048,3.610,can0  206  [16]  A7 0C DE 07 9B 0C B1 E0 EF 07 BB 0C A3 0C 00 00
2025-11-08T03:08:14.033079,3.635,can0  204  [16]  E1 22 50 46 50 46 50 46 28 23 20 4E 30 75 00 00
2025-11-08T03:08:14.086334,3.689,can0  204  [16]  E1 22 50 46 50 46 50 46 28 23 20 4E 30 75 00 00
2025-11-08T03:08:14.141044,3.743,can0  041  [04]  8B 00 00 00
2025-11-08T03:08:14.146632,3.749,can0  204  [16]  E1 22 50 46 50 46 50 46 28 23 20 4E 30 75 00 00
2025-11-08T03:08:14.154672,3.757,can0  206  [16]  A7 0C DC 07 97 0C B1 E0 F8 07 CB 0C 9F 0C 00 00
2025-11-08T03:08:14.211810,3.814,can0  204  [16]  E1 22 50 46 50 46 50 46 28 23 20 4E 30 75 00 00
2025-11-08T03:08:14.270316,3.873,can0  204  [16]  E1 22 50 46 50 46 50 46 28 23 20 4E 30 75 00 00
2025-11-08T03:08:14.316808,3.919,can0  206  [16]  9F 0C DE 07 A3 0C DA DC F4 07 C3 0C A3 0C 00 00
2025-11-08T03:08:14.318422,3.921,can0  204  [16]  E1 22 50 46 50 46 50 46 28 23 20 4E 30 75 00 00
2025-11-08T03:08:14.374572,3.977,can0  204  [16]  E1 22 50 46 50 46 50 46 28 23 20 4E 30 75 00 00
2025-11-08T03:08:14.417785,4.020,can0  041  [04]  2F 00 00 00
2025-11-08T03:08:14.431317,4.034,can0  204  [16]  E1 22 50 46 50 46 50 46 28 23 20 4E 30 75 00 00
2025-11-08T03:08:14.489055,4.091,can0  206  [16]  A7 0C DC 07 97 0C B1 E0 F2 07 BB 0C A3 0C 00 00
2025-11-08T03:08:14.489347,4.092,can0  204  [16]  E1 22 50 46 50 46 50 46 28 23 20 4E 30 75 00 00
2025-11-08T03:08:14.546334,4.149,can0  204  [16]  E1 22 50 46 50 46 50 46 28 23 20 4E 30 75 00 00
2025-11-08T03:08:14.606053,4.208,can0  204  [16]  E1 22 50 46 50 46 50 46 28 23 20 4E 30 75 00 00
2025-11-08T03:08:14.647423,4.250,can0  206  [16]  A7 0C DC 07 97 0C B1 E0 F2 07 C3 0C A3 0C 00 00
2025-11-08T03:08:14.674690,4.277,can0  204  [16]  E1 22 50 46 50 46 50 46 28 23 20 4E 30 75 00 00
2025-11-08T03:08:14.674754,4.277,can0  041  [04]  2F 00 00 00
2025-11-08T03:08:14.724248,4.327,can0  204  [16]  E1 22 50 46 50 46 50 46 28 23 20 4E 30 75 00 00
2025-11-08T03:08:14.786077,4.388,can0  204  [16]  E1 22 50 46 50 46 50 46 28 23 20 4E 30 75 00 00
2025-11-08T03:08:14.826797,4.429,can0  206  [16]  AB 0C DC 07 AB 0C DA DC F4 07 A7 0C 9B 0C 00 00
2025-11-08T03:08:14.833649,4.436,can0  204  [16]  E1 22 50 46 50 46 50 46 28 23 20 4E 30 75 00 00
2025-11-08T03:08:14.896418,4.499,can0  204  [16]  E1 22 50 46 50 46 50 46 28 23 20 4E 30 75 00 00
2025-11-08T03:08:14.936756,4.539,can0  041  [04]  8B 00 00 00
2025-11-08T03:08:14.981292,4.584,can0  204  [16]  E1 22 50 46 50 46 50 46 28 23 20 4E 30 75 00 00
2025-11-08T03:08:14.985259,4.588,can0  206  [16]  A7 0C DE 07 9F 0C 3A DF EF 07 BF 0C 9F 0C 00 00
2025-11-08T03:08:15.026102,4.628,can0  204  [16]  E1 22 50 46 50 46 50 46 28 23 20 4E 30 75 00 00
2025-11-08T03:08:15.086577,4.689,can0  204  [16]  E1 22 50 46 50 46 50 46 28 23 20 4E 30 75 00 00
2025-11-08T03:08:15.141190,4.743,can0  204  [16]  E1 22 50 46 50 46 50 46 28 23 20 4E 30 75 00 00
2025-11-08T03:08:15.151991,4.754,can0  206  [16]  A3 0C DC 07 97 0C 3A DF F2 07 C7 0C A7 0C 00 00
2025-11-08T03:08:15.197106,4.799,can0  204  [16]  E1 22 50 46 50 46 50 46 28 23 20 4E 30 75 00 00
2025-11-08T03:08:15.227600,4.830,can0  041  [04]  2F 00 00 00
2025-11-08T03:08:15.264095,4.866,can0  204  [16]  E1 22 50 46 50 46 50 46 28 23 20 4E 30 75 00 00
2025-11-08T03:08:15.314999,4.917,can0  204  [16]  E1 22 50 46 50 46 50 46 28 23 20 4E 30 75 00 00
2025-11-08T03:08:15.322902,4.925,can0  206  [16]  A3 0C DE 07 9B 0C 99 C6 F2 07 C3 0C A7 0C 00 00
2025-11-08T03:08:15.402783,5.005,can0  204  [16]  E1 22 50 46 50 46 50 46 28 23 20 4E 30 75 00 00
2025-11-08T03:08:15.430832,5.033,can0  204  [16]  E1 22 50 46 50 46 50 46 28 23 20 4E 30 75 00 00
2025-11-08T03:08:15.471816,5.074,can0  041  [04]  2F 00 00 00
2025-11-08T03:08:15.502117,5.104,can0  206  [16]  A7 0C DC 07 97 0C 2E E6 F4 07 C3 0C A3 0C 00 00
2025-11-08T03:08:15.502326,5.105,can0  204  [16]  E1 22 50 46 50 46 50 46 28 23 20 4E 30 75 00 00
2025-11-08T03:08:15.547653,5.150,can0  204  [16]  E1 22 50 46 50 46 50 46 28 23 20 4E 30 75 00 00
2025-11-08T03:08:15.612020,5.214,can0  204  [16]  E1 22 50 46 50 46 50 46 28 23 20 4E 30 75 00 00
2025-11-08T03:08:15.645160,5.247,can0  206  [16]  9F 0C DC 07 9F 0C DA DC EF 07 BF 0C A7 0C 00 00
2025-11-08T03:08:15.661509,5.264,can0  204  [16]  E1 22 50 46 50 46 50 46 28 23 20 4E 30 75 00 00
2025-11-08T03:08:15.716152,5.318,can0  204  [16]  E1 22 50 46 50 46 50 46 28 23 20 4E 30 75 00 00
2025-11-08T03:08:15.755253,5.358,can0  041  [04]  2F 00 00 00
2025-11-08T03:08:15.776213,5.378,can0  204  [16]  E1 22 50 46 50 46 50 46 28 23 20 4E 30 75 00 00
2025-11-08T03:08:15.817076,5.419,can0  206  [16]  9F 0C DC 07 9F 0C 99 C6 EF 07 BF 0C A7 0C 00 00
2025-11-08T03:08:15.834053,5.436,can0  204  [16]  E1 22 50 46 50 46 50 46 28 23 20 4E 30 75 00 00
2025-11-08T03:08:15.903524,5.506,can0  204  [16]  E1 22 50 46 50 46 50 46 28 23 20 4E 30 75 00 00
2025-11-08T03:08:15.966415,5.569,can0  204  [16]  E1 22 50 46 50 46 50 46 28 23 20 4E 30 75 00 00
2025-11-08T03:08:16.009579,5.612,can0  206  [16]  97 0C DE 07 9F 0C 99 C6 F2 07 C3 0C AF 0C 00 00
2025-11-08T03:08:16.023083,5.625,can0  041  [04]  8B 00 00 00
2025-11-08T03:08:16.024078,5.626,can0  204  [16]  E1 22 50 46 50 46 50 46 28 23 20 4E 30 75 00 00
2025-11-08T03:08:16.082734,5.685,can0  204  [16]  E1 22 50 46 50 46 50 46 28 23 20 4E 30 75 00 00
2025-11-08T03:08:16.138394,5.741,can0  204  [16]  E1 22 50 46 50 46 50 46 28 23 20 4E 30 75 00 00
2025-11-08T03:08:16.160032,5.762,can0  206  [16]  A7 0C DA 07 97 0C 99 C6 F6 07 C7 0C A3 0C 00 00
2025-11-08T03:08:16.226659,5.829,can0  204  [16]  E1 22 50 46 50 46 50 46 28 23 20 4E 30 75 00 00
2025-11-08T03:08:16.251367,5.854,can0  204  [16]  E1 22 50 46 50 46 50 46 28 23 20 4E 30 75 00 00
2025-11-08T03:08:16.268615,5.871,can0  041  [04]  8B 00 00 00
2025-11-08T03:08:16.326571,5.929,can0  204  [16]  E1 22 50 46 50 46 50 46 28 23 20 4E 30 75 00 00
2025-11-08T03:08:16.326632,5.929,can0  206  [16]  9F 0C 07 08 97 0C 99 C6 F2 07 C7 0C AB 0C 00 00
2025-11-08T03:08:16.369199,5.971,can0  204  [16]  E1 22 50 46 50 46 50 46 28 23 20 4E 30 75 00 00
2025-11-08T03:08:16.423585,6.026,can0  204  [16]  E1 22 50 46 50 46 50 46 28 23 20 4E 30 75 00 00
2025-11-08T03:08:16.474749,6.077,can0  206  [16]  A3 0C DC 07 97 0C DA DC F4 07 BB 0C AB 0C 00 00
2025-11-08T03:08:16.481122,6.083,can0  204  [16]  E1 22 50 46 50 46 50 46 28 23 20 4E 30 75 00 00
2025-11-08T03:08:16.534298,6.137,can0  041  [04]  8B 00 00 00
2025-11-08T03:08:16.549246,6.152,can0  204  [16]  E1 22 50 46 50 46 50 46 28 23 20 4E 30 75 00 00
2025-11-08T03:08:16.627677,6.230,can0  204  [16]  E1 22 50 46 50 46 50 46 28 23 20 4E 30 75 00 00
2025-11-08T03:08:16.645351,6.248,can0  206  [16]  A3 0C E0 07 9B 0C DA DC ED 07 C3 0C A3 0C 00 00
2025-11-08T03:08:16.657613,6.260,can0  204  [16]  E1 22 50 46 50 46 50 46 28 23 20 4E 30 75 00 00
2025-11-08T03:08:16.719530,6.322,can0  204  [16]  E1 22 50 46 50 46 50 46 28 23 20 4E 30 75 00 00
2025-11-08T03:08:16.773318,6.376,can0  204  [16]  E1 22 50 46 50 46 50 46 28 23 20 4E 30 75 00 00
2025-11-08T03:08:16.803257,6.406,can0  041  [04]  02 00 00 00
2025-11-08T03:08:16.841076,6.443,can0  206  [16]  A3 0C DC 07 97 0C 99 C6 EF 07 C3 0C A3 0C 00 00
2025-11-08T03:08:16.841128,6.443,can0  204  [16]  E1 22 50 46 50 46 50 46 28 23 20 4E 30 75 00 00
2025-11-08T03:08:16.884498,6.487,can0  204  [16]  E1 22 50 46 50 46 50 46 28 23 20 4E 30 75 00 00
2025-11-08T03:08:16.964802,6.567,can0  204  [16]  E1 22 50 46 50 46 50 46 28 23 20 4E 30 75 00 00
2025-11-08T03:08:16.984990,6.587,can0  206  [16]  A7 0C DC 07 9B 0C 3A DF F2 07 C3 0C 9F 0C 00 00
2025-11-08T03:08:17.042097,6.644,can0  204  [16]  E1 22 50 46 50 46 50 46 28 23 20 4E 30 75 00 00
2025-11-08T03:08:17.067016,6.669,can0  041  [04]  3F 01 00 00
2025-11-08T03:08:17.080013,6.682,can0  204  [16]  E1 22 50 46 50 46 50 46 28 23 20 4E 30 75 00 00
2025-11-08T03:08:17.148206,6.750,can0  204  [16]  E1 22 50 46 50 46 50 46 28 23 20 4E 30 75 00 00
2025-11-08T03:08:17.148272,6.751,can0  206  [16]  AB 0C DE 07 9F 0C B1 E0 1D 08 BB 0C 9F 0C 00 00
2025-11-08T03:08:17.190215,6.792,can0  204  [16]  E1 22 50 46 50 46 50 46 28 23 20 4E 30 75 00 00
2025-11-08T03:08:17.251991,6.854,can0  204  [16]  E1 22 50 46 50 46 50 46 28 23 20 4E 30 75 00 00
2025-11-08T03:08:17.305444,6.908,can0  204  [16]  E1 22 50 46 50 46 50 46 28 23 20 4E 30 75 00 00
2025-11-08T03:08:17.315059,6.917,can0  206  [16]  9B 0C DC 07 97 0C 3A DF EF 07 C7 0C AB 0C 00 00
2025-11-08T03:08:17.335959,6.938,can0  041  [04]  8B 00 00 00
2025-11-08T03:08:17.368119,6.970,can0  204  [16]  E1 22 50 46 50 46 50 46 28 23 20 4E 30 75 00 00
2025-11-08T03:08:17.465116,7.067,can0  204  [16]  E1 22 50 46 50 46 50 46 28 23 20 4E 30 75 00 00
2025-11-08T03:08:17.473319,7.076,can0  206  [16]  A7 0C DA 07 8F 0C C5 E1 F4 07 CF 0C A3 0C 00 00
2025-11-08T03:08:17.492900,7.095,can0  204  [16]  E1 22 50 46 50 46 50 46 28 23 20 4E 30 75 00 00
2025-11-08T03:08:17.558328,7.161,can0  204  [16]  E1 22 50 46 50 46 50 46 28 23 20 4E 30 75 00 00
2025-11-08T03:08:17.592897,7.195,can0  204  [16]  E1 22 50 46 50 46 50 46 28 23 20 4E 30 75 00 00
2025-11-08T03:08:17.598818,7.201,can0  041  [04]  E4 00 00 00
2025-11-08T03:08:17.644645,7.247,can0  206  [16]  9B 0C DE 07 77 0C DA DC EF 07 E3 0C AB 0C 00 00
2025-11-08T03:08:17.661554,7.264,can0  204  [16]  E1 22 50 46 50 46 50 46 28 23 20 4E 30 75 00 00
2025-11-08T03:08:17.707778,7.310,can0  204  [16]  E1 22 50 46 50 46 50 46 28 23 20 4E 30 75 00 00
2025-11-08T03:08:17.772276,7.375,can0  204  [16]  E1 22 50 46 50 46 50 46 28 23 20 4E 30 75 00 00
2025-11-08T03:08:17.803064,7.405,can0  206  [16]  A3 0C DC 07 9F 0C DA DC F8 07 B7 0C A3 0C 00 00
2025-11-08T03:08:17.823720,7.426,can0  204  [16]  E1 22 50 46 50 46 50 46 28 23 20 4E 30 75 00 00
2025-11-08T03:08:17.871985,7.474,can0  041  [04]  3F 01 00 00
2025-11-08T03:08:17.893285,7.496,can0  204  [16]  E1 22 50 46 50 46 50 46 28 23 20 4E 30 75 00 00
2025-11-08T03:08:17.976762,7.579,can0  204  [16]  E1 22 50 46 50 46 50 46 28 23 20 4E 30 75 00 00
2025-11-08T03:08:17.977134,7.579,can0  206  [16]  9B 0C DE 07 A3 0C DA DC F2 07 BB 0C A7 0C 00 00
2025-11-08T03:08:18.015437,7.618,can0  204  [16]  E1 22 50 46 50 46 50 46 28 23 20 4E 30 75 00 00
2025-11-08T03:08:18.073241,7.676,can0  204  [16]  E1 22 50 46 50 46 50 46 28 23 20 4E 30 75 00 00
2025-11-08T03:08:18.137491,7.740,can0  204  [16]  E1 22 50 46 50 46 50 46 28 23 20 4E 30 75 00 00
2025-11-08T03:08:18.138088,7.740,can0  041  [04]  3F 01 00 00
2025-11-08T03:08:18.138124,7.740,can0  206  [16]  8F 0C DE 07 AB 0C 3A DF F2 07 BF 0C AB 0C 00 00
2025-11-08T03:08:18.194303,7.797,can0  204  [16]  E1 22 50 46 50 46 50 46 28 23 20 4E 30 75 00 00
2025-11-08T03:08:18.266261,7.869,can0  204  [16]  E1 22 50 46 50 46 50 46 28 23 20 4E 30 75 00 00
2025-11-08T03:08:18.289250,7.892,can0  206  [16]  8F 0C DC 07 9F 0C B1 E0 F4 07 C7 0C B3 0C 00 00
2025-11-08T03:08:18.310141,7.912,can0  204  [16]  E1 22 50 46 50 46 50 46 28 23 20 4E 30 75 00 00
2025-11-08T03:08:18.376098,7.978,can0  204  [16]  E1 22 50 46 50 46 50 46 28 23 20 4E 30 75 00 00
2025-11-08T03:08:18.398497,8.001,can0  041  [04]  8B 00 00 00
2025-11-08T03:08:18.418536,8.021,can0  204  [16]  E1 22 50 46 50 46 50 46 28 23 20 4E 30 75 00 00
2025-11-08T03:08:18.463858,8.066,can0  206  [16]  A3 0C D8 07 9B 0C DA DC EF 07 B7 0C A3 0C 00 00
2025-11-08T03:08:18.474045,8.076,can0  204  [16]  E1 22 50 46 50 46 50 46 28 23 20 4E 30 75 00 00
2025-11-08T03:08:18.532454,8.135,can0  204  [16]  E1 22 50 46 50 46 50 46 28 23 20 4E 30 75 00 00
2025-11-08T03:08:18.592546,8.195,can0  204  [16]  E1 22 50 46 50 46 50 46 28 23 20 4E 30 75 00 00
2025-11-08T03:08:18.623919,8.226,can0  206  [16]  A7 0C DC 07 9F 0C DA DC F2 07 BF 0C 9B 0C 00 00
2025-11-08T03:08:18.649308,8.252,can0  204  [16]  E1 22 50 46 50 46 50 46 28 23 20 4E 30 75 00 00
2025-11-08T03:08:18.665847,8.268,can0  041  [04]  8B 00 00 00
2025-11-08T03:08:18.718382,8.321,can0  204  [16]  E1 22 50 46 50 46 50 46 28 23 20 4E 30 75 00 00
2025-11-08T03:08:18.784704,8.387,can0  204  [16]  E1 22 50 46 50 46 50 46 28 23 20 4E 30 75 00 00
2025-11-08T03:08:18.806688,8.409,can0  206  [16]  AB 0C DC 07 9F 0C B1 E0 F4 07 B3 0C 9F 0C 00 00
2025-11-08T03:08:18.821860,8.424,can0  204  [16]  E1 22 50 46 50 46 50 46 28 23 20 4E 30 75 00 00
2025-11-08T03:08:18.886199,8.488,can0  204  [16]  E1 22 50 46 50 46 50 46 28 23 20 4E 30 75 00 00
2025-11-08T03:08:19.226269,8.829,can0  041  [04]  8B 00 00 00
2025-11-08T03:08:19.226684,8.829,can0  204  [16]  E1 22 50 46 50 46 50 46 28 23 20 4E 30 75 00 00
2025-11-08T03:08:19.226983,8.829,can0  206  [16]  A3 0C DE 07 9B 0C DA DC F2 07 BF 0C A7 0C 00 00
2025-11-08T03:08:19.227286,8.830,can0  204  [16]  E1 22 50 46 50 46 50 46 28 23 20 4E 30 75 00 00
2025-11-08T03:08:19.227624,8.830,can0  204  [16]  E1 22 50 46 50 46 50 46 28 23 20 4E 30 75 00 00
2025-11-08T03:08:19.227773,8.830,can0  206  [16]  A3 0C E5 07 9B 0C B1 E0 EF 07 C3 0C A3 0C 00 00
2025-11-08T03:08:19.230966,8.833,can0  204  [16]  E1 22 50 46 50 46 50 46 28 23 20 4E 30 75 00 00
2025-11-08T03:08:19.233645,8.836,can0  204  [16]  E1 22 50 46 50 46 50 46 28 23 20 4E 30 75 00 00
2025-11-08T03:08:19.233843,8.836,can0  041  [04]  3F 01 00 00
2025-11-08T03:08:19.243050,8.845,can0  204  [16]  E1 22 50 46 50 46 50 46 28 23 20 4E 30 75 00 00
2025-11-08T03:08:19.305128,8.907,can0  206  [16]  7B 0C E3 07 97 0C 99 C6 F2 07 C7 0C CB 0C 00 00
2025-11-08T03:08:19.305189,8.907,can0  204  [16]  E1 22 50 46 50 46 50 46 28 23 20 4E 30 75 00 00
2025-11-08T03:08:19.426545,9.029,can0  204  [16]  E1 22 50 46 50 46 50 46 28 23 20 4E 30 75 00 00
2025-11-08T03:08:19.426872,9.029,can0  204  [16]  E1 22 50 46 50 46 50 46 28 23 20 4E 30 75 00 00
2025-11-08T03:08:19.718779,9.321,can0  206  [16]  9B 0C DE 07 97 0C 3A DF F8 07 BF 0C AB 0C 00 00
2025-11-08T03:08:19.718914,9.321,can0  041  [04]  3F 01 00 00
2025-11-08T03:08:19.718935,9.321,can0  204  [16]  E1 22 50 46 50 46 50 46 28 23 20 4E 30 75 00 00
2025-11-08T03:08:19.718951,9.321,can0  204  [16]  E1 22 50 46 50 46 50 46 28 23 20 4E 30 75 00 00
2025-11-08T03:08:19.718966,9.321,can0  204  [16]  E1 22 50 46 50 46 50 46 28 23 20 4E 30 75 00 00
2025-11-08T03:08:19.720373,9.323,can0  206  [16]  AB 0C DC 07 9B 0C A0 E2 F4 07 C7 0C 9F 0C 00 00
2025-11-08T03:08:19.720571,9.323,can0  204  [16]  E1 22 50 46 50 46 50 46 28 23 20 4E 30 75 00 00
2025-11-08T03:08:19.755208,9.357,can0  204  [16]  E1 22 50 46 50 46 50 46 28 23 20 4E 30 75 00 00
2025-11-08T03:08:19.755475,9.358,can0  041  [04]  3F 01 00 00
2025-11-08T03:08:19.759528,9.362,can0  204  [16]  E1 22 50 46 50 46 50 46 28 23 20 4E 30 75 00 00
2025-11-08T03:08:19.813310,9.416,can0  206  [16]  9B 0C DC 07 9F 0C 3A DF EF 07 BB 0C AB 0C 00 00
2025-11-08T03:08:19.845571,9.448,can0  204  [16]  E1 22 50 46 50 46 50 46 28 23 20 4E 30 75 00 00
2025-11-08T03:08:19.891993,9.494,can0  204  [16]  E1 22 50 46 50 46 50 46 28 23 20 4E 30 75 00 00
2025-11-08T03:08:20.157602,9.760,can0  204  [16]  E1 22 50 46 50 46 50 46 28 23 20 4E 30 75 00 00
2025-11-08T03:08:20.157828,9.760,can0  206  [16]  A3 0C DC 07 97 0C B1 E0 F2 07 BF 0C A7 0C 00 00
2025-11-08T03:08:20.157888,9.760,can0  041  [04]  2F 00 00 00
2025-11-08T03:08:20.157941,9.760,can0  204  [16]  E1 22 50 46 50 46 50 46 28 23 20 4E 30 75 00 00
2025-11-08T03:08:20.157982,9.760,can0  204  [16]  E1 22 50 46 50 46 50 46 28 23 20 4E 30 75 00 00
2025-11-08T03:08:20.158141,9.760,can0  204  [16]  E1 22 50 46 50 46 50 46 28 23 20 4E 30 75 00 00
2025-11-08T03:08:20.158168,9.760,can0  206  [16]  A7 0C DC 07 9F 0C 99 C6 F4 07 C3 0C 9F 0C 00 00
2025-11-08T03:08:20.305997,9.908,can0  204  [16]  E1 22 50 46 50 46 50 46 28 23 20 4E 30 75 00 00
2025-11-08T03:08:20.307835,9.910,can0  204  [16]  E1 22 50 46 50 46 50 46 28 23 20 4E 30 75 00 00
2025-11-08T03:08:20.307889,9.910,can0  041  [04]  2F 00 00 00
2025-11-08T03:08:20.307910,9.910,can0  204  [16]  E1 22 50 46 50 46 50 46 28 23 20 4E 30 75 00 00
2025-11-08T03:08:20.308143,9.910,can0  206  [16]  9F 0C DC 07 9F 0C 3A DF F2 07 BB 0C A7 0C 00 00
2025-11-08T03:08:20.357156,9.959,can0  204  [16]  E1 22 50 46 50 46 50 46 28 23 20 4E 30 75 00 00
2025-11-08T03:08:20.488695,10.091,can0  204  [16]  E1 22 50 46 50 46 50 46 28 23 20 4E 30 75 00 00
2025-11-08T03:08:20.488766,10.091,can0  206  [16]  9F 0C DC 07 9F 0C B1 E0 EF 07 AF 0C A7 0C 00 00
2025-11-08T03:08:20.488789,10.091,can0  204  [16]  E1 22 50 46 50 46 50 46 28 23 20 4E 30 75 00 00
2025-11-08T03:08:20.530415,10.133,can0  204  [16]  E1 22 50 46 50 46 50 46 28 23 20 4E 30 75 00 00
2025-11-08T03:08:20.530480,10.133,can0  041  [04]  2F 00 00 00
2025-11-08T03:08:20.588029,10.190,can0  204  [16]  E1 22 50 46 50 46 50 46 28 23 20 4E 30 75 00 00
2025-11-08T03:08:20.630949,10.233,can0  206  [16]  AF 0C DC 07 9F 0C DA DC EF 07 B7 0C 97 0C 00 00
2025-11-08T03:08:20.639887,10.242,can0  204  [16]  E1 22 50 46 50 46 50 46 28 23 20 4E 30 75 00 00
2025-11-08T03:08:20.721058,10.323,can0  204  [16]  E1 22 50 46 50 46 50 46 28 23 20 4E 30 75 00 00
2025-11-08T03:08:20.870831,10.473,can0  204  [16]  E1 22 50 46 50 46 50 46 28 23 20 4E 30 75 00 00
2025-11-08T03:08:20.870899,10.473,can0  041  [04]  3F 01 00 00
2025-11-08T03:08:20.870922,10.473,can0  206  [16]  A3 0C DE 07 A7 0C DA DC F4 07 BB 0C A3 0C 00 00
2025-11-08T03:08:20.870941,10.473,can0  204  [16]  E1 22 50 46 50 46 50 46 28 23 20 4E 30 75 00 00
2025-11-08T03:08:20.871210,10.473,can0  204  [16]  E1 22 50 46 50 46 50 46 28 23 20 4E 30 75 00 00
2025-11-08T03:08:20.947225,10.549,can0  204  [16]  E1 22 50 46 50 46 50 46 28 23 20 4E 30 75 00 00
2025-11-08T03:08:21.068877,10.671,can0  206  [16]  9F 0C DC 07 9F 0C 7E E4 EF 07 BF 0C A7 0C 00 00
2025-11-08T03:08:21.076781,10.679,can0  204  [16]  E1 22 50 46 50 46 50 46 28 23 20 4E 30 75 00 00
2025-11-08T03:08:21.126224,10.728,can0  204  [16]  E1 22 50 46 50 46 50 46 28 23 20 4E 30 75 00 00
2025-11-08T03:08:21.126289,10.729,can0  041  [04]  3F 01 00 00
2025-11-08T03:08:21.126316,10.729,can0  204  [16]  E1 22 50 46 50 46 50 46 28 23 20 4E 30 75 00 00
2025-11-08T03:08:21.144187,10.746,can0  206  [16]  A7 0C DC 07 97 0C 99 C6 0E 08 BB 0C 9F 0C 00 00
2025-11-08T03:08:21.177700,10.780,can0  204  [16]  E1 22 50 46 50 46 50 46 28 23 20 4E 30 75 00 00
2025-11-08T03:08:21.234097,10.836,can0  204  [16]  E1 22 50 46 50 46 50 46 28 23 20 4E 30 75 00 00
2025-11-08T03:08:21.291551,10.894,can0  204  [16]  E1 22 50 46 50 46 50 46 28 23 20 4E 30 75 00 00
2025-11-08T03:08:21.303936,10.906,can0  206  [16]  9F 0C DC 07 97 0C DA DC EF 07 B7 0C AB 0C 00 00
2025-11-08T03:08:21.331401,10.934,can0  041  [04]  3F 01 00 00
2025-11-08T03:08:21.348174,10.950,can0  204  [16]  E1 22 50 46 50 46 50 46 28 23 20 4E 30 75 00 00
2025-11-08T03:08:21.410079,11.012,can0  204  [16]  E1 22 50 46 50 46 50 46 28 23 20 4E 30 75 00 00
2025-11-08T03:08:21.467982,11.070,can0  204  [16]  E1 22 50 46 50 46 50 46 28 23 20 4E 30 75 00 00
2025-11-08T03:08:21.484431,11.087,can0  206  [16]  AB 0C DC 07 93 0C 99 C6 F4 07 C3 0C A3 0C 00 00
2025-11-08T03:08:21.539219,11.141,can0  204  [16]  E1 22 50 46 50 46 50 46 28 23 20 4E 30 75 00 00
2025-11-08T03:08:21.576737,11.179,can0  204  [16]  E1 22 50 46 50 46 50 46 28 23 20 4E 30 75 00 00
2025-11-08T03:08:21.593456,11.196,can0  041  [04]  3F 01 00 00
2025-11-08T03:08:21.642899,11.245,can0  206  [16]  A3 0C B8 07 9B 0C DA DC EF 07 C3 0C A3 0C 00 00
2025-11-08T03:08:21.642965,11.245,can0  204  [16]  E1 22 50 46 50 46 50 46 28 23 20 4E 30 75 00 00
2025-11-08T03:08:21.691354,11.294,can0  204  [16]  E1 22 50 46 50 46 50 46 28 23 20 4E 30 75 00 00
2025-11-08T03:08:21.758636,11.361,can0  204  [16]  E1 22 50 46 50 46 50 46 28 23 20 4E 30 75 00 00
2025-11-08T03:08:21.785447,11.388,can0  206  [16]  7B 0C D1 07 BF 0C 99 C6 F2 07 BF 0C AB 0C 00 00
2025-11-08T03:08:21.812924,11.415,can0  204  [16]  E1 22 50 46 50 46 50 46 28 23 20 4E 30 75 00 00
2025-11-08T03:08:21.861715,11.464,can0  041  [04]  3F 01 00 00
2025-11-08T03:08:21.863903,11.466,can0  204  [16]  E1 22 50 46 50 46 50 46 28 23 20 4E 30 75 00 00
2025-11-08T03:08:21.949996,11.552,can0  204  [16]  E1 22 50 46 50 46 50 46 28 23 20 4E 30 75 00 00
2025-11-08T03:08:21.957740,11.560,can0  206  [16]  A7 0C DA 07 9B 0C B1 E0 F4 07 BB 0C A3 0C 00 00
2025-11-08T03:08:22.002737,11.605,can0  204  [16]  E1 22 50 46 50 46 50 46 28 23 20 4E 30 75 00 00
2025-11-08T03:08:22.062201,11.664,can0  204  [16]  E1 22 50 46 50 46 50 46 28 23 20 4E 30 75 00 00
2025-11-08T03:08:22.111897,11.714,can0  204  [16]  E1 22 50 46 50 46 50 46 28 23 20 4E 30 75 00 00
2025-11-08T03:08:22.120657,11.723,can0  206  [16]  97 0C DC 07 97 0C 99 C6 F6 07 C3 0C AF 0C 00 00
2025-11-08T03:08:22.154149,11.756,can0  041  [04]  02 00 00 00
2025-11-08T03:08:22.177006,11.779,can0  204  [16]  E1 22 50 46 50 46 50 46 28 23 20 4E 30 75 00 00
2025-11-08T03:08:22.227864,11.830,can0  204  [16]  E1 22 50 46 50 46 50 46 28 23 20 4E 30 75 00 00
2025-11-08T03:08:22.286738,11.889,can0  204  [16]  E1 22 50 46 50 46 50 46 28 23 20 4E 30 75 00 00
2025-11-08T03:08:22.297533,11.900,can0  206  [16]  97 0C DC 07 CB 0C DA DC F2 07 9B 0C AB 0C 00 00
2025-11-08T03:08:22.355595,11.958,can0  204  [16]  E1 22 50 46 50 46 50 46 28 23 20 4E 30 75 00 00
2025-11-08T03:08:22.405319,12.008,can0  041  [04]  10 01 00 00
2025-11-08T03:08:22.405784,12.008,can0  204  [16]  E1 22 50 46 50 46 50 46 28 23 20 4E 30 75 00 00
2025-11-08T03:08:22.465424,12.068,can0  204  [16]  E1 22 50 46 50 46 50 46 28 23 20 4E 30 75 00 00
2025-11-08T03:08:22.465488,12.068,can0  206  [16]  9B 0C DA 07 9B 0C 99 C6 F2 07 C3 0C AB 0C 00 00
2025-11-08T03:08:22.515789,12.118,can0  204  [16]  E1 22 50 46 50 46 50 46 28 23 20 4E 30 75 00 00
2025-11-08T03:08:22.575741,12.178,can0  204  [16]  E1 22 50 46 50 46 50 46 28 23 20 4E 30 75 00 00
2025-11-08T03:08:22.620308,12.223,can0  206  [16]  AB 0C DC 07 9B 0C 99 C6 F4 07 C3 0C 9B 0C 00 00
2025-11-08T03:08:22.672339,12.275,can0  204  [16]  E1 22 50 46 50 46 50 46 28 23 20 4E 30 75 00 00
2025-11-08T03:08:22.673224,12.275,can0  041  [04]  10 01 00 00
2025-11-08T03:08:22.693597,12.296,can0  204  [16]  E1 22 50 46 50 46 50 46 28 23 20 4E 30 75 00 00
2025-11-08T03:08:22.764321,12.367,can0  204  [16]  E1 22 50 46 50 46 50 46 28 23 20 4E 30 75 00 00
2025-11-08T03:08:22.785415,12.388,can0  206  [16]  9B 0C DC 07 9F 0C DA DC E9 07 BF 0C AB 0C 00 00
2025-11-08T03:08:22.802308,12.405,can0  204  [16]  E1 22 50 46 50 46 50 46 28 23 20 4E 30 75 00 00
2025-11-08T03:08:22.880527,12.483,can0  204  [16]  E1 22 50 46 50 46 50 46 28 23 20 4E 30 75 00 00
2025-11-08T03:08:22.925600,12.528,can0  041  [04]  3F 01 00 00
2025-11-08T03:08:22.930639,12.533,can0  204  [16]  E1 22 50 46 50 46 50 46 28 23 20 4E 30 75 00 00
2025-11-08T03:08:22.986726,12.589,can0  206  [16]  9B 0C E0 07 9B 0C A0 E2 F2 07 BF 0C AB 0C 00 00
2025-11-08T03:08:22.995389,12.598,can0  204  [16]  E1 22 50 46 50 46 50 46 28 23 20 4E 30 75 00 00
2025-11-08T03:08:23.071802,12.674,can0  204  [16]  E1 22 50 46 50 46 50 46 28 23 20 4E 30 75 00 00
2025-11-08T03:08:23.116216,12.718,can0  204  [16]  E1 22 50 46 50 46 50 46 28 23 20 4E 30 75 00 00
2025-11-08T03:08:23.124301,12.727,can0  206  [16]  B3 0C E0 07 A3 0C 3A DF F2 07 BF 0C 8F 0C 00 00
2025-11-08T03:08:23.174914,12.777,can0  204  [16]  E1 22 50 46 50 46 50 46 28 23 20 4E 30 75 00 00
2025-11-08T03:08:23.190929,12.793,can0  041  [04]  10 01 00 00
2025-11-08T03:08:23.227690,12.830,can0  204  [16]  E1 22 50 46 50 46 50 46 28 23 20 4E 30 75 00 00
2025-11-08T03:08:23.303585,12.906,can0  204  [16]  E1 22 50 46 50 46 50 46 28 23 20 4E 30 75 00 00
2025-11-08T03:08:23.303654,12.906,can0  206  [16]  AB 0C DA 07 9F 0C 99 C6 F4 07 BF 0C 9B 0C 00 00
2025-11-08T03:08:23.339532,12.942,can0  204  [16]  E1 22 50 46 50 46 50 46 28 23 20 4E 30 75 00 00
2025-11-08T03:08:23.398644,13.001,can0  204  [16]  E1 22 50 46 50 46 50 46 28 23 20 4E 30 75 00 00
2025-11-08T03:08:23.447940,13.050,can0  206  [16]  9F 0C DE 07 A3 0C B1 E0 F2 07 B3 0C A7 0C 00 00
2025-11-08T03:08:23.455819,13.058,can0  204  [16]  E1 22 50 46 50 46 50 46 28 23 20 4E 30 75 00 00
2025-11-08T03:08:23.461137,13.063,can0  041  [04]  3F 01 00 00
2025-11-08T03:08:23.515590,13.118,can0  204  [16]  E1 22 50 46 50 46 50 46 28 23 20 4E 30 75 00 00
2025-11-08T03:08:23.581255,13.184,can0  204  [16]  E1 22 50 46 50 46 50 46 28 23 20 4E 30 75 00 00
2025-11-08T03:08:23.621403,13.224,can0  206  [16]  9F 0C E0 07 9B 0C DA DC EF 07 BB 0C AB 0C 00 00
2025-11-08T03:08:23.628749,13.231,can0  204  [16]  E1 22 50 46 50 46 50 46 28 23 20 4E 30 75 00 00
2025-11-08T03:08:23.690157,13.292,can0  204  [16]  E1 22 50 46 50 46 50 46 28 23 20 4E 30 75 00 00
2025-11-08T03:08:23.728178,13.330,can0  041  [04]  02 00 00 00
2025-11-08T03:08:23.739892,13.342,can0  204  [16]  E1 22 50 46 50 46 50 46 28 23 20 4E 30 75 00 00
2025-11-08T03:08:23.806336,13.409,can0  206  [16]  9F 0C E5 07 9B 0C DA DC F2 07 C3 0C A7 0C 00 00
2025-11-08T03:08:23.806821,13.409,can0  204  [16]  E1 22 50 46 50 46 50 46 28 23 20 4E 30 75 00 00
2025-11-08T03:08:23.858454,13.461,can0  204  [16]  E1 22 50 46 50 46 50 46 28 23 20 4E 30 75 00 00
2025-11-08T03:08:23.928592,13.531,can0  204  [16]  E1 22 50 46 50 46 50 46 28 23 20 4E 30 75 00 00
2025-11-08T03:08:23.954052,13.556,can0  206  [16]  A7 0C DA 07 93 0C DA DC F6 07 C3 0C A7 0C 00 00
2025-11-08T03:08:24.005192,13.607,can0  204  [16]  E1 22 50 46 50 46 50 46 28 23 20 4E 30 75 00 00
2025-11-08T03:08:24.005259,13.608,can0  041  [04]  3F 01 02 00
2025-11-08T03:08:24.047445,13.650,can0  204  [16]  E1 22 50 46 50 46 50 46 28 23 20 4E 30 75 00 00
2025-11-08T03:08:24.110901,13.713,can0  204  [16]  E1 22 50 46 50 46 50 46 28 23 20 4E 30 75 00 00
2025-11-08T03:08:24.122024,13.724,can0  206  [16]  A7 0C DC 07 97 0C DA DC F6 07 C7 0C 9F 0C 00 00
2025-11-08T03:08:24.159547,13.762,can0  204  [16]  E1 22 50 46 50 46 50 46 28 23 20 4E 30 75 00 00
2025-11-08T03:08:24.216778,13.819,can0  204  [16]  E1 22 50 46 50 46 50 46 28 23 20 4E 30 75 00 00
2025-11-08T03:08:24.257696,13.860,can0  041  [04]  3F 01 00 00
2025-11-08T03:08:24.274240,13.877,can0  204  [16]  E1 22 50 46 50 46 50 46 28 23 20 4E 30 75 00 00
2025-11-08T03:08:24.298153,13.900,can0  206  [16]  A3 0C DE 07 A3 0C 3A DF EB 07 BF 0C A3 0C 00 00
2025-11-08T03:08:24.335020,13.937,can0  204  [16]  E1 22 50 46 50 46 50 46 28 23 20 4E 30 75 00 00
2025-11-08T03:08:24.419638,14.022,can0  204  [16]  E1 22 50 46 50 46 50 46 28 23 20 4E 30 75 00 00
2025-11-08T03:08:24.453697,14.056,can0  204  [16]  E1 22 50 46 50 46 50 46 28 23 20 4E 30 75 00 00
2025-11-08T03:08:24.460521,14.063,can0  206  [16]  9F 0C DC 07 8B 0C 99 C6 EF 07 CF 0C AB 0C 00 00
2025-11-08T03:08:24.523489,14.126,can0  204  [16]  E1 22 50 46 50 46 50 46 28 23 20 4E 30 75 00 00
2025-11-08T03:08:24.523566,14.126,can0  041  [04]  3F 01 00 00
2025-11-08T03:08:24.562550,14.165,can0  204  [16]  E1 22 50 46 50 46 50 46 28 23 20 4E 30 75 00 00
2025-11-08T03:08:24.629665,14.232,can0  206  [16]  97 0C DC 07 9B 0C 3A DF EF 07 DF 0C AF 0C 00 00
2025-11-08T03:08:24.629727,14.232,can0  204  [16]  E1 22 50 46 50 46 50 46 28 23 20 4E 30 75 00 00
2025-11-08T03:08:24.680669,14.283,can0  204  [16]  E1 22 50 46 50 46 50 46 28 23 20 4E 30 75 00 00
2025-11-08T03:08:24.745505,14.348,can0  204  [16]  E1 22 50 46 50 46 50 46 28 23 20 4E 30 75 00 00
2025-11-08T03:08:24.787680,14.390,can0  206  [16]  9B 0C DC 07 9B 0C DA DC F2 07 C3 0C AB 0C 00 00
2025-11-08T03:08:24.822196,14.424,can0  041  [04]  02 00 02 00
2025-11-08T03:08:24.822261,14.425,can0  204  [16]  E1 22 50 46 50 46 50 46 28 23 20 4E 30 75 00 00
2025-11-08T03:08:24.850604,14.453,can0  204  [16]  E1 22 50 46 50 46 50 46 28 23 20 4E 30 75 00 00
2025-11-08T03:08:24.928952,14.531,can0  204  [16]  E1 22 50 46 50 46 50 46 28 23 20 4E 30 75 00 00
2025-11-08T03:08:24.952973,14.555,can0  206  [16]  A7 0C D8 07 9B 0C 99 C6 FA 07 B3 0C A3 0C 00 00
2025-11-08T03:08:24.984346,14.587,can0  204  [16]  E1 22 50 46 50 46 50 46 28 23 20 4E 30 75 00 00
2025-11-08T03:08:25.044274,14.647,can0  204  [16]  E1 22 50 46 50 46 50 46 28 23 20 4E 30 75 00 00
2025-11-08T03:08:25.055472,14.658,can0  041  [04]  02 00 02 00
2025-11-08T03:08:25.130520,14.733,can0  204  [16]  E1 22 50 46 50 46 50 46 28 23 20 4E 30 75 00 00
2025-11-08T03:08:25.133778,14.736,can0  206  [16]  9B 0C DA 07 9F 0C DA DC F2 07 C3 0C AB 0C 00 00
2025-11-08T03:08:25.157577,14.760,can0  204  [16]  E1 22 50 46 50 46 50 46 28 23 20 4E 30 75 00 00
2025-11-08T03:08:25.222726,14.825,can0  204  [16]  E1 22 50 46 50 46 50 46 28 23 20 4E 30 75 00 00
2025-11-08T03:08:25.273768,14.876,can0  204  [16]  E1 22 50 46 50 46 50 46 28 23 20 4E 30 75 00 00
2025-11-08T03:08:25.285412,14.888,can0  206  [16]  9B 0C E3 07 A3 0C B1 E0 EF 07 BB 0C A3 0C 00 00
2025-11-08T03:08:25.331025,14.933,can0  041  [04]  3F 01 00 00
2025-11-08T03:08:25.342596,14.945,can0  204  [16]  E1 22 50 46 50 46 50 46 28 23 20 4E 30 75 00 00
2025-11-08T03:08:25.387811,14.990,can0  204  [16]  E1 22 50 46 50 46 50 46 28 23 20 4E 30 75 00 00
2025-11-08T03:08:25.443949,15.046,can0  204  [16]  E1 22 50 46 50 46 50 46 28 23 20 4E 30 75 00 00
2025-11-08T03:08:25.453351,15.056,can0  206  [16]  9B 0C DC 07 A7 0C 99 C6 F2 07 B7 0C A7 0C 00 00
2025-11-08T03:08:25.511066,15.113,can0  204  [16]  E1 22 50 46 50 46 50 46 28 23 20 4E 30 75 00 00
2025-11-08T03:08:25.560483,15.163,can0  204  [16]  E1 22 50 46 50 46 50 46 28 23 20 4E 30 75 00 00
2025-11-08T03:08:25.588140,15.190,can0  041  [04]  10 01 00 00
2025-11-08T03:08:25.631413,15.234,can0  204  [16]  E1 22 50 46 50 46 50 46 28 23 20 4E 30 75 00 00
2025-11-08T03:08:25.631479,15.234,can0  206  [16]  97 0C DE 07 A3 0C B1 E0 EF 07 BF 0C AB 0C 00 00
2025-11-08T03:08:25.677563,15.280,can0  204  [16]  E1 22 50 46 50 46 50 46 28 23 20 4E 30 75 00 00
2025-11-08T03:08:25.751400,15.354,can0  204  [16]  E1 22 50 46 50 46 50 46 28 23 20 4E 30 75 00 00
2025-11-08T03:08:25.779330,15.382,can0  206  [16]  A7 0C DC 07 9F 0C DA DC F6 07 BF 0C 9F 0C 00 00
2025-11-08T03:08:25.791079,15.393,can0  204  [16]  E1 22 50 46 50 46 50 46 28 23 20 4E 30 75 00 00
2025-11-08T03:08:25.849556,15.452,can0  204  [16]  E1 22 50 46 50 46 50 46 28 23 20 4E 30 75 00 00
2025-11-08T03:08:25.854881,15.457,can0  041  [04]  10 01 00 00
2025-11-08T03:08:25.909890,15.512,can0  204  [16]  E1 22 50 46 50 46 50 46 28 23 20 4E 30 75 00 00
2025-11-08T03:08:25.953681,15.556,can0  206  [16]  A3 0C DC 07 9B 0C DA DC EF 07 C3 0C A3 0C 00 00
2025-11-08T03:08:25.981434,15.584,can0  204  [16]  E1 22 50 46 50 46 50 46 28 23 20 4E 30 75 00 00
2025-11-08T03:08:26.038258,15.641,can0  204  [16]  E1 22 50 46 50 46 50 46 28 23 20 4E 30 75 00 00
2025-11-08T03:08:26.093153,15.695,can0  204  [16]  E1 22 50 46 50 46 50 46 28 23 20 4E 30 75 00 00
2025-11-08T03:08:26.114271,15.717,can0  206  [16]  93 0C DC 07 9F 0C 99 C6 EF 07 C3 0C AF 0C 00 00
2025-11-08T03:08:26.122834,15.725,can0  041  [04]  3F 01 00 00
2025-11-08T03:08:26.150738,15.753,can0  204  [16]  E1 22 50 46 50 46 50 46 28 23 20 4E 30 75 00 00
2025-11-08T03:08:26.208036,15.810,can0  204  [16]  E1 22 50 46 50 46 50 46 28 23 20 4E 30 75 00 00
2025-11-08T03:08:26.266097,15.868,can0  204  [16]  E1 22 50 46 50 46 50 46 28 23 20 4E 30 75 00 00
2025-11-08T03:08:26.281384,15.884,can0  206  [16]  A3 0C DA 07 9B 0C DA DC EF 07 BB 0C A7 0C 00 00
2025-11-08T03:08:26.323913,15.926,can0  204  [16]  E1 22 50 46 50 46 50 46 28 23 20 4E 30 75 00 00
2025-11-08T03:08:26.380502,15.983,can0  204  [16]  E1 22 50 46 50 46 50 46 28 23 20 4E 30 75 00 00
2025-11-08T03:08:26.390288,15.993,can0  041  [04]  3F 01 00 00
2025-11-08T03:08:26.448692,16.051,can0  204  [16]  E1 22 50 46 50 46 50 46 28 23 20 4E 30 75 00 00
2025-11-08T03:08:26.452955,16.055,can0  206  [16]  9F 0C D1 07 A3 0C 99 C6 F2 07 BB 0C A7 0C 00 00
2025-11-08T03:08:26.495668,16.098,can0  204  [16]  E1 22 50 46 50 46 50 46 28 23 20 4E 30 75 00 00
2025-11-08T03:08:26.553202,16.155,can0  204  [16]  E1 22 50 46 50 46 50 46 28 23 20 4E 30 75 00 00
2025-11-08T03:08:26.610741,16.213,can0  204  [16]  E1 22 50 46 50 46 50 46 28 23 20 4E 30 75 00 00
2025-11-08T03:08:26.619033,16.221,can0  206  [16]  AB 0C DA 07 93 0C DA DC EF 07 C3 0C A3 0C 00 00
2025-11-08T03:08:26.653251,16.256,can0  041  [04]  3F 01 02 00
2025-11-08T03:08:26.673463,16.276,can0  204  [16]  E1 22 50 46 50 46 50 46 28 23 20 4E 30 75 00 00
2025-11-08T03:08:26.727882,16.330,can0  204  [16]  E1 22 50 46 50 46 50 46 28 23 20 4E 30 75 00 00
2025-11-08T03:08:26.784683,16.387,can0  204  [16]  E1 22 50 46 50 46 50 46 28 23 20 4E 30 75 00 00
2025-11-08T03:08:26.787961,16.390,can0  206  [16]  AB 0C DC 07 97 0C 99 C6 F2 07 CF 0C 97 0C 00 00
2025-11-08T03:08:26.861957,16.464,can0  204  [16]  E1 22 50 46 50 46 50 46 28 23 20 4E 30 75 00 00
2025-11-08T03:08:26.898662,16.501,can0  204  [16]  E1 22 50 46 50 46 50 46 28 23 20 4E 30 75 00 00
2025-11-08T03:08:26.920134,16.522,can0  041  [04]  52 01 02 00
2025-11-08T03:08:26.948331,16.551,can0  206  [16]  97 0C DC 07 A3 0C 99 C6 F6 07 BF 0C AB 0C 00 00
2025-11-08T03:08:26.974814,16.577,can0  204  [16]  E1 22 50 46 50 46 50 46 28 23 20 4E 30 75 00 00
2025-11-08T03:08:27.033547,16.636,can0  204  [16]  E1 22 50 46 50 46 50 46 28 23 20 4E 30 75 00 00
2025-11-08T03:08:27.094414,16.697,can0  204  [16]  E1 22 50 46 50 46 50 46 28 23 20 4E 30 75 00 00
2025-11-08T03:08:27.108510,16.711,can0  206  [16]  9B 0C E3 07 93 0C 99 C6 EF 07 C7 0C AB 0C 00 00
2025-11-08T03:08:27.146703,16.749,can0  204  [16]  E1 22 50 46 50 46 50 46 28 23 20 4E 30 75 00 00
2025-11-08T03:08:27.187455,16.790,can0  041  [04]  02 00 02 00
2025-11-08T03:08:27.206314,16.809,can0  204  [16]  E1 22 50 46 50 46 50 46 28 23 20 4E 30 75 00 00
2025-11-08T03:08:27.285637,16.888,can0  204  [16]  E1 22 50 46 50 46 50 46 28 23 20 4E 30 75 00 00
2025-11-08T03:08:27.286473,16.889,can0  206  [16]  A3 0C DC 07 9F 0C 99 C6 EF 07 BF 0C A3 0C 00 00
2025-11-08T03:08:27.319456,16.922,can0  204  [16]  E1 22 50 46 50 46 50 46 28 23 20 4E 30 75 00 00
2025-11-08T03:08:27.376820,16.979,can0  204  [16]  E1 22 50 46 50 46 50 46 28 23 20 4E 30 75 00 00
2025-11-08T03:08:27.436426,17.039,can0  204  [16]  E1 22 50 46 50 46 50 46 28 23 20 4E 30 75 00 00
2025-11-08T03:08:27.441507,17.044,can0  206  [16]  9F 0C DE 07 A3 0C 99 C6 F2 07 BB 0C AB 0C 00 00
2025-11-08T03:08:27.457212,17.059,can0  041  [04]  02 00 00 00
2025-11-08T03:08:27.495228,17.097,can0  204  [16]  E1 22 50 46 50 46 50 46 28 23 20 4E 30 75 00 00
2025-11-08T03:08:27.560335,17.163,can0  204  [16]  E1 22 50 46 50 46 50 46 28 23 20 4E 30 75 00 00
2025-11-08T03:08:27.615355,17.218,can0  204  [16]  E1 22 50 46 50 46 50 46 28 23 20 4E 30 75 00 00
2025-11-08T03:08:27.615761,17.218,can0  206  [16]  A7 0C DC 07 A3 0C DA DC F2 07 C7 0C 9B 0C 00 00
2025-11-08T03:08:27.692329,17.295,can0  204  [16]  E1 22 50 46 50 46 50 46 28 23 20 4E 30 75 00 00
2025-11-08T03:08:27.718158,17.320,can0  041  [04]  02 00 00 00
2025-11-08T03:08:27.725221,17.327,can0  204  [16]  E1 22 50 46 50 46 50 46 28 23 20 4E 30 75 00 00
2025-11-08T03:08:27.794406,17.397,can0  206  [16]  9F 0C C7 07 97 0C DA DC EF 07 C3 0C AB 0C 00 00
2025-11-08T03:08:27.794471,17.397,can0  204  [16]  E1 22 50 46 50 46 50 46 28 23 20 4E 30 75 00 00
2025-11-08T03:08:27.839822,17.442,can0  204  [16]  E1 22 50 46 50 46 50 46 28 23 20 4E 30 75 00 00
2025-11-08T03:08:27.910888,17.513,can0  204  [16]  E1 22 50 46 50 46 50 46 28 23 20 4E 30 75 00 00
2025-11-08T03:08:27.935333,17.538,can0  206  [16]  AF 0C DC 07 9F 0C 99 C6 F2 07 C3 0C 97 0C 00 00
2025-11-08T03:08:27.984601,17.587,can0  204  [16]  E1 22 50 46 50 46 50 46 28 23 20 4E 30 75 00 00
2025-11-08T03:08:28.004331,17.607,can0  041  [04]  02 00 00 00
2025-11-08T03:08:28.038097,17.640,can0  204  [16]  E1 22 50 46 50 46 50 46 28 23 20 4E 30 75 00 00
2025-11-08T03:08:28.115834,17.718,can0  204  [16]  E1 22 50 46 50 46 50 46 28 23 20 4E 30 75 00 00
2025-11-08T03:08:28.115904,17.718,can0  206  [16]  8F 0C E0 07 97 0C DA DC F4 07 CF 0C B7 0C 00 00
2025-11-08T03:08:28.142873,17.745,can0  204  [16]  E1 22 50 46 50 46 50 46 28 23 20 4E 30 75 00 00
2025-11-08T03:08:28.202360,17.805,can0  204  [16]  E1 22 50 46 50 46 50 46 28 23 20 4E 30 75 00 00
2025-11-08T03:08:28.251632,17.854,can0  041  [04]  02 00 00 00
2025-11-08T03:08:28.259918,17.862,can0  204  [16]  E1 22 50 46 50 46 50 46 28 23 20 4E 30 75 00 00
2025-11-08T03:08:28.278041,17.880,can0  206  [16]  9F 0C DE 07 9B 0C 99 C6 E0 07 BF 0C A7 0C 00 00
2025-11-08T03:08:28.320880,17.923,can0  204  [16]  E1 22 50 46 50 46 50 46 28 23 20 4E 30 75 00 00
2025-11-08T03:08:28.375961,17.978,can0  204  [16]  E1 22 50 46 50 46 50 46 28 23 20 4E 30 75 00 00
2025-11-08T03:08:28.441775,18.044,can0  204  [16]  E1 22 50 46 50 46 50 46 28 23 20 4E 30 75 00 00
2025-11-08T03:08:28.448054,18.050,can0  206  [16]  AB 0C DE 07 97 0C DA DC F2 07 CB 0C 9F 0C 00 00
2025-11-08T03:08:28.510472,18.113,can0  204  [16]  E1 22 50 46 50 46 50 46 28 23 20 4E 30 75 00 00
2025-11-08T03:08:28.516386,18.119,can0  041  [04]  02 00 00 00
2025-11-08T03:08:28.550531,18.153,can0  204  [16]  E1 22 50 46 50 46 50 46 28 23 20 4E 30 75 00 00
2025-11-08T03:08:28.605959,18.208,can0  206  [16]  A7 0C DC 07 97 0C B1 E0 F4 07 BF 0C A3 0C 00 00
2025-11-08T03:08:28.606022,18.208,can0  204  [16]  E1 22 50 46 50 46 50 46 28 23 20 4E 30 75 00 00
2025-11-08T03:08:28.661070,18.263,can0  204  [16]  E1 22 50 46 50 46 50 46 28 23 20 4E 30 75 00 00
2025-11-08T03:08:28.730529,18.333,can0  204  [16]  E1 22 50 46 50 46 50 46 28 23 20 4E 30 75 00 00
2025-11-08T03:08:28.768898,18.371,can0  206  [16]  9F 0C DA 07 8F 0C DA DC F2 07 BB 0C A7 0C 00 00
2025-11-08T03:08:28.781454,18.384,can0  204  [16]  E1 22 50 46 50 46 50 46 28 23 20 4E 30 75 00 00
2025-11-08T03:08:28.784900,18.387,can0  041  [04]  02 00 00 00
2025-11-08T03:08:28.834427,18.437,can0  204  [16]  E1 22 50 46 50 46 50 46 28 23 20 4E 30 75 00 00
2025-11-08T03:08:28.894748,18.497,can0  204  [16]  E1 22 50 46 50 46 50 46 28 23 20 4E 30 75 00 00
2025-11-08T03:08:28.935518,18.538,can0  206  [16]  A3 0C C4 07 9B 0C 3A DF F2 07 BF 0C A3 0C 00 00
2025-11-08T03:08:28.968770,18.571,can0  204  [16]  E1 22 50 46 50 46 50 46 28 23 20 4E 30 75 00 00
2025-11-08T03:08:29.030904,18.633,can0  204  [16]  E1 22 50 46 50 46 50 46 28 23 20 4E 30 75 00 00
2025-11-08T03:08:29.075620,18.678,can0  041  [04]  02 00 00 00
2025-11-08T03:08:29.084436,18.687,can0  204  [16]  E1 22 50 46 50 46 50 46 28 23 20 4E 30 75 00 00
2025-11-08T03:08:29.111805,18.714,can0  206  [16]  A3 0C DE 07 9B 0C 99 C6 F2 07 CB 0C A7 0C 00 00
2025-11-08T03:08:29.140095,18.742,can0  204  [16]  E1 22 50 46 50 46 50 46 28 23 20 4E 30 75 00 00
2025-11-08T03:08:29.198308,18.801,can0  204  [16]  E1 22 50 46 50 46 50 46 28 23 20 4E 30 75 00 00
2025-11-08T03:08:29.257994,18.860,can0  204  [16]  E1 22 50 46 50 46 50 46 28 23 20 4E 30 75 00 00
2025-11-08T03:08:29.270167,18.872,can0  206  [16]  A7 0C DC 07 9F 0C 99 C6 F2 07 BF 0C 9F 0C 00 00
2025-11-08T03:08:29.317731,18.920,can0  204  [16]  E1 22 50 46 50 46 50 46 28 23 20 4E 30 75 00 00
2025-11-08T03:08:29.320257,18.923,can0  041  [04]  3F 01 00 00
2025-11-08T03:08:29.370253,18.973,can0  204  [16]  E1 22 50 46 50 46 50 46 28 23 20 4E 30 75 00 00
2025-11-08T03:08:29.429414,19.032,can0  204  [16]  E1 22 50 46 50 46 50 46 28 23 20 4E 30 75 00 00
2025-11-08T03:08:29.440341,19.043,can0  206  [16]  A3 0C DC 07 9B 0C DA DC EF 07 C3 0C A3 0C 00 00
2025-11-08T03:08:29.484774,19.087,can0  204  [16]  E1 22 50 46 50 46 50 46 28 23 20 4E 30 75 00 00
2025-11-08T03:08:29.542776,19.145,can0  204  [16]  E1 22 50 46 50 46 50 46 28 23 20 4E 30 75 00 00
2025-11-08T03:08:29.582760,19.185,can0  041  [04]  02 00 02 00
2025-11-08T03:08:29.602351,19.205,can0  204  [16]  E1 22 50 46 50 46 50 46 28 23 20 4E 30 75 00 00
2025-11-08T03:08:29.604064,19.206,can0  206  [16]  BF 0C DC 07 8F 0C 3A DF F2 07 C3 0C 97 0C 00 00
2025-11-08T03:08:29.677597,19.280,can0  204  [16]  E1 22 50 46 50 46 50 46 28 23 20 4E 30 75 00 00
2025-11-08T03:08:29.739061,19.341,can0  204  [16]  E1 22 50 46 50 46 50 46 28 23 20 4E 30 75 00 00
2025-11-08T03:08:29.763117,19.365,can0  206  [16]  A7 0C DC 07 9B 0C DA DC F6 07 BB 0C A3 0C 00 00
2025-11-08T03:08:29.773295,19.376,can0  204  [16]  E1 22 50 46 50 46 50 46 28 23 20 4E 30 75 00 00
2025-11-08T03:08:29.848858,19.451,can0  204  [16]  E1 22 50 46 50 46 50 46 28 23 20 4E 30 75 00 00
2025-11-08T03:08:29.848925,19.451,can0  041  [04]  02 00 00 00
2025-11-08T03:08:29.889666,19.492,can0  204  [16]  E1 22 50 46 50 46 50 46 28 23 20 4E 30 75 00 00
2025-11-08T03:08:29.931537,19.534,can0  206  [16]  9F 0C DC 07 9F 0C B1 E0 F2 07 B7 0C A7 0C 00 00
2025-11-08T03:08:29.964470,19.567,can0  204  [16]  E1 22 50 46 50 46 50 46 28 23 20 4E 30 75 00 00
2025-11-08T03:08:30.035533,19.638,can0  204  [16]  E1 22 50 46 50 46 50 46 28 23 20 4E 30 75 00 00
2025-11-08T03:08:30.087477,19.690,can0  204  [16]  E1 22 50 46 50 46 50 46 28 23 20 4E 30 75 00 00
2025-11-08T03:08:30.099291,19.702,can0  206  [16]  8F 0C DE 07 9B 0C 99 C6 EF 07 BB 0C BB 0C 00 00
2025-11-08T03:08:30.122055,19.724,can0  041  [04]  3F 01 00 00
2025-11-08T03:08:30.135664,19.738,can0  204  [16]  E1 22 50 46 50 46 50 46 28 23 20 4E 30 75 00 00
2025-11-08T03:08:30.195388,19.798,can0  204  [16]  E1 22 50 46 50 46 50 46 28 23 20 4E 30 75 00 00
2025-11-08T03:08:30.250669,19.853,can0  204  [16]  E1 22 50 46 50 46 50 46 28 23 20 4E 30 75 00 00
2025-11-08T03:08:30.268019,19.870,can0  206  [16]  9B 0C DC 07 9F 0C DA DC F4 07 C7 0C A7 0C 00 00
2025-11-08T03:08:30.310934,19.913,can0  204  [16]  E1 22 50 46 50 46 50 46 28 23 20 4E 30 75 00 00
2025-11-08T03:08:30.380584,19.983,can0  204  [16]  E1 22 50 46 50 46 50 46 28 23 20 4E 30 75 00 00
2025-11-08T03:08:30.384471,19.987,can0  041  [04]  3F 01 00 00
2025-11-08T03:08:30.424527,20.027,can0  204  [16]  E1 22 50 46 50 46 50 46 28 23 20 4E 30 75 00 00
2025-11-08T03:08:30.447061,20.049,can0  206  [16]  A3 0C DE 07 9F 0C B1 E0 F2 07 C3 0C A3 0C 00 00
2025-11-08T03:08:30.483265,20.086,can0  204  [16]  E1 22 50 46 50 46 50 46 28 23 20 4E 30 75 00 00
2025-11-08T03:08:30.541748,20.144,can0  204  [16]  E1 22 50 46 50 46 50 46 28 23 20 4E 30 75 00 00
2025-11-08T03:08:30.598814,20.201,can0  204  [16]  E1 22 50 46 50 46 50 46 28 23 20 4E 30 75 00 00
2025-11-08T03:08:30.601040,20.203,can0  206  [16]  A3 0C DC 07 9B 0C B0 E7 F4 07 C3 0C A3 0C 00 00
2025-11-08T03:08:30.651071,20.253,can0  041  [04]  3F 01 00 00
2025-11-08T03:08:30.656756,20.259,can0  204  [16]  E1 22 50 46 50 46 50 46 28 23 20 4E 30 75 00 00
2025-11-08T03:08:30.713435,20.316,can0  204  [16]  E1 22 50 46 50 46 50 46 28 23 20 4E 30 75 00 00
2025-11-08T03:08:30.766303,20.369,can0  206  [16]  A3 0C E0 07 93 0C 3A DF F4 07 CF 0C A3 0C 00 00
2025-11-08T03:08:30.768837,20.371,can0  204  [16]  E1 22 50 46 50 46 50 46 28 23 20 4E 30 75 00 00
2025-11-08T03:08:30.832844,20.435,can0  204  [16]  E1 22 50 46 50 46 50 46 28 23 20 4E 30 75 00 00
2025-11-08T03:08:30.885929,20.488,can0  204  [16]  E1 22 50 46 50 46 50 46 28 23 20 4E 30 75 00 00
2025-11-08T03:08:30.916498,20.519,can0  041  [04]  3F 01 00 00
2025-11-08T03:08:30.931745,20.534,can0  206  [16]  A3 0C DC 07 9B 0C DA DC 10 08 BB 0C A3 0C 00 00
2025-11-08T03:08:30.961967,20.564,can0  204  [16]  E1 22 50 46 50 46 50 46 28 23 20 4E 30 75 00 00
2025-11-08T03:08:31.016814,20.619,can0  204  [16]  E1 22 50 46 50 46 50 46 28 23 20 4E 30 75 00 00
2025-11-08T03:08:31.078564,20.681,can0  204  [16]  E1 22 50 46 50 46 50 46 28 23 20 4E 30 75 00 00
2025-11-08T03:08:31.108067,20.710,can0  206  [16]  A3 0C E0 07 9F 0C 99 C6 F8 07 BB 0C A3 0C 00 00
2025-11-08T03:08:31.159330,20.762,can0  204  [16]  E1 22 50 46 50 46 50 46 28 23 20 4E 30 75 00 00
2025-11-08T03:08:31.179686,20.782,can0  041  [04]  2F 00 00 00
2025-11-08T03:08:31.189979,20.792,can0  204  [16]  E1 22 50 46 50 46 50 46 28 23 20 4E 30 75 00 00
2025-11-08T03:08:31.265168,20.867,can0  204  [16]  E1 22 50 46 50 46 50 46 28 23 20 4E 30 75 00 00
2025-11-08T03:08:31.285624,20.888,can0  206  [16]  9F 0C DE 07 A7 0C DA DC F2 07 B7 0C A3 0C 00 00
2025-11-08T03:08:31.317124,20.919,can0  204  [16]  E1 22 50 46 50 46 50 46 28 23 20 4E 30 75 00 00
2025-11-08T03:08:31.386829,20.989,can0  204  [16]  E1 22 50 46 50 46 50 46 28 23 20 4E 30 75 00 00
2025-11-08T03:08:31.420320,21.023,can0  204  [16]  E1 22 50 46 50 46 50 46 28 23 20 4E 30 75 00 00
2025-11-08T03:08:31.424621,21.027,can0  206  [16]  A3 0C DA 07 83 0C DA DC F4 07 CF 0C AB 0C 00 00
2025-11-08T03:08:31.448402,21.051,can0  041  [04]  8B 00 00 00
2025-11-08T03:08:31.481678,21.084,can0  204  [16]  E1 22 50 46 50 46 50 46 28 23 20 4E 30 75 00 00
2025-11-08T03:08:31.538367,21.141,can0  204  [16]  E1 22 50 46 50 46 50 46 28 23 20 4E 30 75 00 00
2025-11-08T03:08:31.589048,21.191,can0  206  [16]  C3 0C DA 07 A3 0C 99 C6 F4 07 C3 0C 83 0C 00 00
2025-11-08T03:08:31.621361,21.224,can0  204  [16]  E1 22 50 46 50 46 50 46 28 23 20 4E 30 75 00 00
2025-11-08T03:08:31.677334,21.280,can0  204  [16]  E1 22 50 46 50 46 50 46 28 23 20 4E 30 75 00 00
2025-11-08T03:08:31.708741,21.311,can0  204  [16]  E1 22 50 46 50 46 50 46 28 23 20 4E 30 75 00 00
2025-11-08T03:08:31.719209,21.321,can0  041  [04]  8B 00 00 00
2025-11-08T03:08:31.751518,21.354,can0  206  [16]  A3 0C DE 07 97 0C 99 C6 F6 07 CB 0C A3 0C 00 00
2025-11-08T03:08:31.773778,21.376,can0  204  [16]  E1 22 50 46 50 46 50 46 28 23 20 4E 30 75 00 00
2025-11-08T03:08:31.825174,21.427,can0  204  [16]  E1 22 50 46 50 46 50 46 28 23 20 4E 30 75 00 00
2025-11-08T03:08:31.892301,21.495,can0  204  [16]  E1 22 50 46 50 46 50 46 28 23 20 4E 30 75 00 00
2025-11-08T03:08:31.913614,21.516,can0  206  [16]  9B 0C DC 07 9F 0C DA DC EF 07 C3 0C A7 0C 00 00
2025-11-08T03:08:31.960051,21.562,can0  204  [16]  E1 22 50 46 50 46 50 46 28 23 20 4E 30 75 00 00
2025-11-08T03:08:31.986369,21.589,can0  041  [04]  8B 00 00 00
2025-11-08T03:08:32.016110,21.618,can0  204  [16]  E1 22 50 46 50 46 50 46 28 23 20 4E 30 75 00 00
2025-11-08T03:08:32.084815,21.687,can0  204  [16]  E1 22 50 46 50 46 50 46 28 23 20 4E 30 75 00 00
2025-11-08T03:08:32.099438,21.702,can0  206  [16]  C7 0C D8 07 7B 0C DA DC F2 07 BF 0C A3 0C 00 00
2025-11-08T03:08:32.128912,21.731,can0  204  [16]  E1 22 50 46 50 46 50 46 28 23 20 4E 30 75 00 00
2025-11-08T03:08:32.186782,21.789,can0  204  [16]  E1 22 50 46 50 46 50 46 28 23 20 4E 30 75 00 00
2025-11-08T03:08:32.243683,21.846,can0  204  [16]  E1 22 50 46 50 46 50 46 28 23 20 4E 30 75 00 00
2025-11-08T03:08:32.245199,21.847,can0  041  [04]  E4 00 00 00
2025-11-08T03:08:32.249499,21.852,can0  206  [16]  AB 0C DE 07 9F 0C DA DC F4 07 B7 0C A3 0C 00 00
2025-11-08T03:08:32.303716,21.906,can0  204  [16]  E1 22 50 46 50 46 50 46 28 23 20 4E 30 75 00 00
2025-11-08T03:08:32.361579,21.964,can0  204  [16]  E1 22 50 46 50 46 50 46 28 23 20 4E 30 75 00 00
2025-11-08T03:08:32.403496,22.006,can0  206  [16]  9F 0C DE 07 97 0C C5 E1 F2 07 C7 0C A7 0C 00 00
2025-11-08T03:08:32.422271,22.025,can0  204  [16]  E1 22 50 46 50 46 50 46 28 23 20 4E 30 75 00 00
2025-11-08T03:08:32.473726,22.076,can0  204  [16]  E1 22 50 46 50 46 50 46 28 23 20 4E 30 75 00 00
2025-11-08T03:08:32.511160,22.113,can0  041  [04]  E4 00 00 00
2025-11-08T03:08:32.531392,22.134,can0  204  [16]  E1 22 50 46 50 46 50 46 28 23 20 4E 30 75 00 00
2025-11-08T03:08:32.577712,22.180,can0  206  [16]  AF 0C DE 07 6B 0C 99 C6 F2 07 F0 0C 9F 0C 00 00
2025-11-08T03:08:32.606665,22.209,can0  204  [16]  E1 22 50 46 50 46 50 46 28 23 20 4E 30 75 00 00
2025-11-08T03:08:32.647523,22.250,can0  204  [16]  E1 22 50 46 50 46 50 46 28 23 20 4E 30 75 00 00
2025-11-08T03:08:32.709967,22.312,can0  204  [16]  E1 22 50 46 50 46 50 46 28 23 20 4E 30 75 00 00
2025-11-08T03:08:32.744491,22.347,can0  206  [16]  9F 0C E0 07 97 0C DA DC F2 07 C7 0C AB 0C 00 00
2025-11-08T03:08:32.762012,22.364,can0  204  [16]  E1 22 50 46 50 46 50 46 28 23 20 4E 30 75 00 00
2025-11-08T03:08:32.779512,22.382,can0  041  [04]  E4 00 00 00
2025-11-08T03:08:32.819432,22.422,can0  204  [16]  E1 22 50 46 50 46 50 46 28 23 20 4E 30 75 00 00
2025-11-08T03:08:32.908990,22.511,can0  204  [16]  E1 22 50 46 50 46 50 46 28 23 20 4E 30 75 00 00
2025-11-08T03:08:32.909422,22.512,can0  206  [16]  9B 0C DC 07 9B 0C DA DC F2 07 C3 0C AB 0C 00 00
2025-11-08T03:08:32.960934,22.563,can0  204  [16]  E1 22 50 46 50 46 50 46 28 23 20 4E 30 75 00 00
2025-11-08T03:08:33.014946,22.617,can0  204  [16]  E1 22 50 46 50 46 50 46 28 23 20 4E 30 75 00 00
2025-11-08T03:08:33.043784,22.646,can0  041  [04]  10 01 00 00
2025-11-08T03:08:33.072339,22.675,can0  204  [16]  E1 22 50 46 50 46 50 46 28 23 20 4E 30 75 00 00
2025-11-08T03:08:33.072412,22.675,can0  206  [16]  8B 0C DC 07 93 0C C5 E1 F2 07 CF 0C BB 0C 00 00
2025-11-08T03:08:33.134969,22.737,can0  204  [16]  E1 22 50 46 50 46 50 46 28 23 20 4E 30 75 00 00
2025-11-08T03:08:33.185499,22.788,can0  204  [16]  E1 22 50 46 50 46 50 46 28 23 20 4E 30 75 00 00
2025-11-08T03:08:33.237657,22.840,can0  206  [16]  9F 0C DE 07 A3 0C 3A DF FC 07 BF 0C A3 0C 00 00
2025-11-08T03:08:33.244856,22.847,can0  204  [16]  E1 22 50 46 50 46 50 46 28 23 20 4E 30 75 00 00
2025-11-08T03:08:33.314514,22.917,can0  204  [16]  E1 22 50 46 50 46 50 46 28 23 20 4E 30 75 00 00
2025-11-08T03:08:33.314583,22.917,can0  041  [04]  E4 00 00 00
2025-11-08T03:08:33.364348,22.967,can0  204  [16]  E1 22 50 46 50 46 50 46 28 23 20 4E 30 75 00 00
2025-11-08T03:08:33.412575,23.015,can0  206  [16]  AB 0C D6 07 93 0C DA DC EF 07 BF 0C A3 0C 00 00
2025-11-08T03:08:33.473917,23.076,can0  204  [16]  E1 22 50 46 50 46 50 46 28 23 20 4E 30 75 00 00
2025-11-08T03:08:33.473984,23.076,can0  204  [16]  E1 22 50 46 50 46 50 46 28 23 20 4E 30 75 00 00
2025-11-08T03:08:33.528667,23.131,can0  204  [16]  E1 22 50 46 50 46 50 46 28 23 20 4E 30 75 00 00
2025-11-08T03:08:33.569975,23.172,can0  206  [16]  9B 0C DC 07 9F 0C 3A DF E9 07 BB 0C AB 0C 00 00
2025-11-08T03:08:33.575772,23.178,can0  041  [04]  3F 01 00 00
2025-11-08T03:08:33.595181,23.197,can0  204  [16]  E1 22 50 46 50 46 50 46 28 23 20 4E 30 75 00 00
2025-11-08T03:08:33.646125,23.248,can0  204  [16]  E1 22 50 46 50 46 50 46 28 23 20 4E 30 75 00 00
2025-11-08T03:08:33.701248,23.304,can0  204  [16]  E1 22 50 46 50 46 50 46 28 23 20 4E 30 75 00 00
2025-11-08T03:08:33.741458,23.344,can0  206  [16]  A3 0C DE 07 97 0C DA DC F2 07 C7 0C A7 0C 00 00
2025-11-08T03:08:33.772732,23.375,can0  204  [16]  E1 22 50 46 50 46 50 46 28 23 20 4E 30 75 00 00
2025-11-08T03:08:33.823558,23.426,can0  204  [16]  E1 22 50 46 50 46 50 46 28 23 20 4E 30 75 00 00
2025-11-08T03:08:33.842781,23.445,can0  041  [04]  3F 01 00 00
2025-11-08T03:08:34.037388,23.640,can0  204  [16]  E1 22 50 46 50 46 50 46 28 23 20 4E 30 75 00 00
2025-11-08T03:08:34.039510,23.642,can0  206  [16]  9B 0C DC 07 9B 0C 99 C6 F4 07 C3 0C AB 0C 00 00
2025-11-08T03:08:34.039564,23.642,can0  204  [16]  E1 22 50 46 50 46 50 46 28 23 20 4E 30 75 00 00
2025-11-08T03:08:34.039586,23.642,can0  204  [16]  E1 22 50 46 50 46 50 46 28 23 20 4E 30 75 00 00
2025-11-08T03:08:34.265984,23.868,can0  204  [16]  E1 22 50 46 50 46 50 46 28 23 20 4E 30 75 00 00
2025-11-08T03:08:34.368510,23.971,can0  206  [16]  A7 0C DE 07 97 0C DA DC EF 07 C3 0C A3 0C 00 00
2025-11-08T03:08:34.368573,23.971,can0  041  [04]  10 01 00 00
2025-11-08T03:08:34.368593,23.971,can0  204  [16]  E1 22 50 46 50 46 50 46 28 23 20 4E 30 75 00 00
2025-11-08T03:08:34.368623,23.971,can0  204  [16]  E1 22 50 46 50 46 50 46 28 23 20 4E 30 75 00 00
2025-11-08T03:08:34.368640,23.971,can0  204  [16]  E1 22 50 46 50 46 50 46 28 23 20 4E 30 75 00 00
2025-11-08T03:08:34.368657,23.971,can0  206  [16]  AF 0C E7 07 97 0C DA DC EF 07 BF 0C 9F 0C 00 00
2025-11-08T03:08:34.388411,23.991,can0  204  [16]  E1 22 50 46 50 46 50 46 28 23 20 4E 30 75 00 00
2025-11-08T03:08:34.388886,23.991,can0  204  [16]  E1 22 50 46 50 46 50 46 28 23 20 4E 30 75 00 00
2025-11-08T03:08:34.389059,23.991,can0  041  [04]  10 01 00 00
2025-11-08T03:08:34.461468,24.064,can0  206  [16]  A3 0C DC 07 93 0C DA DC F2 07 C7 0C A7 0C 00 00
2025-11-08T03:08:34.461828,24.064,can0  204  [16]  E1 22 50 46 50 46 50 46 28 23 20 4E 30 75 00 00
2025-11-08T03:08:34.696829,24.299,can0  204  [16]  E1 22 50 46 50 46 50 46 28 23 20 4E 30 75 00 00
2025-11-08T03:08:34.696905,24.299,can0  204  [16]  E1 22 50 46 50 46 50 46 28 23 20 4E 30 75 00 00
2025-11-08T03:08:34.696928,24.299,can0  206  [16]  9F 0C DC 07 87 0C DA DC EF 07 DB 0C AB 0C 00 00
2025-11-08T03:08:34.696946,24.299,can0  204  [16]  E1 22 50 46 50 46 50 46 28 23 20 4E 30 75 00 00
2025-11-08T03:08:34.696962,24.299,can0  204  [16]  E1 22 50 46 50 46 50 46 28 23 20 4E 30 75 00 00
2025-11-08T03:08:34.696978,24.299,can0  041  [04]  10 01 00 00
2025-11-08T03:08:34.696994,24.299,can0  204  [16]  E1 22 50 46 50 46 50 46 28 23 20 4E 30 75 00 00
2025-11-08T03:08:34.764201,24.366,can0  206  [16]  9B 0C DE 07 A3 0C 3A DF ED 07 C3 0C A3 0C 00 00
2025-11-08T03:08:34.764617,24.367,can0  204  [16]  E1 22 50 46 50 46 50 46 28 23 20 4E 30 75 00 00
2025-11-08T03:08:34.813047,24.415,can0  204  [16]  E1 22 50 46 50 46 50 46 28 23 20 4E 30 75 00 00
2025-11-08T03:08:34.868360,24.471,can0  204  [16]  E1 22 50 46 50 46 50 46 28 23 20 4E 30 75 00 00
2025-11-08T03:08:35.003613,24.606,can0  206  [16]  9F 0C DC 07 87 0C B1 E0 F2 07 CF 0C AB 0C 00 00
2025-11-08T03:08:35.003943,24.606,can0  041  [04]  8B 00 00 00
2025-11-08T03:08:35.003979,24.606,can0  204  [16]  E1 22 50 46 50 46 50 46 28 23 20 4E 30 75 00 00
2025-11-08T03:08:35.004000,24.606,can0  204  [16]  E1 22 50 46 50 46 50 46 28 23 20 4E 30 75 00 00
2025-11-08T03:08:35.068554,24.671,can0  204  [16]  E1 22 50 46 50 46 50 46 28 23 20 4E 30 75 00 00
2025-11-08T03:08:35.073881,24.676,can0  206  [16]  A3 0C DC 07 87 0C DA DC F2 07 DB 0C A3 0C 00 00
2025-11-08T03:08:35.118944,24.721,can0  204  [16]  E1 22 50 46 50 46 50 46 28 23 20 4E 30 75 00 00
2025-11-08T03:08:35.260424,24.863,can0  204  [16]  E1 22 50 46 50 46 50 46 28 23 20 4E 30 75 00 00
2025-11-08T03:08:35.261024,24.863,can0  041  [04]  5E 00 00 00
2025-11-08T03:08:35.261068,24.863,can0  204  [16]  E1 22 50 46 50 46 50 46 28 23 20 4E 30 75 00 00
2025-11-08T03:08:35.261091,24.863,can0  206  [16]  6F 0C D8 07 9F 0C 3A DF F2 07 BF 0C D7 0C 00 00
2025-11-08T03:08:35.310575,24.913,can0  204  [16]  E1 22 50 46 50 46 50 46 28 23 20 4E 30 75 00 00
2025-11-08T03:08:35.483045,25.085,can0  204  [16]  E1 22 50 46 50 46 50 46 28 23 20 4E 30 75 00 00
2025-11-08T03:08:35.483113,25.085,can0  204  [16]  E1 22 50 46 50 46 50 46 28 23 20 4E 30 75 00 00
2025-11-08T03:08:35.483134,25.085,can0  206  [16]  9F 0C E0 07 9B 0C DA DC EF 07 C3 0C A7 0C 00 00
2025-11-08T03:08:35.483151,25.085,can0  041  [04]  8B 00 00 00
2025-11-08T03:08:35.483168,25.085,can0  204  [16]  E1 22 50 46 50 46 50 46 28 23 20 4E 30 75 00 00
2025-11-08T03:08:35.520822,25.123,can0  204  [16]  E1 22 50 46 50 46 50 46 28 23 20 4E 30 75 00 00
2025-11-08T03:08:35.584828,25.187,can0  204  [16]  E1 22 50 46 50 46 50 46 28 23 20 4E 30 75 00 00
2025-11-08T03:08:35.586893,25.189,can0  206  [16]  A7 0C DA 07 9B 0C F4 E3 F2 07 C7 0C 9F 0C 00 00
2025-11-08T03:08:35.638301,25.241,can0  204  [16]  E1 22 50 46 50 46 50 46 28 23 20 4E 30 75 00 00
2025-11-08T03:08:35.694469,25.297,can0  204  [16]  E1 22 50 46 50 46 50 46 28 23 20 4E 30 75 00 00
2025-11-08T03:08:35.814537,25.417,can0  041  [04]  2F 00 00 00
2025-11-08T03:08:35.814604,25.417,can0  206  [16]  9B 0C DC 07 5B 0C DA DC F2 07 04 0D AB 0C 00 00
2025-11-08T03:08:35.814639,25.417,can0  204  [16]  E1 22 50 46 50 46 50 46 28 23 20 4E 30 75 00 00
2025-11-08T03:08:35.814659,25.417,can0  204  [16]  E1 22 50 46 50 46 50 46 28 23 20 4E 30 75 00 00
2025-11-08T03:08:35.891269,25.494,can0  204  [16]  E1 22 50 46 50 46 50 46 28 23 20 4E 30 75 00 00
2025-11-08T03:08:36.112723,25.715,can0  206  [16]  9F 0C DE 07 97 0C C5 E1 F4 07 BF 0C AB 0C 00 00
2025-11-08T03:08:36.115537,25.718,can0  204  [16]  E1 22 50 46 50 46 50 46 28 23 20 4E 30 75 00 00
2025-11-08T03:08:36.115945,25.718,can0  041  [04]  2F 00 00 00
2025-11-08T03:08:36.116391,25.719,can0  204  [16]  E1 22 50 46 50 46 50 46 28 23 20 4E 30 75 00 00
2025-11-08T03:08:36.116426,25.719,can0  204  [16]  E1 22 50 46 50 46 50 46 28 23 20 4E 30 75 00 00
2025-11-08T03:08:36.116447,25.719,can0  206  [16]  A3 0C DE 07 9B 0C 99 C6 F2 07 C3 0C A3 0C 00 00
2025-11-08T03:08:36.127773,25.730,can0  204  [16]  E1 22 50 46 50 46 50 46 28 23 20 4E 30 75 00 00
2025-11-08T03:08:36.181963,25.784,can0  204  [16]  E1 22 50 46 50 46 50 46 28 23 20 4E 30 75 00 00
2025-11-08T03:08:36.228539,25.831,can0  204  [16]  E1 22 50 46 50 46 50 46 28 23 20 4E 30 75 00 00
2025-11-08T03:08:36.235867,25.838,can0  206  [16]  9F 0C D3 07 9F 0C C5 E1 F2 07 BF 0C A3 0C 00 00
2025-11-08T03:08:36.242043,25.844,can0  041  [04]  3F 01 00 00
2025-11-08T03:08:36.293607,25.896,can0  204  [16]  E1 22 50 46 50 46 50 46 28 23 20 4E 30 75 00 00
2025-11-08T03:08:36.341724,25.944,can0  204  [16]  E1 22 50 46 50 46 50 46 28 23 20 4E 30 75 00 00
2025-11-08T03:08:36.411672,26.014,can0  204  [16]  E1 22 50 46 50 46 50 46 28 23 20 4E 30 75 00 00
2025-11-08T03:08:36.411739,26.014,can0  206  [16]  9B 0C E5 07 9F 0C DA DC FA 07 BF 0C A7 0C 00 00
2025-11-08T03:08:36.458019,26.060,can0  204  [16]  E1 22 50 46 50 46 50 46 28 23 20 4E 30 75 00 00
2025-11-08T03:08:36.505182,26.107,can0  041  [04]  8B 00 00 00
2025-11-08T03:08:36.514160,26.116,can0  204  [16]  E1 22 50 46 50 46 50 46 28 23 20 4E 30 75 00 00
2025-11-08T03:08:36.594581,26.197,can0  204  [16]  E1 22 50 46 50 46 50 46 28 23 20 4E 30 75 00 00
2025-11-08T03:08:36.594648,26.197,can0  206  [16]  A7 0C D8 07 97 0C DA DC F2 07 C3 0C A3 0C 00 00
2025-11-08T03:08:36.642631,26.245,can0  204  [16]  E1 22 50 46 50 46 50 46 28 23 20 4E 30 75 00 00
2025-11-08T03:08:36.693852,26.296,can0  204  [16]  E1 22 50 46 50 46 50 46 28 23 20 4E 30 75 00 00
2025-11-08T03:08:36.746723,26.349,can0  206  [16]  9B 0C DC 07 9F 0C DA DC F6 07 BF 0C AB 0C 00 00
2025-11-08T03:08:36.747502,26.350,can0  204  [16]  E1 22 50 46 50 46 50 46 28 23 20 4E 30 75 00 00
2025-11-08T03:08:36.804164,26.406,can0  041  [04]  8B 00 00 00
2025-11-08T03:08:36.805042,26.407,can0  204  [16]  E1 22 50 46 50 46 50 46 28 23 20 4E 30 75 00 00
2025-11-08T03:08:36.860346,26.463,can0  204  [16]  E1 22 50 46 50 46 50 46 28 23 20 4E 30 75 00 00
2025-11-08T03:08:36.905300,26.508,can0  206  [16]  9B 0C DC 07 9B 0C 3A DF F2 07 BF 0C AB 0C 00 00
2025-11-08T03:08:36.935059,26.537,can0  204  [16]  E1 22 50 46 50 46 50 46 28 23 20 4E 30 75 00 00
2025-11-08T03:08:37.009834,26.612,can0  204  [16]  E1 22 50 46 50 46 50 46 28 23 20 4E 30 75 00 00
2025-11-08T03:08:37.051530,26.654,can0  041  [04]  3F 01 00 00
2025-11-08T03:08:37.052182,26.654,can0  204  [16]  E1 22 50 46 50 46 50 46 28 23 20 4E 30 75 00 00
2025-11-08T03:08:37.072483,26.675,can0  206  [16]  9B 0C DE 07 9F 0C DA DC F4 07 BB 0C AB 0C 00 00
2025-11-08T03:08:37.123208,26.725,can0  204  [16]  E1 22 50 46 50 46 50 46 28 23 20 4E 30 75 00 00
2025-11-08T03:08:37.173059,26.775,can0  204  [16]  E1 22 50 46 50 46 50 46 28 23 20 4E 30 75 00 00
2025-11-08T03:08:37.237680,26.840,can0  204  [16]  E1 22 50 46 50 46 50 46 28 23 20 4E 30 75 00 00
2025-11-08T03:08:37.237750,26.840,can0  206  [16]  AB 0C DC 07 97 0C 3A DF F2 07 BB 0C A3 0C 00 00
2025-11-08T03:08:37.314415,26.917,can0  204  [16]  E1 22 50 46 50 46 50 46 28 23 20 4E 30 75 00 00
2025-11-08T03:08:37.322428,26.925,can0  041  [04]  3F 01 00 00
2025-11-08T03:08:37.348570,26.951,can0  204  [16]  E1 22 50 46 50 46 50 46 28 23 20 4E 30 75 00 00
2025-11-08T03:08:37.426980,27.029,can0  204  [16]  E1 22 50 46 50 46 50 46 28 23 20 4E 30 75 00 00
2025-11-08T03:08:37.427048,27.029,can0  206  [16]  9B 0C DC 07 A3 0C B1 E0 EF 07 BB 0C A7 0C 00 00
2025-11-08T03:08:37.454535,27.057,can0  204  [16]  E1 22 50 46 50 46 50 46 28 23 20 4E 30 75 00 00
2025-11-08T03:08:37.518088,27.120,can0  204  [16]  E1 22 50 46 50 46 50 46 28 23 20 4E 30 75 00 00
2025-11-08T03:08:37.568789,27.171,can0  204  [16]  E1 22 50 46 50 46 50 46 28 23 20 4E 30 75 00 00
2025-11-08T03:08:37.574032,27.176,can0  206  [16]  A3 0C DE 07 97 0C DA DC F6 07 C3 0C A3 0C 00 00
2025-11-08T03:08:37.574086,27.176,can0  041  [04]  3F 01 00 00
2025-11-08T03:08:37.635701,27.238,can0  204  [16]  E1 22 50 46 50 46 50 46 28 23 20 4E 30 75 00 00
2025-11-08T03:08:37.733021,27.335,can0  204  [16]  E1 22 50 46 50 46 50 46 28 23 20 4E 30 75 00 00
2025-11-08T03:08:37.733661,27.336,can0  206  [16]  A3 0C E9 07 9F 0C 99 C6 F2 07 C3 0C A3 0C 00 00
2025-11-08T03:08:37.742656,27.345,can0  204  [16]  E1 22 50 46 50 46 50 46 28 23 20 4E 30 75 00 00
2025-11-08T03:08:37.797878,27.400,can0  204  [16]  E1 22 50 46 50 46 50 46 28 23 20 4E 30 75 00 00
2025-11-08T03:08:37.837386,27.440,can0  041  [04]  3F 01 00 00
2025-11-08T03:08:37.863901,27.466,can0  204  [16]  E1 22 50 46 50 46 50 46 28 23 20 4E 30 75 00 00
2025-11-08T03:08:37.898949,27.501,can0  206  [16]  B3 0C DA 07 8F 0C DA DC F2 07 CF 0C 97 0C 00 00
2025-11-08T03:08:37.940658,27.543,can0  204  [16]  E1 22 50 46 50 46 50 46 28 23 20 4E 30 75 00 00
2025-11-08T03:08:37.988914,27.591,can0  204  [16]  E1 22 50 46 50 46 50 46 28 23 20 4E 30 75 00 00
2025-11-08T03:08:38.044547,27.647,can0  204  [16]  E1 22 50 46 50 46 50 46 28 23 20 4E 30 75 00 00
2025-11-08T03:08:38.074682,27.677,can0  206  [16]  A7 0C DA 07 9B 0C DA DC F2 07 C3 0C A3 0C 00 00
2025-11-08T03:08:38.105647,27.708,can0  204  [16]  E1 22 50 46 50 46 50 46 28 23 20 4E 30 75 00 00
2025-11-08T03:08:38.105710,27.708,can0  041  [04]  3F 01 00 00
2025-11-08T03:08:38.174403,27.777,can0  204  [16]  E1 22 50 46 50 46 50 46 28 23 20 4E 30 75 00 00
2025-11-08T03:08:38.226185,27.828,can0  204  [16]  E1 22 50 46 50 46 50 46 28 23 20 4E 30 75 00 00
2025-11-08T03:08:38.241540,27.844,can0  206  [16]  6F 0C DC 07 9F 0C DA DC F4 07 BF 0C D7 0C 00 00
2025-11-08T03:08:38.279726,27.882,can0  204  [16]  E1 22 50 46 50 46 50 46 28 23 20 4E 30 75 00 00
2025-11-08T03:08:38.351488,27.954,can0  204  [16]  E1 22 50 46 50 46 50 46 28 23 20 4E 30 75 00 00
2025-11-08T03:08:38.369595,27.972,can0  041  [04]  3F 01 00 00
2025-11-08T03:08:38.389546,27.992,can0  204  [16]  E1 22 50 46 50 46 50 46 28 23 20 4E 30 75 00 00
2025-11-08T03:08:38.404023,28.006,can0  206  [16]  9F 0C DC 07 9F 0C 3A DF F2 07 C3 0C A7 0C 00 00
2025-11-08T03:08:38.448503,28.051,can0  204  [16]  E1 22 50 46 50 46 50 46 28 23 20 4E 30 75 00 00
2025-11-08T03:08:38.506293,28.109,can0  204  [16]  E1 22 50 46 50 46 50 46 28 23 20 4E 30 75 00 00
2025-11-08T03:08:38.562695,28.165,can0  204  [16]  E1 22 50 46 50 46 50 46 28 23 20 4E 30 75 00 00
2025-11-08T03:08:38.580491,28.183,can0  206  [16]  9B 0C DA 07 A3 0C 3A DF F2 07 BB 0C AB 0C 00 00
2025-11-08T03:08:38.636283,28.239,can0  204  [16]  E1 22 50 46 50 46 50 46 28 23 20 4E 30 75 00 00
2025-11-08T03:08:38.636349,28.239,can0  041  [04]  3F 01 00 00
2025-11-08T03:08:38.679696,28.282,can0  204  [16]  E1 22 50 46 50 46 50 46 28 23 20 4E 30 75 00 00
2025-11-08T03:08:38.741989,28.344,can0  204  [16]  E1 22 50 46 50 46 50 46 28 23 20 4E 30 75 00 00
2025-11-08T03:08:38.750687,28.353,can0  206  [16]  9F 0C DE 07 A3 0C 57 E3 EF 07 BF 0C A3 0C 00 00
2025-11-08T03:08:38.797701,28.400,can0  204  [16]  E1 22 50 46 50 46 50 46 28 23 20 4E 30 75 00 00
2025-11-08T03:08:38.862135,28.464,can0  204  [16]  E1 22 50 46 50 46 50 46 28 23 20 4E 30 75 00 00
2025-11-08T03:08:38.902672,28.505,can0  041  [04]  3F 01 00 00
2025-11-08T03:08:38.920783,28.523,can0  206  [16]  9F 0C E0 07 9F 0C 99 C6 F2 07 BF 0C A7 0C 00 00
2025-11-08T03:08:38.921145,28.523,can0  204  [16]  E1 22 50 46 50 46 50 46 28 23 20 4E 30 75 00 00
2025-11-08T03:08:38.990506,28.593,can0  204  [16]  E1 22 50 46 50 46 50 46 28 23 20 4E 30 75 00 00
2025-11-08T03:08:39.051816,28.654,can0  204  [16]  E1 22 50 46 50 46 50 46 28 23 20 4E 30 75 00 00
2025-11-08T03:08:39.074222,28.676,can0  206  [16]  A3 0C DC 07 9F 0C DA DC F6 07 BF 0C A3 0C 00 00
2025-11-08T03:08:39.097383,28.700,can0  204  [16]  E1 22 50 46 50 46 50 46 28 23 20 4E 30 75 00 00
2025-11-08T03:08:39.160845,28.763,can0  204  [16]  E1 22 50 46 50 46 50 46 28 23 20 4E 30 75 00 00
2025-11-08T03:08:39.168574,28.771,can0  041  [04]  8B 00 00 00
2025-11-08T03:08:39.213736,28.816,can0  204  [16]  E1 22 50 46 50 46 50 46 28 23 20 4E 30 75 00 00
2025-11-08T03:08:39.252404,28.855,can0  206  [16]  9F 0C DC 07 9B 0C DA DC EF 07 C3 0C A7 0C 00 00
2025-11-08T03:08:39.270343,28.873,can0  204  [16]  E1 22 50 46 50 46 50 46 28 23 20 4E 30 75 00 00
2025-11-08T03:08:39.330728,28.933,can0  204  [16]  E1 22 50 46 50 46 50 46 28 23 20 4E 30 75 00 00
2025-11-08T03:08:39.389721,28.992,can0  204  [16]  E1 22 50 46 50 46 50 46 28 23 20 4E 30 75 00 00
2025-11-08T03:08:39.407295,29.010,can0  206  [16]  A3 0C DE 07 9B 0C 3A DF EF 07 BB 0C A7 0C 00 00
2025-11-08T03:08:39.446426,29.049,can0  041  [04]  8B 00 00 00
2025-11-08T03:08:39.451717,29.054,can0  204  [16]  E1 22 50 46 50 46 50 46 28 23 20 4E 30 75 00 00
2025-11-08T03:08:39.503242,29.106,can0  204  [16]  E1 22 50 46 50 46 50 46 28 23 20 4E 30 75 00 00
2025-11-08T03:08:39.559119,29.161,can0  204  [16]  E1 22 50 46 50 46 50 46 28 23 20 4E 30 75 00 00
2025-11-08T03:08:39.578268,29.181,can0  206  [16]  AB 0C E0 07 9B 0C 99 C6 F2 07 CB 0C 9B 0C 00 00
2025-11-08T03:08:39.618046,29.220,can0  204  [16]  E1 22 50 46 50 46 50 46 28 23 20 4E 30 75 00 00
2025-11-08T03:08:39.673357,29.276,can0  204  [16]  E1 22 50 46 50 46 50 46 28 23 20 4E 30 75 00 00
2025-11-08T03:08:39.714336,29.317,can0  041  [04]  E4 00 00 00
2025-11-08T03:08:39.731548,29.334,can0  204  [16]  E1 22 50 46 50 46 50 46 28 23 20 4E 30 75 00 00
2025-11-08T03:08:39.744864,29.347,can0  206  [16]  97 0C DA 07 A3 0C DA DC F2 07 C7 0C A7 0C 00 00
2025-11-08T03:08:39.796755,29.399,can0  204  [16]  E1 22 50 46 50 46 50 46 28 23 20 4E 30 75 00 00
2025-11-08T03:08:39.846561,29.449,can0  204  [16]  E1 22 50 46 50 46 50 46 28 23 20 4E 30 75 00 00
2025-11-08T03:08:39.918188,29.520,can0  204  [16]  E1 22 50 46 50 46 50 46 28 23 20 4E 30 75 00 00
2025-11-08T03:08:39.918751,29.521,can0  206  [16]  AB 0C DA 07 A3 0C DA DC EF 07 BB 0C 97 0C 00 00
2025-11-08T03:08:39.967125,29.569,can0  041  [04]  3F 01 00 00
2025-11-08T03:08:39.989494,29.592,can0  204  [16]  E1 22 50 46 50 46 50 46 28 23 20 4E 30 75 00 00
2025-11-08T03:08:40.039021,29.641,can0  204  [16]  E1 22 50 46 50 46 50 46 28 23 20 4E 30 75 00 00
2025-11-08T03:08:40.088836,29.691,can0  206  [16]  A3 0C DC 07 97 0C DA DC EF 07 CB 0C 9F 0C 00 00
2025-11-08T03:08:40.122236,29.725,can0  204  [16]  E1 22 50 46 50 46 50 46 28 23 20 4E 30 75 00 00
2025-11-08T03:08:40.178629,29.781,can0  204  [16]  E1 22 50 46 50 46 50 46 28 23 20 4E 30 75 00 00
2025-11-08T03:08:40.211861,29.814,can0  204  [16]  E1 22 50 46 50 46 50 46 28 23 20 4E 30 75 00 00
2025-11-08T03:08:40.234061,29.836,can0  041  [04]  3F 01 00 00
2025-11-08T03:08:40.238414,29.841,can0  206  [16]  A7 0C DE 07 97 0C 99 C6 EF 07 C3 0C A3 0C 00 00
2025-11-08T03:08:40.289345,29.892,can0  204  [16]  E1 22 50 46 50 46 50 46 28 23 20 4E 30 75 00 00
2025-11-08T03:08:40.324832,29.927,can0  204  [16]  E1 22 50 46 50 46 50 46 28 23 20 4E 30 75 00 00
2025-11-08T03:08:40.385088,29.987,can0  204  [16]  E1 22 50 46 50 46 50 46 28 23 20 4E 30 75 00 00
2025-11-08T03:08:40.400607,30.003,can0  206  [16]  AB 0C DC 07 9F 0C 99 C6 F2 07 BF 0C 9F 0C 00 00
2025-11-08T03:08:40.439144,30.041,can0  204  [16]  E1 22 50 46 50 46 50 46 28 23 20 4E 30 75 00 00
2025-11-08T03:08:40.498252,30.101,can0  204  [16]  E1 22 50 46 50 46 50 46 28 23 20 4E 30 75 00 00
2025-11-08T03:08:40.499231,30.102,can0  041  [04]  3F 01 00 00
2025-11-08T03:08:40.554545,30.157,can0  204  [16]  E1 22 50 46 50 46 50 46 28 23 20 4E 30 75 00 00
2025-11-08T03:08:40.590953,30.193,can0  206  [16]  93 0C DC 07 A7 0C DA DC F2 07 C3 0C AB 0C 00 00
2025-11-08T03:08:40.621750,30.224,can0  204  [16]  E1 22 50 46 50 46 50 46 28 23 20 4E 30 75 00 00
2025-11-08T03:08:40.700597,30.303,can0  204  [16]  E1 22 50 46 50 46 50 46 28 23 20 4E 30 75 00 00
2025-11-08T03:08:40.737200,30.339,can0  204  [16]  E1 22 50 46 50 46 50 46 28 23 20 4E 30 75 00 00
2025-11-08T03:08:40.738683,30.341,can0  206  [16]  A3 0C DA 07 9B 0C DA DC FC 07 BF 0C A3 0C 00 00
2025-11-08T03:08:40.770942,30.373,can0  041  [04]  3F 01 00 00
2025-11-08T03:08:40.810204,30.412,can0  204  [16]  E1 22 50 46 50 46 50 46 28 23 20 4E 30 75 00 00
2025-11-08T03:08:40.846482,30.449,can0  204  [16]  E1 22 50 46 50 46 50 46 28 23 20 4E 30 75 00 00
2025-11-08T03:08:40.906739,30.509,can0  204  [16]  E1 22 50 46 50 46 50 46 28 23 20 4E 30 75 00 00
2025-11-08T03:08:40.907138,30.509,can0  206  [16]  A3 0C DC 07 A7 0C DA DC F6 07 AF 0C A3 0C 00 00
2025-11-08T03:08:41.133639,30.736,can0  204  [16]  E1 22 50 46 50 46 50 46 28 23 20 4E 30 75 00 00
2025-11-08T03:08:41.138410,30.741,can0  041  [04]  3F 01 00 00
2025-11-08T03:08:41.138468,30.741,can0  204  [16]  E1 22 50 46 50 46 50 46 28 23 20 4E 30 75 00 00
2025-11-08T03:08:41.138491,30.741,can0  206  [16]  A3 0C DE 07 9B 0C 99 C6 F2 07 DF 0C A3 0C 00 00
2025-11-08T03:08:41.138509,30.741,can0  204  [16]  E1 22 50 46 50 46 50 46 28 23 20 4E 30 75 00 00
2025-11-08T03:08:41.152094,30.754,can0  204  [16]  E1 22 50 46 50 46 50 46 28 23 20 4E 30 75 00 00
2025-11-08T03:08:41.215083,30.817,can0  204  [16]  E1 22 50 46 50 46 50 46 28 23 20 4E 30 75 00 00
2025-11-08T03:08:41.236219,30.838,can0  206  [16]  A3 0C DC 07 9F 0C B1 E0 F2 07 BF 0C A3 0C 00 00
2025-11-08T03:08:41.262921,30.865,can0  204  [16]  E1 22 50 46 50 46 50 46 28 23 20 4E 30 75 00 00
2025-11-08T03:08:41.300655,30.903,can0  041  [04]  3F 01 00 00
2025-11-08T03:08:41.320808,30.923,can0  204  [16]  E1 22 50 46 50 46 50 46 28 23 20 4E 30 75 00 00
2025-11-08T03:08:41.401750,31.004,can0  204  [16]  E1 22 50 46 50 46 50 46 28 23 20 4E 30 75 00 00
2025-11-08T03:08:41.404266,31.007,can0  206  [16]  97 0C DE 07 A7 0C 99 C6 F2 07 BB 0C AB 0C 00 00
2025-11-08T03:08:41.440957,31.043,can0  204  [16]  E1 22 50 46 50 46 50 46 28 23 20 4E 30 75 00 00
2025-11-08T03:08:41.505461,31.108,can0  204  [16]  E1 22 50 46 50 46 50 46 28 23 20 4E 30 75 00 00
2025-11-08T03:08:41.559898,31.162,can0  204  [16]  E1 22 50 46 50 46 50 46 28 23 20 4E 30 75 00 00
2025-11-08T03:08:41.564804,31.167,can0  041  [04]  10 01 00 00
2025-11-08T03:08:41.567637,31.170,can0  206  [16]  9F 0C E5 07 97 0C C5 E1 F2 07 C3 0C AB 0C 00 00
2025-11-08T03:08:41.608110,31.210,can0  204  [16]  E1 22 50 46 50 46 50 46 28 23 20 4E 30 75 00 00
2025-11-08T03:08:41.668026,31.270,can0  204  [16]  E1 22 50 46 50 46 50 46 28 23 20 4E 30 75 00 00
2025-11-08T03:08:41.728201,31.330,can0  204  [16]  E1 22 50 46 50 46 50 46 28 23 20 4E 30 75 00 00
2025-11-08T03:08:41.728634,31.331,can0  206  [16]  A7 0C DC 07 A3 0C B1 E0 F2 07 C3 0C 9B 0C 00 00
2025-11-08T03:08:41.783469,31.386,can0  204  [16]  E1 22 50 46 50 46 50 46 28 23 20 4E 30 75 00 00
2025-11-08T03:08:41.834284,31.437,can0  041  [04]  10 01 00 00
2025-11-08T03:08:41.839455,31.442,can0  204  [16]  E1 22 50 46 50 46 50 46 28 23 20 4E 30 75 00 00
2025-11-08T03:08:41.901388,31.504,can0  204  [16]  E1 22 50 46 50 46 50 46 28 23 20 4E 30 75 00 00
2025-11-08T03:08:41.901458,31.504,can0  206  [16]  9F 0C DE 07 9B 0C 99 C6 EF 07 BF 0C A7 0C 00 00
2025-11-08T03:08:41.972510,31.575,can0  204  [16]  E1 22 50 46 50 46 50 46 28 23 20 4E 30 75 00 00
2025-11-08T03:08:42.029412,31.632,can0  204  [16]  E1 22 50 46 50 46 50 46 28 23 20 4E 30 75 00 00
2025-11-08T03:08:42.068756,31.671,can0  206  [16]  A3 0C DE 07 9B 0C C5 E1 EF 07 B7 0C A7 0C 00 00
2025-11-08T03:08:42.087028,31.689,can0  204  [16]  E1 22 50 46 50 46 50 46 28 23 20 4E 30 75 00 00
2025-11-08T03:08:42.097135,31.699,can0  041  [04]  10 01 00 00
2025-11-08T03:08:42.146591,31.749,can0  204  [16]  E1 22 50 46 50 46 50 46 28 23 20 4E 30 75 00 00
2025-11-08T03:08:42.220866,31.823,can0  204  [16]  E1 22 50 46 50 46 50 46 28 23 20 4E 30 75 00 00
2025-11-08T03:08:42.239690,31.842,can0  206  [16]  93 0C DE 07 9F 0C B1 E0 EF 07 BB 0C B3 0C 00 00
2025-11-08T03:08:42.264281,31.867,can0  204  [16]  E1 22 50 46 50 46 50 46 28 23 20 4E 30 75 00 00
2025-11-08T03:08:42.339655,31.942,can0  204  [16]  E1 22 50 46 50 46 50 46 28 23 20 4E 30 75 00 00
2025-11-08T03:08:42.368119,31.970,can0  041  [04]  10 01 00 00
2025-11-08T03:08:42.377010,31.979,can0  204  [16]  E1 22 50 46 50 46 50 46 28 23 20 4E 30 75 00 00
2025-11-08T03:08:42.398838,32.001,can0  206  [16]  97 0C DC 07 A3 0C 6C E7 F4 07 BB 0C AB 0C 00 00
2025-11-08T03:08:42.444852,32.047,can0  204  [16]  E1 22 50 46 50 46 50 46 28 23 20 4E 30 75 00 00
2025-11-08T03:08:42.491132,32.093,can0  204  [16]  E1 22 50 46 50 46 50 46 28 23 20 4E 30 75 00 00
2025-11-08T03:08:42.547643,32.150,can0  204  [16]  E1 22 50 46 50 46 50 46 28 23 20 4E 30 75 00 00
2025-11-08T03:08:42.567573,32.170,can0  206  [16]  AB 0C DC 07 9F 0C 99 C6 EF 07 BF 0C 9B 0C 00 00
2025-11-08T03:08:42.606400,32.209,can0  204  [16]  E1 22 50 46 50 46 50 46 28 23 20 4E 30 75 00 00
2025-11-08T03:08:42.637671,32.240,can0  041  [04]  3F 01 00 00
2025-11-08T03:08:42.673541,32.276,can0  204  [16]  E1 22 50 46 50 46 50 46 28 23 20 4E 30 75 00 00
2025-11-08T03:08:42.731972,32.334,can0  204  [16]  E1 22 50 46 50 46 50 46 28 23 20 4E 30 75 00 00
2025-11-08T03:08:42.744964,32.347,can0  206  [16]  AB 0C DA 07 97 0C DA DC EF 07 B7 0C 9F 0C 00 00
2025-11-08T03:08:42.779682,32.382,can0  204  [16]  E1 22 50 46 50 46 50 46 28 23 20 4E 30 75 00 00
2025-11-08T03:08:42.848236,32.451,can0  204  [16]  E1 22 50 46 50 46 50 46 28 23 20 4E 30 75 00 00
2025-11-08T03:08:42.894436,32.497,can0  204  [16]  E1 22 50 46 50 46 50 46 28 23 20 4E 30 75 00 00
2025-11-08T03:08:42.904772,32.507,can0  206  [16]  B3 0C DC 07 87 0C DA DC F4 07 C7 0C A7 0C 00 00
2025-11-08T03:08:42.904845,32.507,can0  041  [04]  3F 01 00 00
2025-11-08T03:08:42.970992,32.573,can0  204  [16]  E1 22 50 46 50 46 50 46 28 23 20 4E 30 75 00 00
2025-11-08T03:08:43.045883,32.648,can0  204  [16]  E1 22 50 46 50 46 50 46 28 23 20 4E 30 75 00 00
2025-11-08T03:08:43.058906,32.661,can0  206  [16]  9F 0C DE 07 97 0C DA DC F2 07 EC 0C AB 0C 00 00
2025-11-08T03:08:43.086625,32.689,can0  204  [16]  E1 22 50 46 50 46 50 46 28 23 20 4E 30 75 00 00
2025-11-08T03:08:43.150909,32.753,can0  204  [16]  E1 22 50 46 50 46 50 46 28 23 20 4E 30 75 00 00
2025-11-08T03:08:43.162655,32.765,can0  041  [04]  3F 01 00 00
2025-11-08T03:08:43.202221,32.804,can0  204  [16]  E1 22 50 46 50 46 50 46 28 23 20 4E 30 75 00 00
2025-11-08T03:08:43.229601,32.832,can0  206  [16]  A7 0C DC 07 9B 0C 3A DF F4 07 CF 0C 9B 0C 00 00
2025-11-08T03:08:43.266036,32.868,can0  204  [16]  E1 22 50 46 50 46 50 46 28 23 20 4E 30 75 00 00
2025-11-08T03:08:43.319269,32.922,can0  204  [16]  E1 22 50 46 50 46 50 46 28 23 20 4E 30 75 00 00
2025-11-08T03:08:43.370987,32.973,can0  204  [16]  E1 22 50 46 50 46 50 46 28 23 20 4E 30 75 00 00
2025-11-08T03:08:43.397187,32.999,can0  206  [16]  97 0C DC 07 A3 0C B1 E0 EF 07 C3 0C A3 0C 00 00
2025-11-08T03:08:43.448817,33.051,can0  204  [16]  E1 22 50 46 50 46 50 46 28 23 20 4E 30 75 00 00
2025-11-08T03:08:43.472170,33.074,can0  041  [04]  3F 01 00 00
2025-11-08T03:08:43.489447,33.092,can0  204  [16]  E1 22 50 46 50 46 50 46 28 23 20 4E 30 75 00 00
2025-11-08T03:08:43.554607,33.157,can0  204  [16]  E1 22 50 46 50 46 50 46 28 23 20 4E 30 75 00 00
2025-11-08T03:08:43.571156,33.173,can0  206  [16]  9F 0C DC 07 9B 0C 99 C6 F6 07 D3 0C A7 0C 00 00
2025-11-08T03:08:43.606224,33.208,can0  204  [16]  E1 22 50 46 50 46 50 46 28 23 20 4E 30 75 00 00
2025-11-08T03:08:43.661415,33.264,can0  204  [16]  E1 22 50 46 50 46 50 46 28 23 20 4E 30 75 00 00
2025-11-08T03:08:43.709160,33.311,can0  041  [04]  10 01 00 00
2025-11-08T03:08:43.716431,33.319,can0  204  [16]  E1 22 50 46 50 46 50 46 28 23 20 4E 30 75 00 00
2025-11-08T03:08:43.734352,33.337,can0  206  [16]  AB 0C DC 07 9B 0C 3A DF 0B 08 BF 0C 9B 0C 00 00
2025-11-08T03:08:43.777741,33.380,can0  204  [16]  E1 22 50 46 50 46 50 46 28 23 20 4E 30 75 00 00
2025-11-08T03:08:43.831785,33.434,can0  204  [16]  E1 22 50 46 50 46 50 46 28 23 20 4E 30 75 00 00
2025-11-08T03:08:43.892216,33.494,can0  204  [16]  E1 22 50 46 50 46 50 46 28 23 20 4E 30 75 00 00
2025-11-08T03:08:43.915432,33.518,can0  206  [16]  9B 0C DA 07 9F 0C 99 C6 F2 07 BB 0C AB 0C 00 00
2025-11-08T03:08:43.964592,33.567,can0  041  [04]  2F 00 00 00
2025-11-08T03:08:43.968457,33.571,can0  204  [16]  E1 22 50 46 50 46 50 46 28 23 20 4E 30 75 00 00
2025-11-08T03:08:44.022052,33.624,can0  204  [16]  E1 22 50 46 50 46 50 46 28 23 20 4E 30 75 00 00
2025-11-08T03:08:44.070922,33.673,can0  206  [16]  AB 0C DA 07 9B 0C 99 C6 EF 07 C3 0C 9B 0C 00 00
2025-11-08T03:08:44.082929,33.685,can0  204  [16]  E1 22 50 46 50 46 50 46 28 23 20 4E 30 75 00 00
2025-11-08T03:08:44.138940,33.741,can0  204  [16]  E1 22 50 46 50 46 50 46 28 23 20 4E 30 75 00 00
2025-11-08T03:08:44.194700,33.797,can0  204  [16]  E1 22 50 46 50 46 50 46 28 23 20 4E 30 75 00 00
2025-11-08T03:08:44.226387,33.829,can0  206  [16]  A3 0C D8 07 87 0C 3A DF F4 07 CF 0C A7 0C 00 00
2025-11-08T03:08:44.226910,33.829,can0  041  [04]  8B 00 00 00
2025-11-08T03:08:44.268256,33.871,can0  204  [16]  E1 22 50 46 50 46 50 46 28 23 20 4E 30 75 00 00
2025-11-08T03:08:44.312166,33.914,can0  204  [16]  E1 22 50 46 50 46 50 46 28 23 20 4E 30 75 00 00
2025-11-08T03:08:44.370678,33.973,can0  204  [16]  E1 22 50 46 50 46 50 46 28 23 20 4E 30 75 00 00
2025-11-08T03:08:44.393465,33.996,can0  206  [16]  C7 0C DE 07 87 0C 3A DF F2 07 B3 0C 9F 0C 00 00
2025-11-08T03:08:44.426414,34.029,can0  204  [16]  E1 22 50 46 50 46 50 46 28 23 20 4E 30 75 00 00
2025-11-08T03:08:44.482207,34.084,can0  204  [16]  E1 22 50 46 50 46 50 46 28 23 20 4E 30 75 00 00
2025-11-08T03:08:44.494124,34.096,can0  041  [04]  2F 00 00 00
2025-11-08T03:08:44.540246,34.143,can0  204  [16]  E1 22 50 46 50 46 50 46 28 23 20 4E 30 75 00 00
2025-11-08T03:08:44.594770,34.197,can0  206  [16]  9F 0C E3 07 9B 0C B1 E0 EF 07 BB 0C A7 0C 00 00
2025-11-08T03:08:44.598149,34.200,can0  204  [16]  E1 22 50 46 50 46 50 46 28 23 20 4E 30 75 00 00
2025-11-08T03:08:44.655266,34.258,can0  204  [16]  E1 22 50 46 50 46 50 46 28 23 20 4E 30 75 00 00
2025-11-08T03:08:44.726611,34.329,can0  204  [16]  E1 22 50 46 50 46 50 46 28 23 20 4E 30 75 00 00
2025-11-08T03:08:44.732607,34.335,can0  206  [16]  A3 0C DE 07 9B 0C 99 C6 10 08 B7 0C A7 0C 00 00
2025-11-08T03:08:44.762277,34.365,can0  041  [04]  2F 00 00 00
2025-11-08T03:08:44.772257,34.375,can0  204  [16]  E1 22 50 46 50 46 50 46 28 23 20 4E 30 75 00 00
2025-11-08T03:08:44.827876,34.430,can0  204  [16]  E1 22 50 46 50 46 50 46 28 23 20 4E 30 75 00 00
2025-11-08T03:08:44.886899,34.489,can0  204  [16]  E1 22 50 46 50 46 50 46 28 23 20 4E 30 75 00 00
2025-11-08T03:08:44.907986,34.510,can0  206  [16]  B3 0C DC 07 A3 0C 3A DF EF 07 B7 0C 93 0C 00 00
2025-11-08T03:08:44.961533,34.564,can0  204  [16]  E1 22 50 46 50 46 50 46 28 23 20 4E 30 75 00 00
2025-11-08T03:08:45.018802,34.621,can0  204  [16]  E1 22 50 46 50 46 50 46 28 23 20 4E 30 75 00 00
2025-11-08T03:08:45.029573,34.632,can0  041  [04]  2F 00 00 00
2025-11-08T03:08:45.060432,34.663,can0  206  [16]  A3 0C D8 07 A3 0C B1 E0 ED 07 BB 0C A3 0C 00 00
2025-11-08T03:08:45.089679,34.692,can0  204  [16]  E1 22 50 46 50 46 50 46 28 23 20 4E 30 75 00 00
2025-11-08T03:08:45.135070,34.737,can0  204  [16]  E1 22 50 46 50 46 50 46 28 23 20 4E 30 75 00 00
2025-11-08T03:08:45.191011,34.793,can0  204  [16]  E1 22 50 46 50 46 50 46 28 23 20 4E 30 75 00 00
2025-11-08T03:08:45.219745,34.822,can0  206  [16]  97 0C DA 07 9B 0C B1 E0 F4 07 BF 0C AF 0C 00 00
2025-11-08T03:08:45.249897,34.852,can0  204  [16]  E1 22 50 46 50 46 50 46 28 23 20 4E 30 75 00 00
2025-11-08T03:08:45.315855,34.918,can0  041  [04]  E4 00 00 00
2025-11-08T03:08:45.316182,34.918,can0  204  [16]  E1 22 50 46 50 46 50 46 28 23 20 4E 30 75 00 00
2025-11-08T03:08:45.364394,34.967,can0  204  [16]  E1 22 50 46 50 46 50 46 28 23 20 4E 30 75 00 00
2025-11-08T03:08:45.395166,34.997,can0  206  [16]  93 0C DC 07 A7 0C 99 C6 EF 07 BF 0C AB 0C 00 00
2025-11-08T03:08:45.423761,35.026,can0  204  [16]  E1 22 50 46 50 46 50 46 28 23 20 4E 30 75 00 00
2025-11-08T03:08:45.480575,35.083,can0  204  [16]  E1 22 50 46 50 46 50 46 28 23 20 4E 30 75 00 00
2025-11-08T03:08:45.550469,35.153,can0  204  [16]  E1 22 50 46 50 46 50 46 28 23 20 4E 30 75 00 00
2025-11-08T03:08:45.551313,35.154,can0  206  [16]  97 0C DC 07 9F 0C DA DC EF 07 BF 0C AB 0C 00 00
2025-11-08T03:08:45.558676,35.161,can0  041  [04]  E4 00 00 00
2025-11-08T03:08:45.613215,35.215,can0  204  [16]  E1 22 50 46 50 46 50 46 28 23 20 4E 30 75 00 00
2025-11-08T03:08:45.659629,35.262,can0  204  [16]  E1 22 50 46 50 46 50 46 28 23 20 4E 30 75 00 00
2025-11-08T03:08:45.711697,35.314,can0  204  [16]  E1 22 50 46 50 46 50 46 28 23 20 4E 30 75 00 00
2025-11-08T03:08:45.719945,35.322,can0  206  [16]  97 0C DC 07 A3 0C 57 E3 F2 07 CB 0C 9F 0C 00 00
2025-11-08T03:08:45.768410,35.371,can0  204  [16]  E1 22 50 46 50 46 50 46 28 23 20 4E 30 75 00 00
2025-11-08T03:08:45.826968,35.429,can0  041  [04]  3F 01 00 00
2025-11-08T03:08:45.827032,35.429,can0  204  [16]  E1 22 50 46 50 46 50 46 28 23 20 4E 30 75 00 00
2025-11-08T03:08:45.886533,35.489,can0  204  [16]  E1 22 50 46 50 46 50 46 28 23 20 4E 30 75 00 00
2025-11-08T03:08:45.890026,35.492,can0  206  [16]  9B 0C D8 07 9F 0C DA DC F2 07 BF 0C A7 0C 00 00
2025-11-08T03:08:45.960425,35.563,can0  204  [16]  E1 22 50 46 50 46 50 46 28 23 20 4E 30 75 00 00
2025-11-08T03:08:46.023082,35.625,can0  204  [16]  E1 22 50 46 50 46 50 46 28 23 20 4E 30 75 00 00
2025-11-08T03:08:46.063147,35.665,can0  206  [16]  A3 0C E5 07 97 0C 3A DF F2 07 C3 0C A7 0C 00 00
2025-11-08T03:08:46.073349,35.676,can0  204  [16]  E1 22 50 46 50 46 50 46 28 23 20 4E 30 75 00 00
2025-11-08T03:08:46.094256,35.697,can0  041  [04]  3F 01 00 00
2025-11-08T03:08:46.130875,35.733,can0  204  [16]  E1 22 50 46 50 46 50 46 28 23 20 4E 30 75 00 00
2025-11-08T03:08:46.191544,35.794,can0  204  [16]  E1 22 50 46 50 46 50 46 28 23 20 4E 30 75 00 00
2025-11-08T03:08:46.223087,35.825,can0  206  [16]  B3 0C FA 07 9B 0C B1 E0 F2 07 BF 0C 93 0C 00 00
2025-11-08T03:08:46.251575,35.854,can0  204  [16]  E1 22 50 46 50 46 50 46 28 23 20 4E 30 75 00 00
2025-11-08T03:08:46.319968,35.922,can0  204  [16]  E1 22 50 46 50 46 50 46 28 23 20 4E 30 75 00 00
2025-11-08T03:08:46.357109,35.959,can0  041  [04]  8B 00 00 00
2025-11-08T03:08:46.370836,35.973,can0  204  [16]  E1 22 50 46 50 46 50 46 28 23 20 4E 30 75 00 00
2025-11-08T03:08:46.382463,35.985,can0  206  [16]  7F 0C D8 07 9B 0C 3A DF F2 07 C3 0C C7 0C 00 00
2025-11-08T03:08:46.434459,36.037,can0  204  [16]  E1 22 50 46 50 46 50 46 28 23 20 4E 30 75 00 00
2025-11-08T03:08:46.478722,36.081,can0  204  [16]  E1 22 50 46 50 46 50 46 28 23 20 4E 30 75 00 00
2025-11-08T03:08:46.544329,36.147,can0  204  [16]  E1 22 50 46 50 46 50 46 28 23 20 4E 30 75 00 00
2025-11-08T03:08:46.544394,36.147,can0  206  [16]  A7 0C DC 07 9B 0C DA DC F2 07 C3 0C 9F 0C 00 00
2025-11-08T03:08:46.599849,36.202,can0  204  [16]  E1 22 50 46 50 46 50 46 28 23 20 4E 30 75 00 00
2025-11-08T03:08:46.624132,36.226,can0  041  [04]  8B 00 00 00
2025-11-08T03:08:46.648035,36.250,can0  204  [16]  E1 22 50 46 50 46 50 46 28 23 20 4E 30 75 00 00
2025-11-08T03:08:46.707709,36.310,can0  204  [16]  E1 22 50 46 50 46 50 46 28 23 20 4E 30 75 00 00
2025-11-08T03:08:46.733011,36.335,can0  206  [16]  BF 0C DE 07 7B 0C B1 E0 F2 07 CB 0C A3 0C 00 00
2025-11-08T03:08:46.763956,36.366,can0  204  [16]  E1 22 50 46 50 46 50 46 28 23 20 4E 30 75 00 00
2025-11-08T03:08:46.828909,36.431,can0  204  [16]  E1 22 50 46 50 46 50 46 28 23 20 4E 30 75 00 00
2025-11-08T03:08:46.883297,36.486,can0  204  [16]  E1 22 50 46 50 46 50 46 28 23 20 4E 30 75 00 00
2025-11-08T03:08:46.883583,36.486,can0  206  [16]  9F 0C DC 07 9F 0C 3A DF EF 07 BB 0C A7 0C 00 00
2025-11-08T03:08:46.894013,36.496,can0  041  [04]  B5 00 00 00
2025-11-08T03:08:46.970506,36.573,can0  204  [16]  E1 22 50 46 50 46 50 46 28 23 20 4E 30 75 00 00
2025-11-08T03:08:47.014477,36.617,can0  204  [16]  E1 22 50 46 50 46 50 46 28 23 20 4E 30 75 00 00
2025-11-08T03:08:47.052744,36.655,can0  206  [16]  A3 0C DC 07 97 0C 3A DF F2 07 C3 0C A7 0C 00 00
2025-11-08T03:08:47.087313,36.690,can0  204  [16]  E1 22 50 46 50 46 50 46 28 23 20 4E 30 75 00 00
2025-11-08T03:08:47.138880,36.741,can0  204  [16]  E1 22 50 46 50 46 50 46 28 23 20 4E 30 75 00 00
2025-11-08T03:08:47.156059,36.758,can0  041  [04]  8B 00 00 00
2025-11-08T03:08:47.189535,36.792,can0  204  [16]  E1 22 50 46 50 46 50 46 28 23 20 4E 30 75 00 00
2025-11-08T03:08:47.207656,36.810,can0  206  [16]  9B 0C DA 07 A3 0C 99 C6 EF 07 B3 0C A7 0C 00 00
2025-11-08T03:08:47.263545,36.866,can0  204  [16]  E1 22 50 46 50 46 50 46 28 23 20 4E 30 75 00 00
2025-11-08T03:08:47.301729,36.904,can0  204  [16]  E1 22 50 46 50 46 50 46 28 23 20 4E 30 75 00 00
2025-11-08T03:08:47.360220,36.962,can0  204  [16]  E1 22 50 46 50 46 50 46 28 23 20 4E 30 75 00 00
2025-11-08T03:08:47.385208,36.987,can0  206  [16]  9B 0C DE 07 9F 0C 99 C6 F2 07 BF 0C AB 0C 00 00
2025-11-08T03:08:47.419010,37.021,can0  204  [16]  E1 22 50 46 50 46 50 46 28 23 20 4E 30 75 00 00
2025-11-08T03:08:47.424339,37.027,can0  041  [04]  5E 00 00 00
2025-11-08T03:08:47.477925,37.080,can0  204  [16]  E1 22 50 46 50 46 50 46 28 23 20 4E 30 75 00 00
2025-11-08T03:08:47.548314,37.151,can0  204  [16]  E1 22 50 46 50 46 50 46 28 23 20 4E 30 75 00 00
2025-11-08T03:08:47.557409,37.160,can0  206  [16]  A7 0C DE 07 9F 0C 3A DF F2 07 B7 0C A3 0C 00 00
2025-11-08T03:08:47.589652,37.192,can0  204  [16]  E1 22 50 46 50 46 50 46 28 23 20 4E 30 75 00 00
2025-11-08T03:08:47.651363,37.254,can0  204  [16]  E1 22 50 46 50 46 50 46 28 23 20 4E 30 75 00 00
2025-11-08T03:08:47.702188,37.304,can0  041  [04]  E4 00 00 00
2025-11-08T03:08:47.703803,37.306,can0  204  [16]  E1 22 50 46 50 46 50 46 28 23 20 4E 30 75 00 00
2025-11-08T03:08:47.715166,37.317,can0  206  [16]  A7 0C DC 07 9B 0C 99 C6 F6 07 BF 0C 9F 0C 00 00
2025-11-08T03:08:47.759894,37.362,can0  204  [16]  E1 22 50 46 50 46 50 46 28 23 20 4E 30 75 00 00
2025-11-08T03:08:47.833759,37.436,can0  204  [16]  E1 22 50 46 50 46 50 46 28 23 20 4E 30 75 00 00
2025-11-08T03:08:47.875496,37.478,can0  204  [16]  E1 22 50 46 50 46 50 46 28 23 20 4E 30 75 00 00
2025-11-08T03:08:47.881705,37.484,can0  206  [16]  A3 0C DC 07 97 0C 3A DF F2 07 D3 0C A3 0C 00 00
2025-11-08T03:08:47.961987,37.564,can0  204  [16]  E1 22 50 46 50 46 50 46 28 23 20 4E 30 75 00 00
2025-11-08T03:08:47.962050,37.564,can0  041  [04]  E4 00 00 00
2025-11-08T03:08:48.015662,37.618,can0  204  [16]  E1 22 50 46 50 46 50 46 28 23 20 4E 30 75 00 00
2025-11-08T03:08:48.062515,37.665,can0  206  [16]  9F 0C DC 07 97 0C 99 C6 F2 07 C3 0C A7 0C 00 00
2025-11-08T03:08:48.070024,37.672,can0  204  [16]  E1 22 50 46 50 46 50 46 28 23 20 4E 30 75 00 00
2025-11-08T03:08:48.123705,37.726,can0  204  [16]  E1 22 50 46 50 46 50 46 28 23 20 4E 30 75 00 00
2025-11-08T03:08:48.180577,37.783,can0  204  [16]  E1 22 50 46 50 46 50 46 28 23 20 4E 30 75 00 00
2025-11-08T03:08:48.213803,37.816,can0  206  [16]  A7 0C DC 07 97 0C 99 C6 F4 07 BF 0C A3 0C 00 00
2025-11-08T03:08:48.221372,37.824,can0  041  [04]  3F 01 00 00
2025-11-08T03:08:48.265668,37.868,can0  204  [16]  E1 22 50 46 50 46 50 46 28 23 20 4E 30 75 00 00
2025-11-08T03:08:48.296103,37.898,can0  204  [16]  E1 22 50 46 50 46 50 46 28 23 20 4E 30 75 00 00
2025-11-08T03:08:48.368131,37.970,can0  204  [16]  E1 22 50 46 50 46 50 46 28 23 20 4E 30 75 00 00
2025-11-08T03:08:48.378541,37.981,can0  206  [16]  A3 0C DE 07 9F 0C 99 C6 F2 07 BF 0C A3 0C 00 00
2025-11-08T03:08:48.412594,38.015,can0  204  [16]  E1 22 50 46 50 46 50 46 28 23 20 4E 30 75 00 00
2025-11-08T03:08:48.477437,38.080,can0  204  [16]  E1 22 50 46 50 46 50 46 28 23 20 4E 30 75 00 00
2025-11-08T03:08:48.488885,38.091,can0  041  [04]  3F 01 00 00
2025-11-08T03:08:48.528217,38.130,can0  204  [16]  E1 22 50 46 50 46 50 46 28 23 20 4E 30 75 00 00
2025-11-08T03:08:48.550904,38.153,can0  206  [16]  A3 0C D1 07 9B 0C B1 E0 F2 07 C3 0C A3 0C 00 00
2025-11-08T03:08:48.587392,38.190,can0  204  [16]  E1 22 50 46 50 46 50 46 28 23 20 4E 30 75 00 00
2025-11-08T03:08:48.645258,38.248,can0  204  [16]  E1 22 50 46 50 46 50 46 28 23 20 4E 30 75 00 00
2025-11-08T03:08:48.700938,38.303,can0  204  [16]  E1 22 50 46 50 46 50 46 28 23 20 4E 30 75 00 00
2025-11-08T03:08:48.719838,38.322,can0  206  [16]  AB 0C DC 07 9F 0C DA DC F2 07 DF 0C 9B 0C 00 00
2025-11-08T03:08:48.758886,38.361,can0  041  [04]  10 01 00 00
2025-11-08T03:08:48.758944,38.361,can0  204  [16]  E1 22 50 46 50 46 50 46 28 23 20 4E 30 75 00 00
2025-11-08T03:08:48.814667,38.417,can0  204  [16]  E1 22 50 46 50 46 50 46 28 23 20 4E 30 75 00 00
2025-11-08T03:08:48.891887,38.494,can0  204  [16]  E1 22 50 46 50 46 50 46 28 23 20 4E 30 75 00 00
2025-11-08T03:08:48.892653,38.495,can0  206  [16]  AF 0C DE 07 93 0C DA DC EF 07 BF 0C 9F 0C 00 00
2025-11-08T03:08:49.002482,38.605,can0  204  [16]  E1 22 50 46 50 46 50 46 28 23 20 4E 30 75 00 00
2025-11-08T03:08:49.009156,38.611,can0  204  [16]  E1 22 50 46 50 46 50 46 28 23 20 4E 30 75 00 00
2025-11-08T03:08:49.331543,38.934,can0  041  [04]  3F 01 00 00
2025-11-08T03:08:49.331604,38.934,can0  206  [16]  9F 0C DE 07 A3 0C 99 C6 EF 07 B7 0C AB 0C 00 00
2025-11-08T03:08:49.331624,38.934,can0  204  [16]  E1 22 50 46 50 46 50 46 28 23 20 4E 30 75 00 00
2025-11-08T03:08:49.331639,38.934,can0  204  [16]  E1 22 50 46 50 46 50 46 28 23 20 4E 30 75 00 00
2025-11-08T03:08:49.331654,38.934,can0  204  [16]  E1 22 50 46 50 46 50 46 28 23 20 4E 30 75 00 00
2025-11-08T03:08:49.331668,38.934,can0  206  [16]  9B 0C DC 07 7F 0C 3A DF F2 07 E8 0C AB 0C 00 00
2025-11-08T03:08:49.331682,38.934,can0  204  [16]  E1 22 50 46 50 46 50 46 28 23 20 4E 30 75 00 00
2025-11-08T03:08:49.331696,38.934,can0  041  [04]  3F 01 00 00
2025-11-08T03:08:49.331710,38.934,can0  204  [16]  E1 22 50 46 50 46 50 46 28 23 20 4E 30 75 00 00
2025-11-08T03:08:49.411502,39.014,can0  204  [16]  E1 22 50 46 50 46 50 46 28 23 20 4E 30 75 00 00
2025-11-08T03:08:49.411564,39.014,can0  206  [16]  A3 0C DC 07 97 0C 99 C6 EF 07 C3 0C A7 0C 00 00
2025-11-08T03:08:49.412214,39.014,can0  204  [16]  E1 22 50 46 50 46 50 46 28 23 20 4E 30 75 00 00
2025-11-08T03:08:49.472485,39.075,can0  204  [16]  E1 22 50 46 50 46 50 46 28 23 20 4E 30 75 00 00
2025-11-08T03:08:49.607021,39.209,can0  204  [16]  E1 22 50 46 50 46 50 46 28 23 20 4E 30 75 00 00
2025-11-08T03:08:49.607085,39.209,can0  206  [16]  A3 0C DE 07 9B 0C B1 E0 F2 07 BF 0C A7 0C 00 00
2025-11-08T03:08:49.607105,39.209,can0  041  [04]  2F 00 00 00
2025-11-08T03:08:49.607121,39.209,can0  204  [16]  E1 22 50 46 50 46 50 46 28 23 20 4E 30 75 00 00
2025-11-08T03:08:49.669210,39.271,can0  204  [16]  E1 22 50 46 50 46 50 46 28 23 20 4E 30 75 00 00
2025-11-08T03:08:49.827059,39.429,can0  204  [16]  E1 22 50 46 50 46 50 46 28 23 20 4E 30 75 00 00
2025-11-08T03:08:49.829223,39.431,can0  206  [16]  A3 0C DE 07 9B 0C DA DC ED 07 C7 0C A3 0C 00 00
2025-11-08T03:08:49.829276,39.432,can0  204  [16]  E1 22 50 46 50 46 50 46 28 23 20 4E 30 75 00 00
2025-11-08T03:08:49.829297,39.432,can0  204  [16]  E1 22 50 46 50 46 50 46 28 23 20 4E 30 75 00 00
2025-11-08T03:08:49.829314,39.432,can0  041  [04]  2F 00 00 00
2025-11-08T03:08:49.873696,39.476,can0  204  [16]  E1 22 50 46 50 46 50 46 28 23 20 4E 30 75 00 00
2025-11-08T03:08:49.972926,39.575,can0  206  [16]  A7 0C DC 07 97 0C DA DC F2 07 08 0D A3 0C 00 00
2025-11-08T03:08:49.980793,39.583,can0  204  [16]  E1 22 50 46 50 46 50 46 28 23 20 4E 30 75 00 00
2025-11-08T03:08:50.032617,39.635,can0  204  [16]  E1 22 50 46 50 46 50 46 28 23 20 4E 30 75 00 00
2025-11-08T03:08:50.056929,39.659,can0  206  [16]  A3 0C DE 07 97 0C B1 E0 F8 07 CB 0C A7 0C 00 00
2025-11-08T03:08:50.057494,39.660,can0  204  [16]  E1 22 50 46 50 46 50 46 28 23 20 4E 30 75 00 00
2025-11-08T03:08:50.126315,39.729,can0  041  [04]  3F 01 00 00
2025-11-08T03:08:50.126373,39.729,can0  204  [16]  E1 22 50 46 50 46 50 46 28 23 20 4E 30 75 00 00
2025-11-08T03:08:50.176159,39.778,can0  204  [16]  E1 22 50 46 50 46 50 46 28 23 20 4E 30 75 00 00
2025-11-08T03:08:50.227909,39.830,can0  206  [16]  9F 0C DC 07 9F 0C DA DC F6 07 C3 0C A7 0C 00 00
2025-11-08T03:08:50.229259,39.832,can0  204  [16]  E1 22 50 46 50 46 50 46 28 23 20 4E 30 75 00 00
2025-11-08T03:08:50.364805,39.967,can0  204  [16]  E1 22 50 46 50 46 50 46 28 23 20 4E 30 75 00 00
2025-11-08T03:08:50.364881,39.967,can0  204  [16]  E1 22 50 46 50 46 50 46 28 23 20 4E 30 75 00 00
2025-11-08T03:08:50.364899,39.967,can0  041  [04]  3F 01 00 00
2025-11-08T03:08:50.375937,39.978,can0  206  [16]  9F 0C E0 07 97 0C DA DC EF 07 AF 0C AB 0C 00 00
2025-11-08T03:08:50.414591,40.017,can0  204  [16]  E1 22 50 46 50 46 50 46 28 23 20 4E 30 75 00 00
2025-11-08T03:08:50.576274,40.179,can0  204  [16]  E1 22 50 46 50 46 50 46 28 23 20 4E 30 75 00 00
2025-11-08T03:08:50.576688,40.179,can0  204  [16]  E1 22 50 46 50 46 50 46 28 23 20 4E 30 75 00 00
2025-11-08T03:08:50.583871,40.186,can0  206  [16]  9F 0C D8 07 97 0C DA DC EF 07 C3 0C A7 0C 00 00
2025-11-08T03:08:50.583902,40.186,can0  204  [16]  E1 22 50 46 50 46 50 46 28 23 20 4E 30 75 00 00
2025-11-08T03:08:50.635026,40.237,can0  041  [04]  3F 01 00 00
2025-11-08T03:08:50.635659,40.238,can0  204  [16]  E1 22 50 46 50 46 50 46 28 23 20 4E 30 75 00 00
2025-11-08T03:08:50.773984,40.376,can0  204  [16]  E1 22 50 46 50 46 50 46 28 23 20 4E 30 75 00 00
2025-11-08T03:08:50.774043,40.376,can0  206  [16]  A7 0C DE 07 97 0C B1 E0 F2 07 C3 0C A3 0C 00 00
2025-11-08T03:08:50.774060,40.376,can0  204  [16]  E1 22 50 46 50 46 50 46 28 23 20 4E 30 75 00 00
2025-11-08T03:08:50.807634,40.410,can0  204  [16]  E1 22 50 46 50 46 50 46 28 23 20 4E 30 75 00 00
2025-11-08T03:08:50.973714,40.576,can0  204  [16]  E1 22 50 46 50 46 50 46 28 23 20 4E 30 75 00 00
2025-11-08T03:08:50.973775,40.576,can0  206  [16]  A3 0C DC 07 9F 0C DA DC EF 07 BF 0C A3 0C 00 00
2025-11-08T03:08:50.973794,40.576,can0  041  [04]  3F 01 00 00
2025-11-08T03:08:50.973812,40.576,can0  204  [16]  E1 22 50 46 50 46 50 46 28 23 20 4E 30 75 00 00
2025-11-08T03:08:50.993412,40.596,can0  204  [16]  E1 22 50 46 50 46 50 46 28 23 20 4E 30 75 00 00
2025-11-08T03:08:51.045734,40.648,can0  206  [16]  A7 0C DC 07 9B 0C 99 C6 EF 07 BF 0C 9F 0C 00 00
2025-11-08T03:08:51.051273,40.654,can0  204  [16]  E1 22 50 46 50 46 50 46 28 23 20 4E 30 75 00 00
2025-11-08T03:08:51.173680,40.776,can0  204  [16]  E1 22 50 46 50 46 50 46 28 23 20 4E 30 75 00 00
2025-11-08T03:08:51.177866,40.780,can0  041  [04]  3F 01 00 00
2025-11-08T03:08:51.177914,40.780,can0  204  [16]  E1 22 50 46 50 46 50 46 28 23 20 4E 30 75 00 00
2025-11-08T03:08:51.197941,40.800,can0  206  [16]  A3 0C DE 07 9B 0C DA DC F2 07 B7 0C A3 0C 00 00
2025-11-08T03:08:51.244523,40.847,can0  204  [16]  E1 22 50 46 50 46 50 46 28 23 20 4E 30 75 00 00
2025-11-08T03:08:51.386442,40.989,can0  204  [16]  E1 22 50 46 50 46 50 46 28 23 20 4E 30 75 00 00
2025-11-08T03:08:51.386503,40.989,can0  204  [16]  E1 22 50 46 50 46 50 46 28 23 20 4E 30 75 00 00
2025-11-08T03:08:51.386521,40.989,can0  206  [16]  A3 0C DE 07 93 0C DA DC F2 07 CB 0C A7 0C 00 00
2025-11-08T03:08:51.396302,40.999,can0  204  [16]  E1 22 50 46 50 46 50 46 28 23 20 4E 30 75 00 00
2025-11-08T03:08:51.421459,41.024,can0  041  [04]  02 00 00 00
2025-11-08T03:08:51.458842,41.061,can0  204  [16]  E1 22 50 46 50 46 50 46 28 23 20 4E 30 75 00 00
2025-11-08T03:08:51.587913,41.190,can0  204  [16]  E1 22 50 46 50 46 50 46 28 23 20 4E 30 75 00 00
2025-11-08T03:08:51.587974,41.190,can0  206  [16]  9F 0C DA 07 A3 0C DA DC F2 07 C3 0C 9F 0C 00 00
2025-11-08T03:08:51.587992,41.190,can0  204  [16]  E1 22 50 46 50 46 50 46 28 23 20 4E 30 75 00 00
2025-11-08T03:08:51.660815,41.263,can0  204  [16]  E1 22 50 46 50 46 50 46 28 23 20 4E 30 75 00 00
2025-11-08T03:08:51.794762,41.397,can0  041  [04]  3F 01 00 00
2025-11-08T03:08:51.794825,41.397,can0  204  [16]  E1 22 50 46 50 46 50 46 28 23 20 4E 30 75 00 00
2025-11-08T03:08:51.794843,41.397,can0  206  [16]  9F 0C DC 07 9B 0C 99 C6 EF 07 C7 0C A7 0C 00 00
2025-11-08T03:08:51.794860,41.397,can0  204  [16]  E1 22 50 46 50 46 50 46 28 23 20 4E 30 75 00 00
2025-11-08T03:08:51.799723,41.402,can0  204  [16]  E1 22 50 46 50 46 50 46 28 23 20 4E 30 75 00 00
2025-11-08T03:08:51.865664,41.468,can0  204  [16]  E1 22 50 46 50 46 50 46 28 23 20 4E 30 75 00 00
2025-11-08T03:08:51.866757,41.469,can0  206  [16]  93 0C D3 07 83 0C DA DC F4 07 D7 0C BB 0C 00 00
2025-11-08T03:08:51.997872,41.600,can0  204  [16]  E1 22 50 46 50 46 50 46 28 23 20 4E 30 75 00 00
2025-11-08T03:08:51.997935,41.600,can0  041  [04]  02 00 00 00
2025-11-08T03:08:51.997953,41.600,can0  204  [16]  E1 22 50 46 50 46 50 46 28 23 20 4E 30 75 00 00
2025-11-08T03:08:52.032690,41.635,can0  206  [16]  9F 0C DC 07 9F 0C B1 E0 ED 07 BF 0C A7 0C 00 00
2025-11-08T03:08:52.070581,41.673,can0  204  [16]  E1 22 50 46 50 46 50 46 28 23 20 4E 30 75 00 00
2025-11-08T03:08:52.198848,41.801,can0  204  [16]  E1 22 50 46 50 46 50 46 28 23 20 4E 30 75 00 00
2025-11-08T03:08:52.198910,41.801,can0  204  [16]  E1 22 50 46 50 46 50 46 28 23 20 4E 30 75 00 00
2025-11-08T03:08:52.198928,41.801,can0  206  [16]  AF 0C E9 07 97 0C B1 E0 F2 07 EC 0C 9B 0C 00 00
2025-11-08T03:08:52.215979,41.818,can0  041  [04]  3F 01 00 00
2025-11-08T03:08:52.220502,41.823,can0  204  [16]  E1 22 50 46 50 46 50 46 28 23 20 4E 30 75 00 00
2025-11-08T03:08:52.277574,41.880,can0  204  [16]  E1 22 50 46 50 46 50 46 28 23 20 4E 30 75 00 00
2025-11-08T03:08:52.349526,41.952,can0  204  [16]  E1 22 50 46 50 46 50 46 28 23 20 4E 30 75 00 00
2025-11-08T03:08:52.380687,41.983,can0  206  [16]  83 0C E0 07 9B 0C 99 C6 F2 07 C7 0C C7 0C 00 00
2025-11-08T03:08:52.392405,41.995,can0  204  [16]  E1 22 50 46 50 46 50 46 28 23 20 4E 30 75 00 00
2025-11-08T03:08:52.483722,42.086,can0  204  [16]  E1 22 50 46 50 46 50 46 28 23 20 4E 30 75 00 00
