Timestamp,Elapsed_Time_s,CAN_Message
2025-11-08T02:04:57.018710,2.778,can0  204  [16]  17 1A 50 46 50 46 50 46 FA 19 20 4E 30 75 00 00
2025-11-08T02:04:57.019105,2.778,can0  204  [16]  17 1A 50 46 50 46 50 46 FA 19 20 4E 30 75 00 00
2025-11-08T02:04:58.049091,3.808,can0  206  [16]  A3 0C D6 07 9B 0C 3A DF EB 07 C7 0C A7 0C 00 00
2025-11-08T02:04:58.050946,3.810,can0  204  [16]  17 1A 50 46 50 46 50 46 FA 19 20 4E 30 75 00 00
2025-11-08T02:04:58.051062,3.810,can0  041  [04]  02 00 02 00
2025-11-08T02:04:58.051632,3.811,can0  204  [16]  17 1A 50 46 50 46 50 46 FA 19 20 4E 30 75 00 00
2025-11-08T02:04:58.052261,3.812,can0  206  [16]  A7 0C D8 07 9F 0C D0 E5 E5 07 C3 0C A3 0C 00 00
2025-11-08T02:04:58.052892,3.812,can0  204  [16]  17 1A 50 46 50 46 50 46 FA 19 20 4E 30 75 00 00
2025-11-08T02:04:58.053492,3.813,can0  204  [16]  17 1A 50 46 50 46 50 46 FA 19 20 4E 30 75 00 00
2025-11-08T02:04:58.054728,3.814,can0  204  [16]  17 1A 50 46 50 46 50 46 FA 19 20 4E 30 75 00 00
2025-11-08T02:04:58.055360,3.815,can0  206  [16]  9F 0C D6 07 9B 0C 3A DF EF 07 BF 0C AB 0C 00 00
2025-11-08T02:04:58.055977,3.815,can0  041  [04]  3F 01 02 00
2025-11-08T02:04:58.057763,3.817,can0  204  [16]  17 1A 50 46 50 46 50 46 FA 19 20 4E 30 75 00 00
2025-11-08T02:04:58.058095,3.817,can0  204  [16]  17 1A 50 46 50 46 50 46 FA 19 20 4E 30 75 00 00
2025-11-08T02:04:58.058458,3.818,can0  204  [16]  17 1A 50 46 50 46 50 46 FA 19 20 4E 30 75 00 00
2025-11-08T02:04:58.058926,3.818,can0  206  [16]  9F 0C D8 07 9B 0C 99 C6 ED 07 C3 0C AB 0C 00 00
2025-11-08T02:04:58.059552,3.819,can0  204  [16]  17 1A 50 46 50 46 50 46 FA 19 20 4E 30 75 00 00
2025-11-08T02:04:58.060259,3.820,can0  204  [16]  17 1A 50 46 50 46 50 46 FA 19 20 4E 30 75 00 00
2025-11-08T02:04:58.060687,3.820,can0  041  [04]  E4 00 02 00
2025-11-08T02:04:58.061118,3.820,can0  206  [16]  A3 0C D6 07 9F 0C 99 C6 ED 07 B7 0C A7 0C 00 00
2025-11-08T02:04:58.061606,3.821,can0  204  [16]  17 1A 50 46 50 46 50 46 FA 19 20 4E 30 75 00 00
2025-11-08T02:04:58.062057,3.821,can0  204  [16]  17 1A 50 46 50 46 50 46 FA 19 20 4E 30 75 00 00
2025-11-08T02:04:58.062509,3.822,can0  204  [16]  17 1A 50 46 50 46 50 46 FA 19 20 4E 30 75 00 00
2025-11-08T02:04:58.063915,3.823,can0  206  [16]  A7 0C D6 07 97 0C DA DC ED 07 C7 0C A7 0C 00 00
2025-11-08T02:04:58.064617,3.824,can0  204  [16]  17 1A 50 46 50 46 50 46 FA 19 20 4E 30 75 00 00
2025-11-08T02:04:58.065149,3.824,can0  041  [04]  E4 00 02 00
2025-11-08T02:04:58.065736,3.825,can0  204  [16]  17 1A 50 46 50 46 50 46 FA 19 20 4E 30 75 00 00
2025-11-08T02:04:58.066322,3.826,can0  204  [16]  17 1A 50 46 50 46 50 46 FA 19 20 4E 30 75 00 00
2025-11-08T02:04:59.265332,5.025,can0  206  [16]  9F 0C D1 07 A3 0C B1 E0 EB 07 B7 0C AB 0C 00 00
2025-11-08T02:04:59.265941,5.025,can0  204  [16]  17 1A 50 46 50 46 50 46 FA 19 20 4E 30 75 00 00
2025-11-08T02:04:59.274483,5.034,can0  204  [16]  17 1A 50 46 50 46 50 46 FA 19 20 4E 30 75 00 00
2025-11-08T02:04:59.274546,5.034,can0  206  [16]  A3 0C D3 07 9B 0C 99 C6 EB 07 C3 0C A3 0C 00 00
2025-11-08T02:04:59.274585,5.034,can0  041  [04]  3F 01 02 00
2025-11-08T02:04:59.274619,5.034,can0  204  [16]  17 1A 50 46 50 46 50 46 FA 19 20 4E 30 75 00 00
2025-11-08T02:04:59.274648,5.034,can0  204  [16]  17 1A 50 46 50 46 50 46 FA 19 20 4E 30 75 00 00
2025-11-08T02:04:59.274676,5.034,can0  204  [16]  17 1A 50 46 50 46 50 46 FA 19 20 4E 30 75 00 00
2025-11-08T02:04:59.274703,5.034,can0  206  [16]  97 0C D8 07 9F 0C 3A DF EB 07 BF 0C AF 0C 00 00
2025-11-08T02:04:59.274731,5.034,can0  204  [16]  17 1A 50 46 50 46 50 46 FA 19 20 4E 30 75 00 00
2025-11-08T02:04:59.274760,5.034,can0  041  [04]  02 00 02 00
2025-11-08T02:04:59.274790,5.034,can0  204  [16]  17 1A 50 46 50 46 50 46 FA 19 20 4E 30 75 00 00
2025-11-08T02:04:59.274821,5.034,can0  206  [16]  9F 0C D6 07 9B 0C 3A DF ED 07 C3 0C AB 0C 00 00
2025-11-08T02:04:59.274850,5.034,can0  204  [16]  17 1A 50 46 50 46 50 46 FA 19 20 4E 30 75 00 00
2025-11-08T02:04:59.275186,5.034,can0  204  [16]  17 1A 50 46 50 46 50 46 FA 19 20 4E 30 75 00 00
2025-11-08T02:04:59.278906,5.038,can0  204  [16]  17 1A 50 46 50 46 50 46 FA 19 20 4E 30 75 00 00
2025-11-08T02:04:59.278992,5.038,can0  206  [16]  A7 0C D1 07 97 0C 99 C6 ED 07 CB 0C A3 0C 00 00
2025-11-08T02:04:59.279412,5.039,can0  204  [16]  17 1A 50 46 50 46 50 46 FA 19 20 4E 30 75 00 00
2025-11-08T02:04:59.280334,5.040,can0  041  [04]  E4 00 02 00
2025-11-08T02:04:59.281303,5.041,can0  204  [16]  17 1A 50 46 50 46 50 46 FA 19 20 4E 30 75 00 00
2025-11-08T02:04:59.283374,5.043,can0  204  [16]  17 1A 50 46 50 46 50 46 FA 19 20 4E 30 75 00 00
2025-11-08T02:04:59.283831,5.043,can0  206  [16]  AB 0C D6 07 97 0C B1 E0 ED 07 C7 0C A3 0C 00 00
2025-11-08T02:04:59.285490,5.045,can0  204  [16]  17 1A 50 46 50 46 50 46 FA 19 20 4E 30 75 00 00
2025-11-08T02:04:59.285975,5.045,can0  204  [16]  17 1A 50 46 50 46 50 46 FA 19 20 4E 30 75 00 00
2025-11-08T02:04:59.286548,5.046,can0  041  [04]  B5 00 02 00
2025-11-08T02:04:59.287473,5.047,can0  206  [16]  A7 0C DA 07 9B 0C 99 C6 ED 07 C3 0C A3 0C 00 00
2025-11-08T02:04:59.287808,5.047,can0  204  [16]  17 1A 50 46 50 46 50 46 FA 19 20 4E 30 75 00 00
2025-11-08T02:04:59.288441,5.048,can0  204  [16]  17 1A 50 46 50 46 50 46 FA 19 20 4E 30 75 00 00
2025-11-08T02:04:59.289049,5.048,can0  204  [16]  17 1A 50 46 50 46 50 46 FA 19 20 4E 30 75 00 00
2025-11-08T02:04:59.295614,5.055,can0  206  [16]  AF 0C D1 07 AB 0C 3A DF ED 07 B3 0C 9F 0C 00 00
2025-11-08T02:04:59.295721,5.055,can0  204  [16]  17 1A 50 46 50 46 50 46 FA 19 20 4E 30 75 00 00
2025-11-08T02:05:00.253139,6.012,can0  041  [04]  E4 00 02 00
2025-11-08T02:05:00.253256,6.013,can0  204  [16]  17 1A 50 46 50 46 50 46 FA 19 20 4E 30 75 00 00
2025-11-08T02:05:00.254516,6.014,can0  206  [16]  AB 0C CB 07 97 0C DA DC E9 07 C7 0C 9F 0C 00 00
2025-11-08T02:05:00.256962,6.016,can0  204  [16]  17 1A 50 46 50 46 50 46 FA 19 20 4E 30 75 00 00
2025-11-08T02:05:00.259508,6.019,can0  204  [16]  17 1A 50 46 50 46 50 46 FA 19 20 4E 30 75 00 00
2025-11-08T02:05:00.261179,6.020,can0  204  [16]  17 1A 50 46 50 46 50 46 FA 19 20 4E 30 75 00 00
2025-11-08T02:05:00.266200,6.025,can0  206  [16]  9F 0C D3 07 9F 0C DA DC EB 07 C7 0C AB 0C 00 00
2025-11-08T02:05:00.267126,6.026,can0  041  [04]  E4 00 02 00
2025-11-08T02:05:00.269231,6.029,can0  204  [16]  17 1A 50 46 50 46 50 46 FA 19 20 4E 30 75 00 00
2025-11-08T02:05:00.270711,6.030,can0  204  [16]  17 1A 50 46 50 46 50 46 FA 19 20 4E 30 75 00 00
2025-11-08T02:05:00.273933,6.033,can0  204  [16]  17 1A 50 46 50 46 50 46 FA 19 20 4E 30 75 00 00
2025-11-08T02:05:00.273986,6.033,can0  206  [16]  E4 0C D3 07 9F 0C DA DC EF 07 C7 0C 67 0C 00 00
2025-11-08T02:05:00.274775,6.034,can0  204  [16]  17 1A 50 46 50 46 50 46 FA 19 20 4E 30 75 00 00
2025-11-08T02:05:00.275504,6.035,can0  204  [16]  17 1A 50 46 50 46 50 46 FA 19 20 4E 30 75 00 00
2025-11-08T02:05:00.276463,6.036,can0  041  [04]  3F 01 02 00
2025-11-08T02:05:00.277080,6.036,can0  204  [16]  17 1A 50 46 50 46 50 46 FA 19 20 4E 30 75 00 00
2025-11-08T02:05:00.277899,6.037,can0  206  [16]  AF 0C D8 07 93 0C DA DC E3 07 C7 0C A3 0C 00 00
2025-11-08T02:05:00.282044,6.041,can0  204  [16]  17 1A 50 46 50 46 50 46 FA 19 20 4E 30 75 00 00
2025-11-08T02:05:00.283970,6.043,can0  204  [16]  17 1A 50 46 50 46 50 46 FA 19 20 4E 30 75 00 00
2025-11-08T02:05:00.284674,6.044,can0  206  [16]  8F 0C D6 07 B3 0C 99 C6 EB 07 C3 0C A7 0C 00 00
2025-11-08T02:05:00.289874,6.049,can0  204  [16]  17 1A 50 46 50 46 50 46 FA 19 20 4E 30 75 00 00
2025-11-08T02:05:00.290438,6.050,can0  041  [04]  E4 00 02 00
2025-11-08T02:05:00.294140,6.053,can0  204  [16]  17 1A 50 46 50 46 50 46 FA 19 20 4E 30 75 00 00
2025-11-08T02:05:00.294204,6.053,can0  204  [16]  17 1A 50 46 50 46 50 46 FA 19 20 4E 30 75 00 00
2025-11-08T02:05:00.294554,6.054,can0  206  [16]  A3 0C D3 07 9F 0C C5 E1 ED 07 C3 0C A7 0C 00 00
2025-11-08T02:05:00.296183,6.055,can0  204  [16]  17 1A 50 46 50 46 50 46 FA 19 20 4E 30 75 00 00
2025-11-08T02:05:01.246118,7.005,can0  204  [16]  17 1A 50 46 50 46 50 46 FA 19 20 4E 30 75 00 00
2025-11-08T02:05:01.246742,7.006,can0  041  [04]  B5 00 02 00
2025-11-08T02:05:01.248472,7.008,can0  206  [16]  A3 0C D6 07 9F 0C DA DC EF 07 BF 0C A7 0C 00 00
2025-11-08T02:05:01.251696,7.011,can0  204  [16]  17 1A 50 46 50 46 50 46 FA 19 20 4E 30 75 00 00
2025-11-08T02:05:01.252269,7.012,can0  204  [16]  17 1A 50 46 50 46 50 46 FA 19 20 4E 30 75 00 00
2025-11-08T02:05:01.252812,7.012,can0  204  [16]  17 1A 50 46 50 46 50 46 FA 19 20 4E 30 75 00 00
2025-11-08T02:05:01.253290,7.013,can0  206  [16]  9B 0C D6 07 A3 0C 3A DF ED 07 BB 0C AB 0C 00 00
2025-11-08T02:05:01.253752,7.013,can0  204  [16]  17 1A 50 46 50 46 50 46 FA 19 20 4E 30 75 00 00
2025-11-08T02:05:01.255437,7.015,can0  041  [04]  B5 00 02 00
2025-11-08T02:05:01.256731,7.016,can0  204  [16]  17 1A 50 46 50 46 50 46 FA 19 20 4E 30 75 00 00
2025-11-08T02:05:01.257244,7.017,can0  204  [16]  17 1A 50 46 50 46 50 46 FA 19 20 4E 30 75 00 00
2025-11-08T02:05:01.257724,7.017,can0  206  [16]  A7 0C D6 07 9B 0C DA DC ED 07 BF 0C A7 0C 00 00
2025-11-08T02:05:01.258183,7.017,can0  204  [16]  17 1A 50 46 50 46 50 46 FA 19 20 4E 30 75 00 00
2025-11-08T02:05:01.258637,7.018,can0  204  [16]  17 1A 50 46 50 46 50 46 FA 19 20 4E 30 75 00 00
2025-11-08T02:05:01.259087,7.018,can0  206  [16]  9F 0C D8 07 93 0C 3A DF ED 07 C7 0C B3 0C 00 00
2025-11-08T02:05:01.259541,7.019,can0  204  [16]  17 1A 50 46 50 46 50 46 FA 19 20 4E 30 75 00 00
2025-11-08T02:05:01.259948,7.019,can0  041  [04]  B5 00 02 00
2025-11-08T02:05:01.260406,7.020,can0  204  [16]  17 1A 50 46 50 46 50 46 FA 19 20 4E 30 75 00 00
2025-11-08T02:05:01.262012,7.021,can0  204  [16]  17 1A 50 46 50 46 50 46 FA 19 20 4E 30 75 00 00
2025-11-08T02:05:01.263923,7.023,can0  206  [16]  A3 0C D8 07 9B 0C 99 C6 ED 07 C7 0C A7 0C 00 00
2025-11-08T02:05:01.264084,7.023,can0  204  [16]  17 1A 50 46 50 46 50 46 FA 19 20 4E 30 75 00 00
2025-11-08T02:05:01.264437,7.024,can0  204  [16]  17 1A 50 46 50 46 50 46 FA 19 20 4E 30 75 00 00
2025-11-08T02:05:01.265070,7.024,can0  041  [04]  B5 00 02 00
2025-11-08T02:05:01.266313,7.026,can0  206  [16]  A7 0C D8 07 9F 0C 3A DF E9 07 BB 0C A3 0C 00 00
2025-11-08T02:05:01.271874,7.031,can0  204  [16]  17 1A 50 46 50 46 50 46 FA 19 20 4E 30 75 00 00
2025-11-08T02:05:01.278088,7.037,can0  204  [16]  17 1A 50 46 50 46 50 46 FA 19 20 4E 30 75 00 00
2025-11-08T02:05:02.107240,7.867,can0  204  [16]  17 1A 50 46 50 46 50 46 FA 19 20 4E 30 75 00 00
2025-11-08T02:05:02.108901,7.868,can0  206  [16]  AB 0C D3 07 9F 0C C5 E1 EB 07 C7 0C 9F 0C 00 00
2025-11-08T02:05:02.110229,7.870,can0  204  [16]  17 1A 50 46 50 46 50 46 FA 19 20 4E 30 75 00 00
2025-11-08T02:05:02.110673,7.870,can0  041  [04]  B5 00 00 00
2025-11-08T02:05:02.111392,7.871,can0  204  [16]  17 1A 50 46 50 46 50 46 FA 19 20 4E 30 75 00 00
2025-11-08T02:05:02.111879,7.871,can0  204  [16]  17 1A 50 46 50 46 50 46 FA 19 20 4E 30 75 00 00
2025-11-08T02:05:02.112386,7.872,can0  206  [16]  97 0C D6 07 8B 0C DA DC ED 07 A7 0C AF 0C 00 00
2025-11-08T02:05:02.112878,7.872,can0  204  [16]  17 1A 50 46 50 46 50 46 FA 19 20 4E 30 75 00 00
2025-11-08T02:05:02.113356,7.873,can0  204  [16]  17 1A 50 46 50 46 50 46 FA 19 20 4E 30 75 00 00
2025-11-08T02:05:02.113779,7.873,can0  041  [04]  B5 00 00 00
2025-11-08T02:05:02.115058,7.874,can0  206  [16]  9F 0C CF 07 9F 0C DA DC ED 07 C7 0C AB 0C 00 00
2025-11-08T02:05:02.115699,7.875,can0  204  [16]  17 1A 50 46 50 46 50 46 FA 19 20 4E 30 75 00 00
2025-11-08T02:05:02.117076,7.876,can0  204  [16]  17 1A 50 46 50 46 50 46 FA 19 20 4E 30 75 00 00
2025-11-08T02:05:02.117623,7.877,can0  204  [16]  17 1A 50 46 50 46 50 46 FA 19 20 4E 30 75 00 00
2025-11-08T02:05:02.118113,7.877,can0  206  [16]  A3 0C D8 07 9F 0C A0 E2 ED 07 BB 0C A7 0C 00 00
2025-11-08T02:05:02.118599,7.878,can0  204  [16]  17 1A 50 46 50 46 50 46 FA 19 20 4E 30 75 00 00
2025-11-08T02:05:02.119093,7.878,can0  204  [16]  17 1A 50 46 50 46 50 46 FA 19 20 4E 30 75 00 00
2025-11-08T02:05:02.119512,7.879,can0  041  [04]  B5 00 00 00
2025-11-08T02:05:02.119928,7.879,can0  204  [16]  17 1A 50 46 50 46 50 46 FA 19 20 4E 30 75 00 00
2025-11-08T02:05:02.120379,7.880,can0  206  [16]  9B 0C DA 07 9F 0C 3A DF FF 07 CB 0C AB 0C 00 00
2025-11-08T02:05:02.121642,7.881,can0  204  [16]  17 1A 50 46 50 46 50 46 FA 19 20 4E 30 75 00 00
2025-11-08T02:05:02.802565,8.562,can0  204  [16]  17 1A 50 46 50 46 50 46 FA 19 20 4E 30 75 00 00
2025-11-08T02:05:02.803171,8.562,can0  206  [16]  97 0C D6 07 A3 0C DA DC EB 07 CB 0C AB 0C 00 00
2025-11-08T02:05:02.803664,8.563,can0  204  [16]  17 1A 50 46 50 46 50 46 FA 19 20 4E 30 75 00 00
2025-11-08T02:05:02.804064,8.563,can0  041  [04]  E4 00 00 00
2025-11-08T02:05:02.804519,8.564,can0  204  [16]  17 1A 50 46 50 46 50 46 FA 19 20 4E 30 75 00 00
2025-11-08T02:05:02.804979,8.564,can0  204  [16]  17 1A 50 46 50 46 50 46 FA 19 20 4E 30 75 00 00
2025-11-08T02:05:02.805431,8.565,can0  206  [16]  9B 0C D6 07 A3 0C C5 E1 ED 07 BB 0C AF 0C 00 00
2025-11-08T02:05:02.806714,8.566,can0  204  [16]  17 1A 50 46 50 46 50 46 FA 19 20 4E 30 75 00 00
2025-11-08T02:05:02.807225,8.567,can0  204  [16]  17 1A 50 46 50 46 50 46 FA 19 20 4E 30 75 00 00
2025-11-08T02:05:02.807612,8.567,can0  041  [04]  3F 01 00 00
2025-11-08T02:05:02.808021,8.567,can0  204  [16]  17 1A 50 46 50 46 50 46 FA 19 20 4E 30 75 00 00
2025-11-08T02:05:02.808499,8.568,can0  206  [16]  9F 0C D6 07 9F 0C DA DC E9 07 BF 0C AB 0C 00 00
2025-11-08T02:05:02.808977,8.568,can0  204  [16]  17 1A 50 46 50 46 50 46 FA 19 20 4E 30 75 00 00
2025-11-08T02:05:02.809543,8.569,can0  204  [16]  17 1A 50 46 50 46 50 46 FA 19 20 4E 30 75 00 00
2025-11-08T02:05:02.810012,8.569,can0  206  [16]  97 0C D8 07 93 0C DA DC ED 07 CB 0C B3 0C 00 00
2025-11-08T02:05:02.810474,8.570,can0  204  [16]  17 1A 50 46 50 46 50 46 FA 19 20 4E 30 75 00 00
2025-11-08T02:05:02.810857,8.570,can0  041  [04]  02 00 00 00
2025-11-08T02:05:02.811289,8.571,can0  204  [16]  17 1A 50 46 50 46 50 46 FA 19 20 4E 30 75 00 00
2025-11-08T02:05:03.491237,9.251,can0  204  [16]  17 1A 50 46 50 46 50 46 FA 19 20 4E 30 75 00 00
2025-11-08T02:05:03.491780,9.251,can0  206  [16]  A3 0C D6 07 9F 0C DA DC E5 07 BF 0C A3 0C 00 00
2025-11-08T02:05:03.492264,9.252,can0  204  [16]  17 1A 50 46 50 46 50 46 FA 19 20 4E 30 75 00 00
2025-11-08T02:05:03.492739,9.252,can0  204  [16]  17 1A 50 46 50 46 50 46 FA 19 20 4E 30 75 00 00
2025-11-08T02:05:03.493201,9.252,can0  204  [16]  17 1A 50 46 50 46 50 46 FA 19 20 4E 30 75 00 00
2025-11-08T02:05:03.493677,9.253,can0  206  [16]  A3 0C D6 07 9B 0C 99 C6 EB 07 CB 0C A7 0C 00 00
2025-11-08T02:05:03.494072,9.253,can0  041  [04]  02 00 00 00
2025-11-08T02:05:03.495635,9.255,can0  204  [16]  17 1A 50 46 50 46 50 46 FA 19 20 4E 30 75 00 00
2025-11-08T02:05:03.498481,9.258,can0  204  [16]  17 1A 50 46 50 46 50 46 FA 19 20 4E 30 75 00 00
2025-11-08T02:05:03.499307,9.259,can0  206  [16]  9F 0C D3 07 9F 0C DA DC EB 07 BB 0C AB 0C 00 00
2025-11-08T02:05:03.499362,9.259,can0  204  [16]  17 1A 50 46 50 46 50 46 FA 19 20 4E 30 75 00 00
2025-11-08T02:05:03.499408,9.259,can0  204  [16]  17 1A 50 46 50 46 50 46 FA 19 20 4E 30 75 00 00
2025-11-08T02:05:03.499448,9.259,can0  041  [04]  02 00 02 00
2025-11-08T02:05:03.499487,9.259,can0  204  [16]  17 1A 50 46 50 46 50 46 FA 19 20 4E 30 75 00 00
2025-11-08T02:05:03.499525,9.259,can0  206  [16]  AB 0C D6 07 97 0C DA DC EB 07 BF 0C A3 0C 00 00
2025-11-08T02:05:03.499562,9.259,can0  204  [16]  17 1A 50 46 50 46 50 46 FA 19 20 4E 30 75 00 00
2025-11-08T02:05:03.499601,9.259,can0  204  [16]  17 1A 50 46 50 46 50 46 FA 19 20 4E 30 75 00 00
2025-11-08T02:05:04.277543,10.037,can0  204  [16]  17 1A 50 46 50 46 50 46 FA 19 20 4E 30 75 00 00
2025-11-08T02:05:04.278533,10.038,can0  206  [16]  AB 0C D8 07 97 0C 99 C6 EB 07 CF 0C A3 0C 00 00
2025-11-08T02:05:04.278710,10.038,can0  041  [04]  02 00 02 00
2025-11-08T02:05:04.278909,10.038,can0  204  [16]  17 1A 50 46 50 46 50 46 FA 19 20 4E 30 75 00 00
2025-11-08T02:05:04.279434,10.039,can0  204  [16]  17 1A 50 46 50 46 50 46 FA 19 20 4E 30 75 00 00
2025-11-08T02:05:04.281110,10.040,can0  206  [16]  A3 0C D3 07 9F 0C DA DC ED 07 BB 0C A7 0C 00 00
2025-11-08T02:05:04.283012,10.042,can0  204  [16]  17 1A 50 46 50 46 50 46 FA 19 20 4E 30 75 00 00
2025-11-08T02:05:04.283440,10.043,can0  204  [16]  17 1A 50 46 50 46 50 46 FA 19 20 4E 30 75 00 00
2025-11-08T02:05:04.283966,10.043,can0  204  [16]  17 1A 50 46 50 46 50 46 FA 19 20 4E 30 75 00 00
2025-11-08T02:05:04.284379,10.044,can0  041  [04]  02 00 02 00
2025-11-08T02:05:04.284863,10.044,can0  206  [16]  9B 0C D3 07 9B 0C 99 C6 ED 07 C7 0C AF 0C 00 00
2025-11-08T02:05:04.285336,10.045,can0  204  [16]  17 1A 50 46 50 46 50 46 FA 19 20 4E 30 75 00 00
2025-11-08T02:05:04.286032,10.045,can0  204  [16]  17 1A 50 46 50 46 50 46 FA 19 20 4E 30 75 00 00
2025-11-08T02:05:04.286379,10.046,can0  204  [16]  17 1A 50 46 50 46 50 46 FA 19 20 4E 30 75 00 00
2025-11-08T02:05:04.287899,10.047,can0  206  [16]  A3 0C D3 07 9B 0C DA DC F4 07 C3 0C A7 0C 00 00
2025-11-08T02:05:04.289349,10.049,can0  204  [16]  17 1A 50 46 50 46 50 46 FA 19 20 4E 30 75 00 00
2025-11-08T02:05:04.289823,10.049,can0  041  [04]  E4 00 02 00
2025-11-08T02:05:04.290299,10.050,can0  204  [16]  17 1A 50 46 50 46 50 46 FA 19 20 4E 30 75 00 00
2025-11-08T02:05:05.097547,10.857,can0  206  [16]  9B 0C D3 07 A3 0C 3A DF ED 07 B7 0C AB 0C 00 00
2025-11-08T02:05:05.098149,10.857,can0  204  [16]  17 1A 50 46 50 46 50 46 FA 19 20 4E 30 75 00 00
2025-11-08T02:05:05.098321,10.858,can0  204  [16]  17 1A 50 46 50 46 50 46 FA 19 20 4E 30 75 00 00
2025-11-08T02:05:05.098418,10.858,can0  204  [16]  17 1A 50 46 50 46 50 46 FA 19 20 4E 30 75 00 00
2025-11-08T02:05:05.098448,10.858,can0  206  [16]  AB 0C B3 07 8B 0C 3A DF E5 07 BF 0C AF 0C 00 00
2025-11-08T02:05:05.098475,10.858,can0  041  [04]  B5 00 02 00
2025-11-08T02:05:05.098502,10.858,can0  204  [16]  17 1A 50 46 50 46 50 46 FA 19 20 4E 30 75 00 00
2025-11-08T02:05:05.098738,10.858,can0  204  [16]  17 1A 50 46 50 46 50 46 FA 19 20 4E 30 75 00 00
2025-11-08T02:05:05.099268,10.859,can0  204  [16]  17 1A 50 46 50 46 50 46 FA 19 20 4E 30 75 00 00
2025-11-08T02:05:05.100710,10.860,can0  206  [16]  A3 0C D1 07 97 0C B1 E0 ED 07 D3 0C A7 0C 00 00
2025-11-08T02:05:05.102118,10.861,can0  204  [16]  17 1A 50 46 50 46 50 46 FA 19 20 4E 30 75 00 00
2025-11-08T02:05:05.102631,10.862,can0  041  [04]  3F 01 02 00
2025-11-08T02:05:05.103027,10.862,can0  204  [16]  17 1A 50 46 50 46 50 46 FA 19 20 4E 30 75 00 00
2025-11-08T02:05:05.103542,10.863,can0  206  [16]  9B 0C D3 07 9F 0C DA DC ED 07 B7 0C AB 0C 00 00
2025-11-08T02:05:05.104357,10.864,can0  204  [16]  17 1A 50 46 50 46 50 46 FA 19 20 4E 30 75 00 00
2025-11-08T02:05:05.104524,10.864,can0  204  [16]  17 1A 50 46 50 46 50 46 FA 19 20 4E 30 75 00 00
2025-11-08T02:05:05.105168,10.864,can0  204  [16]  17 1A 50 46 50 46 50 46 FA 19 20 4E 30 75 00 00
2025-11-08T02:05:05.106411,10.866,can0  206  [16]  A7 0C D8 07 9F 0C B1 E0 ED 07 C7 0C A3 0C 00 00
2025-11-08T02:05:05.106463,10.866,can0  204  [16]  17 1A 50 46 50 46 50 46 FA 19 20 4E 30 75 00 00
2025-11-08T02:05:05.108497,10.868,can0  041  [04]  3F 01 02 00
2025-11-08T02:05:05.108945,10.868,can0  204  [16]  17 1A 50 46 50 46 50 46 FA 19 20 4E 30 75 00 00
2025-11-08T02:05:05.109243,10.869,can0  204  [16]  17 1A 50 46 50 46 50 46 FA 19 20 4E 30 75 00 00
2025-11-08T02:05:05.953556,11.713,can0  206  [16]  97 0C D8 07 A7 0C DA DC ED 07 BF 0C AB 0C 00 00
2025-11-08T02:05:05.954191,11.713,can0  204  [16]  17 1A 50 46 50 46 50 46 FA 19 20 4E 30 75 00 00
2025-11-08T02:05:05.954760,11.714,can0  204  [16]  17 1A 50 46 50 46 50 46 FA 19 20 4E 30 75 00 00
2025-11-08T02:05:05.955178,11.714,can0  041  [04]  02 00 00 00
2025-11-08T02:05:05.955665,11.715,can0  206  [16]  A7 0C D3 07 9B 0C 99 C6 EB 07 C3 0C A3 0C 00 00
2025-11-08T02:05:05.956152,11.715,can0  204  [16]  17 1A 50 46 50 46 50 46 FA 19 20 4E 30 75 00 00
2025-11-08T02:05:05.956642,11.716,can0  204  [16]  17 1A 50 46 50 46 50 46 FA 19 20 4E 30 75 00 00
2025-11-08T02:05:05.957067,11.716,can0  204  [16]  17 1A 50 46 50 46 50 46 FA 19 20 4E 30 75 00 00
2025-11-08T02:05:05.957507,11.717,can0  206  [16]  9F 0C CB 07 9B 0C B1 E0 EF 07 CB 0C AB 0C 00 00
2025-11-08T02:05:05.957934,11.717,can0  204  [16]  17 1A 50 46 50 46 50 46 FA 19 20 4E 30 75 00 00
2025-11-08T02:05:05.958332,11.718,can0  041  [04]  02 00 00 00
2025-11-08T02:05:05.958795,11.718,can0  204  [16]  17 1A 50 46 50 46 50 46 FA 19 20 4E 30 75 00 00
2025-11-08T02:05:05.959294,11.719,can0  206  [16]  AB 0C D3 07 9B 0C DA DC E9 07 C3 0C A3 0C 00 00
2025-11-08T02:05:05.960647,11.720,can0  204  [16]  17 1A 50 46 50 46 50 46 FA 19 20 4E 30 75 00 00
2025-11-08T02:05:05.961103,11.720,can0  204  [16]  17 1A 50 46 50 46 50 46 FA 19 20 4E 30 75 00 00
2025-11-08T02:05:05.961567,11.721,can0  204  [16]  17 1A 50 46 50 46 50 46 FA 19 20 4E 30 75 00 00
2025-11-08T02:05:05.962031,11.721,can0  206  [16]  A3 0C D6 07 9B 0C DA DC ED 07 BB 0C AB 0C 00 00
2025-11-08T02:05:05.962445,11.722,can0  041  [04]  02 00 00 00
2025-11-08T02:05:05.962948,11.722,can0  204  [16]  17 1A 50 46 50 46 50 46 FA 19 20 4E 30 75 00 00
2025-11-08T02:05:05.963418,11.723,can0  204  [16]  17 1A 50 46 50 46 50 46 FA 19 20 4E 30 75 00 00
2025-11-08T02:05:05.963883,11.723,can0  204  [16]  17 1A 50 46 50 46 50 46 FA 19 20 4E 30 75 00 00
2025-11-08T02:05:05.964369,11.724,can0  206  [16]  9F 0C E3 07 9B 0C C5 E1 EB 07 BF 0C AB 0C 00 00
2025-11-08T02:05:05.964848,11.724,can0  204  [16]  17 1A 50 46 50 46 50 46 FA 19 20 4E 30 75 00 00
2025-11-08T02:05:05.965322,11.725,can0  204  [16]  17 1A 50 46 50 46 50 46 FA 19 20 4E 30 75 00 00
2025-11-08T02:05:05.965787,11.725,can0  041  [04]  02 00 00 00
2025-11-08T02:05:05.967112,11.726,can0  206  [16]  9F 0C DE 07 9B 0C DA DC EF 07 C7 0C AB 0C 00 00
2025-11-08T02:05:05.967679,11.727,can0  204  [16]  17 1A 50 46 50 46 50 46 FA 19 20 4E 30 75 00 00
2025-11-08T02:05:06.675430,12.435,can0  204  [16]  17 1A 50 46 50 46 50 46 FA 19 20 4E 30 75 00 00
2025-11-08T02:05:06.675905,12.435,can0  204  [16]  17 1A 50 46 50 46 50 46 FA 19 20 4E 30 75 00 00
2025-11-08T02:05:06.683629,12.443,can0  206  [16]  A7 0C D6 07 A3 0C 3A DF E9 07 BB 0C A3 0C 00 00
2025-11-08T02:05:06.683752,12.443,can0  204  [16]  17 1A 50 46 50 46 50 46 FA 19 20 4E 30 75 00 00
2025-11-08T02:05:06.683830,12.443,can0  041  [04]  8B 00 02 00
2025-11-08T02:05:06.683879,12.443,can0  204  [16]  17 1A 50 46 50 46 50 46 FA 19 20 4E 30 75 00 00
2025-11-08T02:05:06.683910,12.443,can0  206  [16]  A3 0C D6 07 9F 0C B1 E0 EB 07 EC 0C A3 0C 00 00
2025-11-08T02:05:06.683944,12.443,can0  204  [16]  17 1A 50 46 50 46 50 46 FA 19 20 4E 30 75 00 00
2025-11-08T02:05:06.683978,12.443,can0  204  [16]  17 1A 50 46 50 46 50 46 FA 19 20 4E 30 75 00 00
2025-11-08T02:05:06.684010,12.443,can0  204  [16]  17 1A 50 46 50 46 50 46 FA 19 20 4E 30 75 00 00
2025-11-08T02:05:06.684034,12.443,can0  206  [16]  A7 0C D3 07 A3 0C 3A DF EB 07 BF 0C 9F 0C 00 00
2025-11-08T02:05:06.684065,12.443,can0  041  [04]  2F 00 02 00
2025-11-08T02:05:06.684095,12.443,can0  204  [16]  17 1A 50 46 50 46 50 46 FA 19 20 4E 30 75 00 00
2025-11-08T02:05:06.684130,12.443,can0  204  [16]  17 1A 50 46 50 46 50 46 FA 19 20 4E 30 75 00 00
2025-11-08T02:05:06.684161,12.443,can0  204  [16]  17 1A 50 46 50 46 50 46 FA 19 20 4E 30 75 00 00
2025-11-08T02:05:06.684192,12.443,can0  206  [16]  A3 0C D6 07 A3 0C A0 E2 E9 07 BF 0C A3 0C 00 00
2025-11-08T02:05:07.404748,13.164,can0  204  [16]  17 1A 50 46 50 46 50 46 FA 19 20 4E 30 75 00 00
2025-11-08T02:05:07.405248,13.165,can0  041  [04]  5E 00 02 00
2025-11-08T02:05:07.405789,13.165,can0  204  [16]  17 1A 50 46 50 46 50 46 FA 19 20 4E 30 75 00 00
2025-11-08T02:05:07.406349,13.166,can0  206  [16]  AB 0C D6 07 9B 0C 99 C6 EB 07 C3 0C 9F 0C 00 00
2025-11-08T02:05:07.406898,13.166,can0  204  [16]  17 1A 50 46 50 46 50 46 FA 19 20 4E 30 75 00 00
2025-11-08T02:05:07.407431,13.167,can0  204  [16]  17 1A 50 46 50 46 50 46 FA 19 20 4E 30 75 00 00
2025-11-08T02:05:07.407966,13.167,can0  204  [16]  17 1A 50 46 50 46 50 46 FA 19 20 4E 30 75 00 00
2025-11-08T02:05:07.408750,13.168,can0  206  [16]  9F 0C D3 07 9F 0C DA DC ED 07 B7 0C AB 0C 00 00
2025-11-08T02:05:07.410409,13.170,can0  204  [16]  17 1A 50 46 50 46 50 46 FA 19 20 4E 30 75 00 00
2025-11-08T02:05:07.410491,13.170,can0  041  [04]  8B 00 02 00
2025-11-08T02:05:07.410905,13.170,can0  204  [16]  17 1A 50 46 50 46 50 46 FA 19 20 4E 30 75 00 00
2025-11-08T02:05:07.411009,13.170,can0  204  [16]  17 1A 50 46 50 46 50 46 FA 19 20 4E 30 75 00 00
2025-11-08T02:05:07.411772,13.171,can0  206  [16]  A3 0C D6 07 9B 0C DA DC F8 07 C3 0C A7 0C 00 00
2025-11-08T02:05:07.412301,13.172,can0  204  [16]  17 1A 50 46 50 46 50 46 FA 19 20 4E 30 75 00 00
2025-11-08T02:05:07.412809,13.172,can0  204  [16]  17 1A 50 46 50 46 50 46 FA 19 20 4E 30 75 00 00
2025-11-08T02:05:07.413213,13.172,can0  041  [04]  E4 00 02 00
2025-11-08T02:05:07.413703,13.173,can0  206  [16]  9B 0C D6 07 9F 0C 3A DF EF 07 BF 0C AB 0C 00 00
2025-11-08T02:05:07.414180,13.173,can0  204  [16]  17 1A 50 46 50 46 50 46 FA 19 20 4E 30 75 00 00
2025-11-08T02:05:07.414721,13.174,can0  204  [16]  17 1A 50 46 50 46 50 46 FA 19 20 4E 30 75 00 00
2025-11-08T02:05:08.050918,13.810,can0  204  [16]  17 1A 50 46 50 46 50 46 FA 19 20 4E 30 75 00 00
2025-11-08T02:05:08.051490,13.811,can0  206  [16]  A7 0C D8 07 9B 0C DA DC ED 07 BF 0C A7 0C 00 00
2025-11-08T02:05:08.052026,13.811,can0  204  [16]  17 1A 50 46 50 46 50 46 FA 19 20 4E 30 75 00 00
2025-11-08T02:05:08.052469,13.812,can0  041  [04]  3F 01 02 00
2025-11-08T02:05:08.052956,13.812,can0  204  [16]  17 1A 50 46 50 46 50 46 FA 19 20 4E 30 75 00 00
2025-11-08T02:05:08.053485,13.813,can0  206  [16]  A7 0C D6 07 9F 0C 99 C6 E5 07 BF 0C A3 0C 00 00
2025-11-08T02:05:08.053982,13.813,can0  204  [16]  17 1A 50 46 50 46 50 46 FA 19 20 4E 30 75 00 00
2025-11-08T02:05:08.054483,13.814,can0  204  [16]  17 1A 50 46 50 46 50 46 FA 19 20 4E 30 75 00 00
2025-11-08T02:05:08.054982,13.814,can0  204  [16]  17 1A 50 46 50 46 50 46 FA 19 20 4E 30 75 00 00
2025-11-08T02:05:08.055482,13.815,can0  206  [16]  9F 0C D6 07 9B 0C DA DC EB 07 C7 0C A7 0C 00 00
2025-11-08T02:05:08.056250,13.816,can0  041  [04]  3F 01 02 00
2025-11-08T02:05:08.056339,13.816,can0  204  [16]  17 1A 50 46 50 46 50 46 FA 19 20 4E 30 75 00 00
2025-11-08T02:05:08.056852,13.816,can0  204  [16]  17 1A 50 46 50 46 50 46 FA 19 20 4E 30 75 00 00
2025-11-08T02:05:08.057370,13.817,can0  204  [16]  17 1A 50 46 50 46 50 46 FA 19 20 4E 30 75 00 00
2025-11-08T02:05:08.057888,13.817,can0  206  [16]  9F 0C D6 07 9B 0C DA DC E5 07 C3 0C AB 0C 00 00
2025-11-08T02:05:08.058394,13.818,can0  204  [16]  17 1A 50 46 50 46 50 46 FA 19 20 4E 30 75 00 00
2025-11-08T02:05:08.737833,14.497,can0  204  [16]  17 1A 50 46 50 46 50 46 FA 19 20 4E 30 75 00 00
2025-11-08T02:05:08.738359,14.498,can0  041  [04]  E4 00 00 00
2025-11-08T02:05:08.738956,14.498,can0  206  [16]  9F 0C D3 07 9F 0C 99 C6 ED 07 BF 0C A7 0C 00 00
2025-11-08T02:05:08.739491,14.499,can0  204  [16]  17 1A 50 46 50 46 50 46 FA 19 20 4E 30 75 00 00
2025-11-08T02:05:08.740069,14.499,can0  204  [16]  17 1A 50 46 50 46 50 46 FA 19 20 4E 30 75 00 00
2025-11-08T02:05:08.740593,14.500,can0  204  [16]  17 1A 50 46 50 46 50 46 FA 19 20 4E 30 75 00 00
2025-11-08T02:05:08.741190,14.500,can0  206  [16]  9F 0C D6 07 8B 0C DA DC E9 07 D3 0C AB 0C 00 00
2025-11-08T02:05:08.744794,14.504,can0  204  [16]  17 1A 50 46 50 46 50 46 FA 19 20 4E 30 75 00 00
2025-11-08T02:05:08.744980,14.504,can0  041  [04]  E4 00 00 00
2025-11-08T02:05:08.745026,14.504,can0  204  [16]  17 1A 50 46 50 46 50 46 FA 19 20 4E 30 75 00 00
2025-11-08T02:05:08.745066,14.504,can0  204  [16]  17 1A 50 46 50 46 50 46 FA 19 20 4E 30 75 00 00
2025-11-08T02:05:08.745100,14.504,can0  206  [16]  A3 0C D3 07 9F 0C DA DC EB 07 C3 0C A7 0C 00 00
2025-11-08T02:05:08.745134,14.504,can0  204  [16]  17 1A 50 46 50 46 50 46 FA 19 20 4E 30 75 00 00
2025-11-08T02:05:08.745552,14.505,can0  204  [16]  17 1A 50 46 50 46 50 46 FA 19 20 4E 30 75 00 00
2025-11-08T02:05:08.745999,14.505,can0  041  [04]  E4 00 00 00
2025-11-08T02:05:08.746538,14.506,can0  206  [16]  A3 0C D1 07 9B 0C DA DC ED 07 C3 0C A7 0C 00 00
2025-11-08T02:05:08.747514,14.507,can0  204  [16]  17 1A 50 46 50 46 50 46 FA 19 20 4E 30 75 00 00
2025-11-08T02:05:08.747799,14.507,can0  204  [16]  17 1A 50 46 50 46 50 46 FA 19 20 4E 30 75 00 00
2025-11-08T02:05:09.459817,15.219,can0  204  [16]  17 1A 50 46 50 46 50 46 FA 19 20 4E 30 75 00 00
2025-11-08T02:05:09.460420,15.220,can0  206  [16]  AB 0C D8 07 9F 0C B1 E0 EB 07 8B 0C 9F 0C 00 00
2025-11-08T02:05:09.460978,15.220,can0  204  [16]  17 1A 50 46 50 46 50 46 FA 19 20 4E 30 75 00 00
2025-11-08T02:05:09.461459,15.221,can0  041  [04]  3F 01 00 00
2025-11-08T02:05:09.462015,15.221,can0  204  [16]  17 1A 50 46 50 46 50 46 FA 19 20 4E 30 75 00 00
2025-11-08T02:05:09.462555,15.222,can0  204  [16]  17 1A 50 46 50 46 50 46 FA 19 20 4E 30 75 00 00
2025-11-08T02:05:09.463093,15.222,can0  206  [16]  B7 0C D3 07 9F 0C DA DC EB 07 C3 0C 93 0C 00 00
2025-11-08T02:05:09.463626,15.223,can0  204  [16]  17 1A 50 46 50 46 50 46 FA 19 20 4E 30 75 00 00
2025-11-08T02:05:09.464152,15.223,can0  204  [16]  17 1A 50 46 50 46 50 46 FA 19 20 4E 30 75 00 00
2025-11-08T02:05:09.465479,15.225,can0  206  [16]  AF 0C D6 07 97 0C DA DC ED 07 C3 0C 9F 0C 00 00
2025-11-08T02:05:09.466023,15.225,can0  041  [04]  E4 00 02 00
2025-11-08T02:05:09.466719,15.226,can0  204  [16]  17 1A 50 46 50 46 50 46 FA 19 20 4E 30 75 00 00
2025-11-08T02:05:09.467031,15.226,can0  204  [16]  17 1A 50 46 50 46 50 46 FA 19 20 4E 30 75 00 00
2025-11-08T02:05:09.467569,15.227,can0  204  [16]  17 1A 50 46 50 46 50 46 FA 19 20 4E 30 75 00 00
2025-11-08T02:05:09.468125,15.227,can0  206  [16]  A3 0C D3 07 9F 0C 3A DF EF 07 BB 0C AB 0C 00 00
2025-11-08T02:05:09.468622,15.228,can0  204  [16]  17 1A 50 46 50 46 50 46 FA 19 20 4E 30 75 00 00
2025-11-08T02:05:09.469161,15.228,can0  204  [16]  17 1A 50 46 50 46 50 46 FA 19 20 4E 30 75 00 00
2025-11-08T02:05:09.469621,15.229,can0  041  [04]  B5 00 02 00
2025-11-08T02:05:09.470160,15.229,can0  206  [16]  A3 0C D8 07 9F 0C 99 C6 ED 07 BB 0C A7 0C 00 00
2025-11-08T02:05:09.470716,15.230,can0  204  [16]  17 1A 50 46 50 46 50 46 FA 19 20 4E 30 75 00 00
2025-11-08T02:05:10.226813,15.986,can0  204  [16]  17 1A 50 46 50 46 50 46 FA 19 20 4E 30 75 00 00
2025-11-08T02:05:10.227413,15.987,can0  204  [16]  17 1A 50 46 50 46 50 46 FA 19 20 4E 30 75 00 00
2025-11-08T02:05:10.228047,15.987,can0  206  [16]  9F 0C D8 07 9F 0C 99 C6 EB 07 C3 0C AB 0C 00 00
2025-11-08T02:05:10.228671,15.988,can0  204  [16]  17 1A 50 46 50 46 50 46 FA 19 20 4E 30 75 00 00
2025-11-08T02:05:10.229156,15.988,can0  041  [04]  B5 00 02 00
2025-11-08T02:05:10.229645,15.989,can0  204  [16]  17 1A 50 46 50 46 50 46 FA 19 20 4E 30 75 00 00
2025-11-08T02:05:10.231013,15.990,can0  204  [16]  17 1A 50 46 50 46 50 46 FA 19 20 4E 30 75 00 00
2025-11-08T02:05:10.231563,15.991,can0  206  [16]  9F 0C D8 07 A7 0C 3A DF ED 07 C3 0C A7 0C 00 00
2025-11-08T02:05:10.232417,15.992,can0  204  [16]  17 1A 50 46 50 46 50 46 FA 19 20 4E 30 75 00 00
2025-11-08T02:05:10.232471,15.992,can0  204  [16]  17 1A 50 46 50 46 50 46 FA 19 20 4E 30 75 00 00
2025-11-08T02:05:10.232972,15.992,can0  206  [16]  9F 0C D6 07 A3 0C DA DC F6 07 CB 0C A3 0C 00 00
2025-11-08T02:05:10.233399,15.993,can0  041  [04]  B5 00 00 00
2025-11-08T02:05:10.233918,15.993,can0  204  [16]  17 1A 50 46 50 46 50 46 FA 19 20 4E 30 75 00 00
2025-11-08T02:05:10.234607,15.994,can0  204  [16]  17 1A 50 46 50 46 50 46 FA 19 20 4E 30 75 00 00
2025-11-08T02:05:10.234868,15.994,can0  204  [16]  17 1A 50 46 50 46 50 46 FA 19 20 4E 30 75 00 00
2025-11-08T02:05:10.235385,15.995,can0  206  [16]  9B 0C EB 07 9F 0C DA DC ED 07 DF 0C AB 0C 00 00
2025-11-08T02:05:10.235884,15.995,can0  204  [16]  17 1A 50 46 50 46 50 46 FA 19 20 4E 30 75 00 00
2025-11-08T02:05:10.236302,15.996,can0  041  [04]  B5 00 00 00
2025-11-08T02:05:10.237762,15.997,can0  204  [16]  17 1A 50 46 50 46 50 46 FA 19 20 4E 30 75 00 00
2025-11-08T02:05:10.970997,16.730,can0  206  [16]  A7 0C D6 07 A3 0C DA DC EF 07 C3 0C 9F 0C 00 00
2025-11-08T02:05:10.971595,16.731,can0  204  [16]  17 1A 50 46 50 46 50 46 FA 19 20 4E 30 75 00 00
2025-11-08T02:05:10.972151,16.731,can0  204  [16]  17 1A 50 46 50 46 50 46 FA 19 20 4E 30 75 00 00
2025-11-08T02:05:10.972756,16.732,can0  204  [16]  17 1A 50 46 50 46 50 46 FA 19 20 4E 30 75 00 00
2025-11-08T02:05:10.973305,16.733,can0  206  [16]  A7 0C D3 07 9F 0C C5 E1 EB 07 BF 0C A3 0C 00 00
2025-11-08T02:05:10.973852,16.733,can0  204  [16]  17 1A 50 46 50 46 50 46 FA 19 20 4E 30 75 00 00
2025-11-08T02:05:10.974298,16.734,can0  041  [04]  B5 00 00 00
2025-11-08T02:05:10.974812,16.734,can0  204  [16]  17 1A 50 46 50 46 50 46 FA 19 20 4E 30 75 00 00
2025-11-08T02:05:10.975356,16.735,can0  204  [16]  17 1A 50 46 50 46 50 46 FA 19 20 4E 30 75 00 00
2025-11-08T02:05:10.976255,16.736,can0  206  [16]  97 0C D6 07 9F 0C DA DC EF 07 C3 0C AF 0C 00 00
2025-11-08T02:05:10.976432,16.736,can0  204  [16]  17 1A 50 46 50 46 50 46 FA 19 20 4E 30 75 00 00
2025-11-08T02:05:10.977068,16.736,can0  204  [16]  17 1A 50 46 50 46 50 46 FA 19 20 4E 30 75 00 00
2025-11-08T02:05:10.977539,16.737,can0  041  [04]  B5 00 00 00
2025-11-08T02:05:10.978076,16.737,can0  206  [16]  A7 0C D1 07 9F 0C DA DC EB 07 CB 0C A3 0C 00 00
2025-11-08T02:05:10.978632,16.738,can0  204  [16]  17 1A 50 46 50 46 50 46 FA 19 20 4E 30 75 00 00
2025-11-08T02:05:10.979084,16.738,can0  204  [16]  17 1A 50 46 50 46 50 46 FA 19 20 4E 30 75 00 00
2025-11-08T02:05:10.979615,16.739,can0  204  [16]  17 1A 50 46 50 46 50 46 FA 19 20 4E 30 75 00 00
2025-11-08T02:05:10.980155,16.739,can0  206  [16]  AB 0C D6 07 97 0C 99 C6 ED 07 D3 0C A3 0C 00 00
2025-11-08T02:05:11.617369,17.377,can0  204  [16]  17 1A 50 46 50 46 50 46 FA 19 20 4E 30 75 00 00
2025-11-08T02:05:11.617925,17.377,can0  041  [04]  B5 00 00 00
2025-11-08T02:05:11.620500,17.380,can0  204  [16]  17 1A 50 46 50 46 50 46 FA 19 20 4E 30 75 00 00
2025-11-08T02:05:11.620679,17.380,can0  204  [16]  17 1A 50 46 50 46 50 46 FA 19 20 4E 30 75 00 00
2025-11-08T02:05:11.620947,17.380,can0  206  [16]  AF 0C D8 07 9F 0C DA DC EF 07 C7 0C 9B 0C 00 00
2025-11-08T02:05:11.621092,17.380,can0  204  [16]  17 1A 50 46 50 46 50 46 FA 19 20 4E 30 75 00 00
2025-11-08T02:05:11.621135,17.380,can0  204  [16]  17 1A 50 46 50 46 50 46 FA 19 20 4E 30 75 00 00
2025-11-08T02:05:11.621169,17.380,can0  206  [16]  9F 0C D6 07 9F 0C 3A DF EB 07 C7 0C AB 0C 00 00
2025-11-08T02:05:11.621636,17.381,can0  204  [16]  17 1A 50 46 50 46 50 46 FA 19 20 4E 30 75 00 00
2025-11-08T02:05:11.622684,17.382,can0  041  [04]  E4 00 00 00
2025-11-08T02:05:11.622942,17.382,can0  204  [16]  17 1A 50 46 50 46 50 46 FA 19 20 4E 30 75 00 00
2025-11-08T02:05:11.623098,17.382,can0  204  [16]  17 1A 50 46 50 46 50 46 FA 19 20 4E 30 75 00 00
2025-11-08T02:05:11.623665,17.383,can0  206  [16]  A3 0C D6 07 9F 0C DA DC E9 07 C3 0C A7 0C 00 00
2025-11-08T02:05:11.624234,17.384,can0  204  [16]  17 1A 50 46 50 46 50 46 FA 19 20 4E 30 75 00 00
2025-11-08T02:05:11.624804,17.384,can0  204  [16]  17 1A 50 46 50 46 50 46 FA 19 20 4E 30 75 00 00
2025-11-08T02:05:11.625285,17.385,can0  041  [04]  02 00 02 00
2025-11-08T02:05:11.625836,17.385,can0  204  [16]  17 1A 50 46 50 46 50 46 FA 19 20 4E 30 75 00 00
2025-11-08T02:05:11.626412,17.386,can0  206  [16]  A3 0C D6 07 9B 0C 3A DF E9 07 C7 0C A7 0C 00 00
2025-11-08T02:05:11.626973,17.386,can0  204  [16]  17 1A 50 46 50 46 50 46 FA 19 20 4E 30 75 00 00
2025-11-08T02:05:12.324743,18.084,can0  204  [16]  17 1A 50 46 50 46 50 46 FA 19 20 4E 30 75 00 00
2025-11-08T02:05:12.326109,18.085,can0  206  [16]  9F 0C D8 07 A3 0C C5 E1 ED 07 BB 0C AB 0C 00 00
2025-11-08T02:05:12.327156,18.086,can0  204  [16]  17 1A 50 46 50 46 50 46 FA 19 20 4E 30 75 00 00
2025-11-08T02:05:12.327861,18.087,can0  041  [04]  3F 01 02 00
2025-11-08T02:05:12.328977,18.088,can0  204  [16]  17 1A 50 46 50 46 50 46 FA 19 20 4E 30 75 00 00
2025-11-08T02:05:12.333471,18.093,can0  204  [16]  17 1A 50 46 50 46 50 46 FA 19 20 4E 30 75 00 00
2025-11-08T02:05:12.333555,18.093,can0  206  [16]  AB 0C DA 07 9B 0C 99 C6 ED 07 B7 0C A3 0C 00 00
2025-11-08T02:05:12.333596,18.093,can0  204  [16]  17 1A 50 46 50 46 50 46 FA 19 20 4E 30 75 00 00
2025-11-08T02:05:12.333636,18.093,can0  204  [16]  17 1A 50 46 50 46 50 46 FA 19 20 4E 30 75 00 00
2025-11-08T02:05:12.333677,18.093,can0  041  [04]  02 00 02 00
2025-11-08T02:05:12.333846,18.093,can0  204  [16]  17 1A 50 46 50 46 50 46 FA 19 20 4E 30 75 00 00
2025-11-08T02:05:12.334933,18.094,can0  206  [16]  A7 0C D6 07 9B 0C DA DC E5 07 C3 0C A7 0C 00 00
2025-11-08T02:05:12.335675,18.095,can0  204  [16]  17 1A 50 46 50 46 50 46 FA 19 20 4E 30 75 00 00
2025-11-08T02:05:12.336538,18.096,can0  204  [16]  17 1A 50 46 50 46 50 46 FA 19 20 4E 30 75 00 00
2025-11-08T02:05:12.337314,18.097,can0  206  [16]  A7 0C D8 07 9B 0C C5 E1 EB 07 BF 0C A7 0C 00 00
2025-11-08T02:05:12.339822,18.099,can0  204  [16]  17 1A 50 46 50 46 50 46 FA 19 20 4E 30 75 00 00
2025-11-08T02:05:12.339889,18.099,can0  204  [16]  17 1A 50 46 50 46 50 46 FA 19 20 4E 30 75 00 00
2025-11-08T02:05:12.339931,18.099,can0  041  [04]  02 00 02 00
2025-11-08T02:05:12.995913,18.755,can0  204  [16]  17 1A 50 46 50 46 50 46 FA 19 20 4E 30 75 00 00
2025-11-08T02:05:12.996747,18.756,can0  206  [16]  A7 0C D6 07 97 0C 99 C6 EB 07 BF 0C AB 0C 00 00
2025-11-08T02:05:12.997286,18.757,can0  204  [16]  17 1A 50 46 50 46 50 46 FA 19 20 4E 30 75 00 00
2025-11-08T02:05:12.997889,18.757,can0  204  [16]  17 1A 50 46 50 46 50 46 FA 19 20 4E 30 75 00 00
2025-11-08T02:05:12.998513,18.758,can0  206  [16]  9F 0C D6 07 A3 0C DA DC EF 07 BF 0C A7 0C 00 00
2025-11-08T02:05:12.998955,18.758,can0  204  [16]  17 1A 50 46 50 46 50 46 FA 19 20 4E 30 75 00 00
2025-11-08T02:05:12.999398,18.759,can0  041  [04]  02 00 00 00
2025-11-08T02:05:12.999904,18.759,can0  204  [16]  17 1A 50 46 50 46 50 46 FA 19 20 4E 30 75 00 00
2025-11-08T02:05:13.000418,18.760,can0  204  [16]  17 1A 50 46 50 46 50 46 FA 19 20 4E 30 75 00 00
2025-11-08T02:05:13.003634,18.763,can0  206  [16]  97 0C D6 07 9F 0C B1 E0 ED 07 BF 0C B3 0C 00 00
2025-11-08T02:05:13.003705,18.763,can0  204  [16]  17 1A 50 46 50 46 50 46 FA 19 20 4E 30 75 00 00
2025-11-08T02:05:13.003748,18.763,can0  204  [16]  17 1A 50 46 50 46 50 46 FA 19 20 4E 30 75 00 00
2025-11-08T02:05:13.003788,18.763,can0  041  [04]  8B 00 00 00
2025-11-08T02:05:13.003826,18.763,can0  204  [16]  17 1A 50 46 50 46 50 46 FA 19 20 4E 30 75 00 00
2025-11-08T02:05:13.003865,18.763,can0  206  [16]  9F 0C D6 07 9F 0C B1 E0 E9 07 C7 0C AB 0C 00 00
2025-11-08T02:05:13.003988,18.763,can0  204  [16]  17 1A 50 46 50 46 50 46 FA 19 20 4E 30 75 00 00
2025-11-08T02:05:13.657912,19.417,can0  204  [16]  17 1A 50 46 50 46 50 46 FA 19 20 4E 30 75 00 00
2025-11-08T02:05:13.658557,19.418,can0  206  [16]  9B 0C D8 07 9B 0C 3A DF E7 07 C3 0C AB 0C 00 00
2025-11-08T02:05:13.659114,19.418,can0  204  [16]  17 1A 50 46 50 46 50 46 FA 19 20 4E 30 75 00 00
2025-11-08T02:05:13.659590,19.419,can0  041  [04]  B5 00 02 00
2025-11-08T02:05:13.660121,19.419,can0  204  [16]  17 1A 50 46 50 46 50 46 FA 19 20 4E 30 75 00 00
2025-11-08T02:05:13.660670,19.420,can0  204  [16]  17 1A 50 46 50 46 50 46 FA 19 20 4E 30 75 00 00
2025-11-08T02:05:13.661226,19.421,can0  206  [16]  9F 0C D8 07 9F 0C B1 E0 EB 07 C3 0C A7 0C 00 00
2025-11-08T02:05:13.661782,19.421,can0  204  [16]  17 1A 50 46 50 46 50 46 FA 19 20 4E 30 75 00 00
2025-11-08T02:05:13.662328,19.422,can0  204  [16]  17 1A 50 46 50 46 50 46 FA 19 20 4E 30 75 00 00
2025-11-08T02:05:13.663349,19.423,can0  206  [16]  A7 0C D8 07 97 0C 3A DF ED 07 BF 0C A7 0C 00 00
2025-11-08T02:05:13.663641,19.423,can0  204  [16]  17 1A 50 46 50 46 50 46 FA 19 20 4E 30 75 00 00
2025-11-08T02:05:13.664112,19.423,can0  041  [04]  8B 00 02 00
2025-11-08T02:05:13.664663,19.424,can0  204  [16]  17 1A 50 46 50 46 50 46 FA 19 20 4E 30 75 00 00
2025-11-08T02:05:13.665220,19.425,can0  204  [16]  17 1A 50 46 50 46 50 46 FA 19 20 4E 30 75 00 00
2025-11-08T02:05:13.666778,19.426,can0  206  [16]  9B 0C D3 07 9F 0C 57 E3 ED 07 BF 0C AB 0C 00 00
2025-11-08T02:05:13.666957,19.426,can0  204  [16]  17 1A 50 46 50 46 50 46 FA 19 20 4E 30 75 00 00
2025-11-08T02:05:13.667112,19.426,can0  204  [16]  17 1A 50 46 50 46 50 46 FA 19 20 4E 30 75 00 00
2025-11-08T02:05:14.410266,20.170,can0  041  [04]  8B 00 02 00
2025-11-08T02:05:14.410951,20.170,can0  204  [16]  17 1A 50 46 50 46 50 46 FA 19 20 4E 30 75 00 00
2025-11-08T02:05:14.411560,20.171,can0  206  [16]  B3 0C D3 07 97 0C 3A DF ED 07 C3 0C 9B 0C 00 00
2025-11-08T02:05:14.412360,20.172,can0  204  [16]  17 1A 50 46 50 46 50 46 FA 19 20 4E 30 75 00 00
2025-11-08T02:05:14.412971,20.172,can0  204  [16]  17 1A 50 46 50 46 50 46 FA 19 20 4E 30 75 00 00
2025-11-08T02:05:14.413570,20.173,can0  206  [16]  B3 0C D3 07 9F 0C DA DC EF 07 B3 0C 9F 0C 00 00
2025-11-08T02:05:14.414106,20.173,can0  204  [16]  17 1A 50 46 50 46 50 46 FA 19 20 4E 30 75 00 00
2025-11-08T02:05:14.414662,20.174,can0  041  [04]  B5 00 02 00
2025-11-08T02:05:14.415213,20.174,can0  204  [16]  17 1A 50 46 50 46 50 46 FA 19 20 4E 30 75 00 00
2025-11-08T02:05:14.416599,20.176,can0  204  [16]  17 1A 50 46 50 46 50 46 FA 19 20 4E 30 75 00 00
2025-11-08T02:05:14.417247,20.177,can0  206  [16]  93 0C D6 07 9B 0C 3A DF E9 07 BF 0C B3 0C 00 00
2025-11-08T02:05:14.417734,20.177,can0  204  [16]  17 1A 50 46 50 46 50 46 FA 19 20 4E 30 75 00 00
2025-11-08T02:05:14.418305,20.178,can0  204  [16]  17 1A 50 46 50 46 50 46 FA 19 20 4E 30 75 00 00
2025-11-08T02:05:14.418781,20.178,can0  041  [04]  8B 00 02 00
2025-11-08T02:05:14.419339,20.179,can0  206  [16]  A3 0C D1 07 97 0C DA DC EF 07 CF 0C A7 0C 00 00
2025-11-08T02:05:14.422355,20.182,can0  204  [16]  17 1A 50 46 50 46 50 46 FA 19 20 4E 30 75 00 00
2025-11-08T02:05:14.423004,20.182,can0  204  [16]  17 1A 50 46 50 46 50 46 FA 19 20 4E 30 75 00 00
2025-11-08T02:05:14.423072,20.182,can0  204  [16]  17 1A 50 46 50 46 50 46 FA 19 20 4E 30 75 00 00
2025-11-08T02:05:14.423107,20.182,can0  206  [16]  A3 0C D6 07 A3 0C 99 C6 ED 07 C3 0C A7 0C 00 00
2025-11-08T02:05:15.092232,20.852,can0  204  [16]  17 1A 50 46 50 46 50 46 FA 19 20 4E 30 75 00 00
2025-11-08T02:05:15.092878,20.852,can0  204  [16]  17 1A 50 46 50 46 50 46 FA 19 20 4E 30 75 00 00
2025-11-08T02:05:15.094312,20.854,can0  041  [04]  8B 00 02 00
2025-11-08T02:05:15.094965,20.854,can0  204  [16]  17 1A 50 46 50 46 50 46 FA 19 20 4E 30 75 00 00
2025-11-08T02:05:15.095589,20.855,can0  206  [16]  AB 0C D8 07 9B 0C DA DC E9 07 BF 0C A7 0C 00 00
2025-11-08T02:05:15.096204,20.855,can0  204  [16]  17 1A 50 46 50 46 50 46 FA 19 20 4E 30 75 00 00
2025-11-08T02:05:15.096800,20.856,can0  204  [16]  17 1A 50 46 50 46 50 46 FA 19 20 4E 30 75 00 00
2025-11-08T02:05:15.098664,20.858,can0  206  [16]  9B 0C D3 07 AB 0C 3A DF EB 07 C3 0C A7 0C 00 00
2025-11-08T02:05:15.098746,20.858,can0  204  [16]  17 1A 50 46 50 46 50 46 FA 19 20 4E 30 75 00 00
2025-11-08T02:05:15.098786,20.858,can0  041  [04]  8B 00 02 00
2025-11-08T02:05:15.099105,20.858,can0  204  [16]  17 1A 50 46 50 46 50 46 FA 19 20 4E 30 75 00 00
2025-11-08T02:05:15.099805,20.859,can0  204  [16]  17 1A 50 46 50 46 50 46 FA 19 20 4E 30 75 00 00
2025-11-08T02:05:15.101784,20.861,can0  206  [16]  AB 0C D1 07 A3 0C 3A DF EF 07 BF 0C 9F 0C 00 00
2025-11-08T02:05:15.101852,20.861,can0  204  [16]  17 1A 50 46 50 46 50 46 FA 19 20 4E 30 75 00 00
2025-11-08T02:05:15.102113,20.861,can0  204  [16]  17 1A 50 46 50 46 50 46 FA 19 20 4E 30 75 00 00
2025-11-08T02:05:15.103912,20.863,can0  041  [04]  8B 00 02 00
2025-11-08T02:05:15.103981,20.863,can0  204  [16]  17 1A 50 46 50 46 50 46 FA 19 20 4E 30 75 00 00
2025-11-08T02:05:15.104028,20.863,can0  206  [16]  A7 0C D6 07 9B 0C 99 C6 EB 07 BB 0C A7 0C 00 00
2025-11-08T02:05:15.104256,20.864,can0  204  [16]  17 1A 50 46 50 46 50 46 FA 19 20 4E 30 75 00 00
2025-11-08T02:05:15.774526,21.534,can0  204  [16]  17 1A 50 46 50 46 50 46 FA 19 20 4E 30 75 00 00
2025-11-08T02:05:15.775013,21.534,can0  206  [16]  9F 0C D1 07 93 0C A0 E2 EF 07 CF 0C AB 0C 00 00
2025-11-08T02:05:15.775286,21.535,can0  204  [16]  17 1A 50 46 50 46 50 46 FA 19 20 4E 30 75 00 00
2025-11-08T02:05:15.775440,21.535,can0  041  [04]  8B 00 02 00
2025-11-08T02:05:15.775483,21.535,can0  204  [16]  17 1A 50 46 50 46 50 46 FA 19 20 4E 30 75 00 00
2025-11-08T02:05:15.775523,21.535,can0  204  [16]  17 1A 50 46 50 46 50 46 FA 19 20 4E 30 75 00 00
2025-11-08T02:05:15.775561,21.535,can0  206  [16]  9F 0C D1 07 9B 0C DA DC EB 07 CB 0C AB 0C 00 00
2025-11-08T02:05:15.776069,21.535,can0  204  [16]  17 1A 50 46 50 46 50 46 FA 19 20 4E 30 75 00 00
2025-11-08T02:05:15.776597,21.536,can0  204  [16]  17 1A 50 46 50 46 50 46 FA 19 20 4E 30 75 00 00
2025-11-08T02:05:15.778231,21.538,can0  206  [16]  9B 0C D8 07 9F 0C 99 C6 EF 07 C3 0C AB 0C 00 00
2025-11-08T02:05:15.778878,21.538,can0  204  [16]  17 1A 50 46 50 46 50 46 FA 19 20 4E 30 75 00 00
2025-11-08T02:05:15.779287,21.539,can0  041  [04]  9F 00 02 00
2025-11-08T02:05:15.779772,21.539,can0  204  [16]  17 1A 50 46 50 46 50 46 FA 19 20 4E 30 75 00 00
2025-11-08T02:05:15.780308,21.540,can0  204  [16]  17 1A 50 46 50 46 50 46 FA 19 20 4E 30 75 00 00
2025-11-08T02:05:15.780810,21.540,can0  206  [16]  A7 0C D3 07 9B 0C B1 E0 EB 07 B3 0C A3 0C 00 00
2025-11-08T02:05:15.781319,21.541,can0  204  [16]  17 1A 50 46 50 46 50 46 FA 19 20 4E 30 75 00 00
2025-11-08T02:05:15.781888,21.541,can0  204  [16]  17 1A 50 46 50 46 50 46 FA 19 20 4E 30 75 00 00
2025-11-08T02:05:16.397588,22.157,can0  041  [04]  B5 00 02 00
2025-11-08T02:05:16.398195,22.157,can0  204  [16]  17 1A 50 46 50 46 50 46 FA 19 20 4E 30 75 00 00
2025-11-08T02:05:16.398798,22.158,can0  206  [16]  A7 0C D1 07 9B 0C DA DC ED 07 C3 0C A3 0C 00 00
2025-11-08T02:05:16.399371,22.159,can0  204  [16]  17 1A 50 46 50 46 50 46 FA 19 20 4E 30 75 00 00
2025-11-08T02:05:16.400177,22.159,can0  204  [16]  17 1A 50 46 50 46 50 46 FA 19 20 4E 30 75 00 00
2025-11-08T02:05:16.400702,22.160,can0  204  [16]  17 1A 50 46 50 46 50 46 FA 19 20 4E 30 75 00 00
2025-11-08T02:05:16.401293,22.161,can0  206  [16]  A3 0C D6 07 9F 0C 99 C6 ED 07 BF 0C A7 0C 00 00
2025-11-08T02:05:16.401836,22.161,can0  041  [04]  9F 00 02 00
2025-11-08T02:05:16.402316,22.162,can0  204  [16]  17 1A 50 46 50 46 50 46 FA 19 20 4E 30 75 00 00
2025-11-08T02:05:16.402874,22.162,can0  204  [16]  17 1A 50 46 50 46 50 46 FA 19 20 4E 30 75 00 00
2025-11-08T02:05:16.403487,22.163,can0  206  [16]  9F 0C D1 07 97 0C DA DC ED 07 CB 0C AB 0C 00 00
2025-11-08T02:05:16.404087,22.163,can0  204  [16]  17 1A 50 46 50 46 50 46 FA 19 20 4E 30 75 00 00
2025-11-08T02:05:16.404682,22.164,can0  204  [16]  17 1A 50 46 50 46 50 46 FA 19 20 4E 30 75 00 00
2025-11-08T02:05:16.405181,22.164,can0  041  [04]  8B 00 02 00
2025-11-08T02:05:16.405731,22.165,can0  204  [16]  17 1A 50 46 50 46 50 46 FA 19 20 4E 30 75 00 00
2025-11-08T02:05:16.406314,22.166,can0  206  [16]  A7 0C D3 07 9B 0C DA DC E9 07 BF 0C A3 0C 00 00
2025-11-08T02:05:17.003698,22.763,can0  204  [16]  17 1A 50 46 50 46 50 46 FA 19 20 4E 30 75 00 00
2025-11-08T02:05:17.004226,22.764,can0  204  [16]  17 1A 50 46 50 46 50 46 FA 19 20 4E 30 75 00 00
2025-11-08T02:05:17.004572,22.764,can0  206  [16]  A7 0C D8 07 9B 0C 99 C6 E9 07 BF 0C A7 0C 00 00
2025-11-08T02:05:17.004795,22.764,can0  204  [16]  17 1A 50 46 50 46 50 46 FA 19 20 4E 30 75 00 00
2025-11-08T02:05:17.004952,22.764,can0  204  [16]  17 1A 50 46 50 46 50 46 FA 19 20 4E 30 75 00 00
2025-11-08T02:05:17.005107,22.764,can0  041  [04]  8B 00 02 00
2025-11-08T02:05:17.005150,22.764,can0  204  [16]  17 1A 50 46 50 46 50 46 FA 19 20 4E 30 75 00 00
2025-11-08T02:05:17.005189,22.764,can0  206  [16]  C7 0C D6 07 9B 0C 57 E3 EF 07 BF 0C 83 0C 00 00
2025-11-08T02:05:17.005229,22.765,can0  204  [16]  17 1A 50 46 50 46 50 46 FA 19 20 4E 30 75 00 00
2025-11-08T02:05:17.005549,22.765,can0  204  [16]  17 1A 50 46 50 46 50 46 FA 19 20 4E 30 75 00 00
2025-11-08T02:05:17.006097,22.765,can0  204  [16]  17 1A 50 46 50 46 50 46 FA 19 20 4E 30 75 00 00
2025-11-08T02:05:17.006722,22.766,can0  206  [16]  9B 0C D6 07 A3 0C B1 E0 EB 07 BB 0C AB 0C 00 00
2025-11-08T02:05:17.007233,22.767,can0  041  [04]  8B 00 02 00
2025-11-08T02:05:17.007921,22.767,can0  204  [16]  17 1A 50 46 50 46 50 46 FA 19 20 4E 30 75 00 00
2025-11-08T02:05:17.008545,22.768,can0  204  [16]  17 1A 50 46 50 46 50 46 FA 19 20 4E 30 75 00 00
2025-11-08T02:05:17.065641,22.825,can0   00  [05]  0c 8a f0 00 00 0
2025-11-08T02:05:17.631676,23.391,can0  204  [16]  17 1A 50 46 50 46 50 46 FA 19 20 4E 30 75 00 00
2025-11-08T02:05:17.632688,23.392,can0  206  [16]  A7 0C D8 07 9B 0C 99 C6 EF 07 BB 0C A3 0C 00 00
2025-11-08T02:05:17.639471,23.399,can0  204  [16]  17 1A 50 46 50 46 50 46 FA 19 20 4E 30 75 00 00
2025-11-08T02:05:17.639534,23.399,can0  001  [05]  C8 AF 00 00 00
2025-11-08T02:05:17.639584,23.399,can0  041  [04]  E4 00 02 00
2025-11-08T02:05:17.639621,23.399,can0  204  [16]  17 1A 50 46 50 46 50 46 FA 19 20 4E 30 75 00 00
2025-11-08T02:05:17.639656,23.399,can0  206  [16]  9B 0C D3 07 9B 0C DA DC E9 07 C7 0C AB 0C 00 00
2025-11-08T02:05:17.639691,23.399,can0  204  [16]  17 1A 50 46 50 46 50 46 FA 19 20 4E 30 75 00 00
2025-11-08T02:05:17.639729,23.399,can0  204  [16]  17 1A 50 46 50 46 50 46 FA 19 20 4E 30 75 00 00
2025-11-08T02:05:17.639766,23.399,can0  204  [16]  17 1A 50 46 50 46 50 46 FA 19 20 4E 30 75 00 00
2025-11-08T02:05:17.639803,23.399,can0  206  [16]  9B 0C D6 07 A3 0C 99 C6 ED 07 BF 0C AB 0C 00 00
2025-11-08T02:05:17.639839,23.399,can0  041  [04]  B5 00 02 00
2025-11-08T02:05:17.639872,23.399,can0  204  [16]  17 1A 50 46 50 46 50 46 FA 19 20 4E 30 75 00 00
2025-11-08T02:05:17.639910,23.399,can0  204  [16]  17 1A 50 46 50 46 50 46 FA 19 20 4E 30 75 00 00
2025-11-08T02:05:17.640468,23.400,can0  206  [16]  A7 0C D6 07 9F 0C 3A DF EB 07 C7 0C A3 0C 00 00
2025-11-08T02:05:17.640514,23.400,can0  204  [16]  17 1A 50 46 50 46 50 46 FA 19 20 4E 30 75 00 00
2025-11-08T02:05:17.641031,23.400,can0  204  [16]  17 1A 50 46 50 46 50 46 FA 19 20 4E 30 75 00 00
2025-11-08T02:05:17.641549,23.401,can0  204  [16]  17 1A 50 46 50 46 50 46 FA 19 20 4E 30 75 00 00
2025-11-08T02:05:17.642047,23.401,can0  041  [04]  8B 00 00 00
2025-11-08T02:05:17.643981,23.403,can0  206  [16]  A7 0C D3 07 9B 0C C5 E1 ED 07 C7 0C A3 0C 00 00
2025-11-08T02:05:18.254152,24.013,can0  204  [16]  17 1A 50 46 50 46 50 46 FA 19 20 4E 30 75 00 00
2025-11-08T02:05:18.254749,24.014,can0  204  [16]  17 1A 50 46 50 46 50 46 FA 19 20 4E 30 75 00 00
2025-11-08T02:05:18.255336,24.015,can0  204  [16]  17 1A 50 46 50 46 50 46 FA 19 20 4E 30 75 00 00
2025-11-08T02:05:18.256001,24.015,can0  206  [16]  A3 0C D8 07 9B 0C C5 E1 EB 07 C7 0C A7 0C 00 00
2025-11-08T02:05:18.256584,24.016,can0  204  [16]  17 1A 50 46 50 46 50 46 FA 19 20 4E 30 75 00 00
2025-11-08T02:05:18.257153,24.016,can0  041  [04]  8B 00 02 00
2025-11-08T02:05:18.257754,24.017,can0  204  [16]  17 1A 50 46 50 46 50 46 FA 19 20 4E 30 75 00 00
2025-11-08T02:05:18.258380,24.018,can0  206  [16]  A7 0C D6 07 9B 0C 99 C6 EB 07 CF 0C A3 0C 00 00
2025-11-08T02:05:18.261734,24.021,can0  204  [16]  17 1A 50 46 50 46 50 46 FA 19 20 4E 30 75 00 00
2025-11-08T02:05:18.261803,24.021,can0  204  [16]  17 1A 50 46 50 46 50 46 FA 19 20 4E 30 75 00 00
2025-11-08T02:05:18.261846,24.021,can0  204  [16]  17 1A 50 46 50 46 50 46 FA 19 20 4E 30 75 00 00
2025-11-08T02:05:18.261885,24.021,can0  206  [16]  A3 0C D6 07 97 0C DA DC ED 07 BF 0C AB 0C 00 00
2025-11-08T02:05:18.261923,24.021,can0  041  [04]  2F 00 02 00
2025-11-08T02:05:18.261961,24.021,can0  204  [16]  17 1A 50 46 50 46 50 46 FA 19 20 4E 30 75 00 00
2025-11-08T02:05:18.262246,24.022,can0  204  [16]  17 1A 50 46 50 46 50 46 FA 19 20 4E 30 75 00 00
2025-11-08T02:05:18.860172,24.619,can0  206  [16]  A7 0C 01 08 9B 0C 99 C6 EB 07 BF 0C A3 0C 00 00
2025-11-08T02:05:18.860818,24.620,can0  204  [16]  17 1A 50 46 50 46 50 46 FA 19 20 4E 30 75 00 00
2025-11-08T02:05:18.861470,24.621,can0  204  [16]  17 1A 50 46 50 46 50 46 FA 19 20 4E 30 75 00 00
2025-11-08T02:05:18.867438,24.627,can0  041  [04]  2F 00 02 00
2025-11-08T02:05:18.867751,24.627,can0  204  [16]  17 1A 50 46 50 46 50 46 FA 19 20 4E 30 75 00 00
2025-11-08T02:05:18.867808,24.627,can0  206  [16]  AB 0C D6 07 9B 0C DA DC ED 07 C3 0C A3 0C 00 00
2025-11-08T02:05:18.867850,24.627,can0  204  [16]  17 1A 50 46 50 46 50 46 FA 19 20 4E 30 75 00 00
2025-11-08T02:05:18.867886,24.627,can0  204  [16]  17 1A 50 46 50 46 50 46 FA 19 20 4E 30 75 00 00
2025-11-08T02:05:18.867919,24.627,can0  204  [16]  17 1A 50 46 50 46 50 46 FA 19 20 4E 30 75 00 00
2025-11-08T02:05:18.867953,24.627,can0  206  [16]  A7 0C D6 07 97 0C B1 E0 ED 07 BF 0C A7 0C 00 00
2025-11-08T02:05:18.867984,24.627,can0  204  [16]  17 1A 50 46 50 46 50 46 FA 19 20 4E 30 75 00 00
2025-11-08T02:05:18.869100,24.628,can0  041  [04]  2F 00 02 00
2025-11-08T02:05:18.869183,24.628,can0  204  [16]  17 1A 50 46 50 46 50 46 FA 19 20 4E 30 75 00 00
2025-11-08T02:05:18.869226,24.629,can0  204  [16]  17 1A 50 46 50 46 50 46 FA 19 20 4E 30 75 00 00
2025-11-08T02:05:18.869266,24.629,can0  206  [16]  A3 0C D1 07 9F 0C DA DC E5 07 C3 0C A3 0C 00 00
2025-11-08T02:05:19.464633,25.224,can0  204  [16]  17 1A 50 46 50 46 50 46 FA 19 20 4E 30 75 00 00
2025-11-08T02:05:19.465320,25.225,can0  204  [16]  17 1A 50 46 50 46 50 46 FA 19 20 4E 30 75 00 00
2025-11-08T02:05:19.465949,25.225,can0  041  [04]  2F 00 02 00
2025-11-08T02:05:19.466593,25.226,can0  206  [16]  9F 0C D6 07 9F 0C 3A DF E9 07 C3 0C A7 0C 00 00
2025-11-08T02:05:19.467214,25.226,can0  204  [16]  17 1A 50 46 50 46 50 46 FA 19 20 4E 30 75 00 00
2025-11-08T02:05:19.467830,25.227,can0  204  [16]  17 1A 50 46 50 46 50 46 FA 19 20 4E 30 75 00 00
2025-11-08T02:05:19.468449,25.228,can0  204  [16]  17 1A 50 46 50 46 50 46 FA 19 20 4E 30 75 00 00
2025-11-08T02:05:19.469290,25.229,can0  206  [16]  97 0C C7 07 A3 0C B1 E0 ED 07 C3 0C AB 0C 00 00
2025-11-08T02:05:19.469674,25.229,can0  204  [16]  17 1A 50 46 50 46 50 46 FA 19 20 4E 30 75 00 00
2025-11-08T02:05:19.471768,25.231,can0  041  [04]  8B 00 02 00
2025-11-08T02:05:19.472304,25.232,can0  204  [16]  17 1A 50 46 50 46 50 46 FA 19 20 4E 30 75 00 00
2025-11-08T02:05:19.472357,25.232,can0  206  [16]  A3 0C D8 07 9F 0C A0 E2 ED 07 BB 0C A7 0C 00 00
2025-11-08T02:05:19.472610,25.232,can0  204  [16]  17 1A 50 46 50 46 50 46 FA 19 20 4E 30 75 00 00
2025-11-08T02:05:19.472679,25.232,can0  204  [16]  17 1A 50 46 50 46 50 46 FA 19 20 4E 30 75 00 00
2025-11-08T02:05:19.473372,25.233,can0  204  [16]  17 1A 50 46 50 46 50 46 FA 19 20 4E 30 75 00 00
2025-11-08T02:05:20.159627,25.919,can0  206  [16]  83 0C D6 07 C3 0C DA DC ED 07 B3 0C A3 0C 00 00
2025-11-08T02:05:20.160295,25.920,can0  041  [04]  2F 00 02 00
2025-11-08T02:05:20.161019,25.920,can0  204  [16]  17 1A 50 46 50 46 50 46 FA 19 20 4E 30 75 00 00
2025-11-08T02:05:20.161722,25.921,can0  204  [16]  17 1A 50 46 50 46 50 46 FA 19 20 4E 30 75 00 00
2025-11-08T02:05:20.162359,25.922,can0  204  [16]  17 1A 50 46 50 46 50 46 FA 19 20 4E 30 75 00 00
2025-11-08T02:05:20.163006,25.922,can0  206  [16]  BB 0C DC 07 AB 0C C5 E1 EF 07 B7 0C 8F 0C 00 00
2025-11-08T02:05:20.163639,25.923,can0  204  [16]  17 1A 50 46 50 46 50 46 FA 19 20 4E 30 75 00 00
2025-11-08T02:05:20.164226,25.924,can0  204  [16]  17 1A 50 46 50 46 50 46 FA 19 20 4E 30 75 00 00
2025-11-08T02:05:20.164732,25.924,can0  041  [04]  2F 00 02 00
2025-11-08T02:05:20.165278,25.925,can0  206  [16]  9F 0C D6 07 9B 0C DA DC EF 07 C7 0C AB 0C 00 00
2025-11-08T02:05:20.166010,25.925,can0  204  [16]  17 1A 50 46 50 46 50 46 FA 19 20 4E 30 75 00 00
2025-11-08T02:05:20.166430,25.926,can0  204  [16]  17 1A 50 46 50 46 50 46 FA 19 20 4E 30 75 00 00
2025-11-08T02:05:20.167010,25.926,can0  204  [16]  17 1A 50 46 50 46 50 46 FA 19 20 4E 30 75 00 00
2025-11-08T02:05:20.167667,25.927,can0  206  [16]  9F 0C D3 07 9F 0C B1 E0 F2 07 52 0C A7 0C 00 00
2025-11-08T02:05:20.168322,25.928,can0  204  [16]  17 1A 50 46 50 46 50 46 FA 19 20 4E 30 75 00 00
2025-11-08T02:05:20.168993,25.928,can0  041  [04]  2F 00 00 00
2025-11-08T02:05:20.170741,25.930,can0  204  [16]  17 1A 50 46 50 46 50 46 FA 19 20 4E 30 75 00 00
2025-11-08T02:05:20.774364,26.534,can0  206  [16]  8F 0C E0 07 A3 0C 99 C6 ED 07 BF 0C B7 0C 00 00
2025-11-08T02:05:20.775190,26.534,can0  204  [16]  17 1A 50 46 50 46 50 46 FA 19 20 4E 30 75 00 00
2025-11-08T02:05:20.775795,26.535,can0  204  [16]  17 1A 50 46 50 46 50 46 FA 19 20 4E 30 75 00 00
2025-11-08T02:05:20.776365,26.536,can0  204  [16]  17 1A 50 46 50 46 50 46 FA 19 20 4E 30 75 00 00
2025-11-08T02:05:20.777032,26.536,can0  206  [16]  9F 0C DA 07 9B 0C B1 E0 ED 07 BF 0C AB 0C 00 00
2025-11-08T02:05:20.777533,26.537,can0  041  [04]  8B 00 02 00
2025-11-08T02:05:20.778095,26.537,can0  204  [16]  17 1A 50 46 50 46 50 46 FA 19 20 4E 30 75 00 00
2025-11-08T02:05:20.778663,26.538,can0  204  [16]  17 1A 50 46 50 46 50 46 FA 19 20 4E 30 75 00 00
2025-11-08T02:05:20.779392,26.539,can0  204  [16]  17 1A 50 46 50 46 50 46 FA 19 20 4E 30 75 00 00
2025-11-08T02:05:20.779993,26.539,can0  206  [16]  9B 0C D8 07 A7 0C DA DC E9 07 B3 0C AB 0C 00 00
2025-11-08T02:05:20.780408,26.540,can0  204  [16]  17 1A 50 46 50 46 50 46 FA 19 20 4E 30 75 00 00
2025-11-08T02:05:20.783365,26.543,can0  041  [04]  2F 00 02 00
2025-11-08T02:05:20.783685,26.543,can0  204  [16]  17 1A 50 46 50 46 50 46 FA 19 20 4E 30 75 00 00
2025-11-08T02:05:20.784109,26.543,can0  206  [16]  AB 0C D3 07 97 0C 99 C6 EB 07 C7 0C 9F 0C 00 00
2025-11-08T02:05:20.784359,26.544,can0  204  [16]  17 1A 50 46 50 46 50 46 FA 19 20 4E 30 75 00 00
2025-11-08T02:05:20.784609,26.544,can0  204  [16]  17 1A 50 46 50 46 50 46 FA 19 20 4E 30 75 00 00
2025-11-08T02:05:21.386099,27.145,can0  204  [16]  17 1A 50 46 50 46 50 46 FA 19 20 4E 30 75 00 00
2025-11-08T02:05:21.386778,27.146,can0  206  [16]  5B 0C D3 07 DB 0C 3A DF ED 07 C3 0C AB 0C 00 00
2025-11-08T02:05:21.388235,27.148,can0  204  [16]  17 1A 50 46 50 46 50 46 FA 19 20 4E 30 75 00 00
2025-11-08T02:05:21.388284,27.148,can0  041  [04]  02 00 02 00
2025-11-08T02:05:21.389786,27.149,can0  204  [16]  17 1A 50 46 50 46 50 46 FA 19 20 4E 30 75 00 00
2025-11-08T02:05:21.389958,27.149,can0  204  [16]  17 1A 50 46 50 46 50 46 FA 19 20 4E 30 75 00 00
2025-11-08T02:05:21.390517,27.150,can0  206  [16]  A3 0C D8 07 9F 0C B1 E0 E5 07 C3 0C A7 0C 00 00
2025-11-08T02:05:21.403495,27.163,can0  204  [16]  17 1A 50 46 50 46 50 46 FA 19 20 4E 30 75 00 00
2025-11-08T02:05:21.403590,27.163,can0  204  [16]  17 1A 50 46 50 46 50 46 FA 19 20 4E 30 75 00 00
2025-11-08T02:05:21.403622,27.163,can0  041  [04]  5E 00 02 00
2025-11-08T02:05:21.403650,27.163,can0  206  [16]  AB 0C D6 07 97 0C DA DC F2 07 E3 0C 9F 0C 00 00
2025-11-08T02:05:21.403855,27.163,can0  204  [16]  17 1A 50 46 50 46 50 46 FA 19 20 4E 30 75 00 00
2025-11-08T02:05:21.404008,27.163,can0  204  [16]  17 1A 50 46 50 46 50 46 FA 19 20 4E 30 75 00 00
2025-11-08T02:05:21.404245,27.164,can0  204  [16]  17 1A 50 46 50 46 50 46 FA 19 20 4E 30 75 00 00
2025-11-08T02:05:21.405089,27.164,can0  206  [16]  A3 0C D3 07 A3 0C DA DC EB 07 BF 0C A7 0C 00 00
2025-11-08T02:05:21.405836,27.165,can0  204  [16]  17 1A 50 46 50 46 50 46 FA 19 20 4E 30 75 00 00
2025-11-08T02:05:22.070827,27.830,can0  041  [04]  B5 00 02 00
2025-11-08T02:05:22.071686,27.831,can0  204  [16]  17 1A 50 46 50 46 50 46 FA 19 20 4E 30 75 00 00
2025-11-08T02:05:22.072426,27.832,can0  204  [16]  17 1A 50 46 50 46 50 46 FA 19 20 4E 30 75 00 00
2025-11-08T02:05:22.073874,27.833,can0  206  [16]  A3 0C DC 07 8F 0C 3A DF EB 07 D7 0C A7 0C 00 00
2025-11-08T02:05:22.074034,27.833,can0  204  [16]  17 1A 50 46 50 46 50 46 FA 19 20 4E 30 75 00 00
2025-11-08T02:05:22.074629,27.834,can0  204  [16]  17 1A 50 46 50 46 50 46 FA 19 20 4E 30 75 00 00
2025-11-08T02:05:22.077909,27.837,can0  206  [16]  9B 0C D6 07 9F 0C DA DC ED 07 C3 0C AB 0C 00 00
2025-11-08T02:05:22.078126,27.837,can0  041  [04]  B5 00 00 00
2025-11-08T02:05:22.078283,27.838,can0  204  [16]  17 1A 50 46 50 46 50 46 FA 19 20 4E 30 75 00 00
2025-11-08T02:05:22.078766,27.838,can0  204  [16]  17 1A 50 46 50 46 50 46 FA 19 20 4E 30 75 00 00
2025-11-08T02:05:22.078931,27.838,can0  204  [16]  17 1A 50 46 50 46 50 46 FA 19 20 4E 30 75 00 00
2025-11-08T02:05:22.086107,27.845,can0  206  [16]  A3 0C D3 07 97 0C DA DC EB 07 C7 0C A7 0C 00 00
2025-11-08T02:05:22.102082,27.861,can0  204  [16]  17 1A 50 46 50 46 50 46 FA 19 20 4E 30 75 00 00
2025-11-08T02:05:22.102169,27.861,can0  204  [16]  17 1A 50 46 50 46 50 46 FA 19 20 4E 30 75 00 00
2025-11-08T02:05:22.102208,27.861,can0  041  [04]  B5 00 00 00
2025-11-08T02:05:22.102241,27.862,can0  204  [16]  17 1A 50 46 50 46 50 46 FA 19 20 4E 30 75 00 00
2025-11-08T02:05:22.102274,27.862,can0  206  [16]  AB 0C D3 07 9B 0C DA DC EB 07 C7 0C 9B 0C 00 00
2025-11-08T02:05:22.102303,27.862,can0  204  [16]  17 1A 50 46 50 46 50 46 FA 19 20 4E 30 75 00 00
2025-11-08T02:05:22.102332,27.862,can0  204  [16]  17 1A 50 46 50 46 50 46 FA 19 20 4E 30 75 00 00
2025-11-08T02:05:22.728886,28.488,can0  206  [16]  A3 0C D6 07 9F 0C 3A DF EB 07 BF 0C A3 0C 00 00
2025-11-08T02:05:22.729942,28.489,can0  204  [16]  17 1A 50 46 50 46 50 46 FA 19 20 4E 30 75 00 00
2025-11-08T02:05:22.737554,28.497,can0  041  [04]  B5 00 00 00
2025-11-08T02:05:22.737618,28.497,can0  204  [16]  17 1A 50 46 50 46 50 46 FA 19 20 4E 30 75 00 00
2025-11-08T02:05:22.737661,28.497,can0  204  [16]  17 1A 50 46 50 46 50 46 FA 19 20 4E 30 75 00 00
2025-11-08T02:05:22.737700,28.497,can0  206  [16]  A3 0C D3 07 9F 0C B1 E0 EB 07 BB 0C A3 0C 00 00
2025-11-08T02:05:22.737739,28.497,can0  204  [16]  17 1A 50 46 50 46 50 46 FA 19 20 4E 30 75 00 00
2025-11-08T02:05:22.737778,28.497,can0  204  [16]  17 1A 50 46 50 46 50 46 FA 19 20 4E 30 75 00 00
2025-11-08T02:05:22.737997,28.497,can0  041  [04]  8B 00 00 00
2025-11-08T02:05:22.738045,28.497,can0  204  [16]  17 1A 50 46 50 46 50 46 FA 19 20 4E 30 75 00 00
2025-11-08T02:05:22.738086,28.497,can0  206  [16]  9F 0C E0 07 9F 0C DA DC EB 07 BF 0C AB 0C 00 00
2025-11-08T02:05:22.738829,28.498,can0  204  [16]  17 1A 50 46 50 46 50 46 FA 19 20 4E 30 75 00 00
2025-11-08T02:05:22.739513,28.499,can0  204  [16]  17 1A 50 46 50 46 50 46 FA 19 20 4E 30 75 00 00
2025-11-08T02:05:22.741619,28.501,can0  206  [16]  9B 0C D3 07 A3 0C 99 C6 EB 07 C3 0C AB 0C 00 00
2025-11-08T02:05:22.741784,28.501,can0  204  [16]  17 1A 50 46 50 46 50 46 FA 19 20 4E 30 75 00 00
2025-11-08T02:05:23.369307,29.129,can0  041  [04]  3F 01 00 00
2025-11-08T02:05:23.370186,29.129,can0  204  [16]  17 1A 50 46 50 46 50 46 FA 19 20 4E 30 75 00 00
2025-11-08T02:05:23.371007,29.130,can0  204  [16]  17 1A 50 46 50 46 50 46 FA 19 20 4E 30 75 00 00
2025-11-08T02:05:23.371828,29.131,can0  206  [16]  9B 0C D8 07 9F 0C C5 E1 EF 07 C7 0C AB 0C 00 00
2025-11-08T02:05:23.372683,29.132,can0  204  [16]  17 1A 50 46 50 46 50 46 FA 19 20 4E 30 75 00 00
2025-11-08T02:05:23.373406,29.133,can0  204  [16]  17 1A 50 46 50 46 50 46 FA 19 20 4E 30 75 00 00
2025-11-08T02:05:23.375117,29.134,can0  204  [16]  17 1A 50 46 50 46 50 46 FA 19 20 4E 30 75 00 00
2025-11-08T02:05:23.375697,29.135,can0  206  [16]  9F 0C D8 07 97 0C B1 E0 E9 07 C3 0C AF 0C 00 00
2025-11-08T02:05:23.378622,29.138,can0  041  [04]  3F 01 00 00
2025-11-08T02:05:23.378686,29.138,can0  204  [16]  17 1A 50 46 50 46 50 46 FA 19 20 4E 30 75 00 00
2025-11-08T02:05:23.378728,29.138,can0  204  [16]  17 1A 50 46 50 46 50 46 FA 19 20 4E 30 75 00 00
2025-11-08T02:05:23.379054,29.138,can0  206  [16]  AF 0C D8 07 9B 0C 99 C6 E9 07 E3 0C 9B 0C 00 00
2025-11-08T02:05:23.380387,29.140,can0  204  [16]  17 1A 50 46 50 46 50 46 FA 19 20 4E 30 75 00 00
2025-11-08T02:05:23.381176,29.140,can0  204  [16]  17 1A 50 46 50 46 50 46 FA 19 20 4E 30 75 00 00
2025-11-08T02:05:23.384414,29.144,can0  041  [04]  3F 01 00 00
2025-11-08T02:05:23.384606,29.144,can0  204  [16]  17 1A 50 46 50 46 50 46 FA 19 20 4E 30 75 00 00
2025-11-08T02:05:23.384657,29.144,can0  206  [16]  AF 0C D1 07 97 0C DA DC EB 07 BF 0C 9F 0C 00 00
2025-11-08T02:05:23.384697,29.144,can0  204  [16]  17 1A 50 46 50 46 50 46 FA 19 20 4E 30 75 00 00
2025-11-08T02:05:24.072795,29.832,can0  204  [16]  17 1A 50 46 50 46 50 46 FA 19 20 4E 30 75 00 00
2025-11-08T02:05:24.073743,29.833,can0  206  [16]  9F 0C D6 07 A3 0C DA DC EB 07 BF 0C AB 0C 00 00
2025-11-08T02:05:24.074983,29.834,can0  204  [16]  17 1A 50 46 50 46 50 46 FA 19 20 4E 30 75 00 00
2025-11-08T02:05:24.076100,29.835,can0  041  [04]  E4 00 00 00
2025-11-08T02:05:24.078998,29.838,can0  204  [16]  17 1A 50 46 50 46 50 46 FA 19 20 4E 30 75 00 00
2025-11-08T02:05:24.079182,29.838,can0  204  [16]  17 1A 50 46 50 46 50 46 FA 19 20 4E 30 75 00 00
2025-11-08T02:05:24.079653,29.839,can0  206  [16]  A3 0C D8 07 9F 0C DA DC EB 07 BB 0C A7 0C 00 00
2025-11-08T02:05:24.081680,29.841,can0  204  [16]  17 1A 50 46 50 46 50 46 FA 19 20 4E 30 75 00 00
2025-11-08T02:05:24.083559,29.843,can0  204  [16]  17 1A 50 46 50 46 50 46 FA 19 20 4E 30 75 00 00
2025-11-08T02:05:24.087063,29.846,can0  204  [16]  17 1A 50 46 50 46 50 46 FA 19 20 4E 30 75 00 00
2025-11-08T02:05:24.090339,29.850,can0  041  [04]  B5 00 00 00
2025-11-08T02:05:24.091614,29.851,can0  206  [16]  9F 0C D3 07 9F 0C 3A DF EB 07 BF 0C A7 0C 00 00
2025-11-08T02:05:24.092792,29.852,can0  204  [16]  17 1A 50 46 50 46 50 46 FA 19 20 4E 30 75 00 00
2025-11-08T02:05:24.093789,29.853,can0  204  [16]  17 1A 50 46 50 46 50 46 FA 19 20 4E 30 75 00 00
2025-11-08T02:05:24.094635,29.854,can0  206  [16]  97 0C D6 07 A7 0C DA DC ED 07 C3 0C AB 0C 00 00
2025-11-08T02:05:24.096600,29.856,can0  204  [16]  17 1A 50 46 50 46 50 46 FA 19 20 4E 30 75 00 00
2025-11-08T02:05:24.097483,29.857,can0  204  [16]  17 1A 50 46 50 46 50 46 FA 19 20 4E 30 75 00 00
2025-11-08T02:05:24.098207,29.857,can0  041  [04]  E4 00 02 00
2025-11-08T02:05:24.099005,29.858,can0  204  [16]  17 1A 50 46 50 46 50 46 FA 19 20 4E 30 75 00 00
2025-11-08T02:05:24.814254,30.574,can0  206  [16]  A7 0C D6 07 A3 0C DA DC ED 07 C3 0C 9F 0C 00 00
2025-11-08T02:05:24.815209,30.574,can0  204  [16]  17 1A 50 46 50 46 50 46 FA 19 20 4E 30 75 00 00
2025-11-08T02:05:24.816085,30.575,can0  204  [16]  17 1A 50 46 50 46 50 46 FA 19 20 4E 30 75 00 00
2025-11-08T02:05:24.822619,30.582,can0  204  [16]  17 1A 50 46 50 46 50 46 FA 19 20 4E 30 75 00 00
2025-11-08T02:05:24.823705,30.583,can0  206  [16]  A3 0C D6 07 9B 0C DA DC EB 07 C7 0C AB 0C 00 00
2025-11-08T02:05:24.827916,30.587,can0  041  [04]  3F 01 02 00
2025-11-08T02:05:24.828107,30.587,can0  204  [16]  17 1A 50 46 50 46 50 46 FA 19 20 4E 30 75 00 00
2025-11-08T02:05:24.829890,30.589,can0  204  [16]  17 1A 50 46 50 46 50 46 FA 19 20 4E 30 75 00 00
2025-11-08T02:05:24.833735,30.593,can0  206  [16]  B3 0C D6 07 97 0C B1 E0 ED 07 C7 0C 97 0C 00 00
2025-11-08T02:05:24.833941,30.593,can0  204  [16]  17 1A 50 46 50 46 50 46 FA 19 20 4E 30 75 00 00
2025-11-08T02:05:24.833989,30.593,can0  204  [16]  17 1A 50 46 50 46 50 46 FA 19 20 4E 30 75 00 00
2025-11-08T02:05:24.837545,30.597,can0  041  [04]  02 00 02 00
2025-11-08T02:05:24.840406,30.600,can0  204  [16]  17 1A 50 46 50 46 50 46 FA 19 20 4E 30 75 00 00
2025-11-08T02:05:24.850763,30.610,can0  206  [16]  A3 0C D6 07 9F 0C DA DC EB 07 8F 0C A7 0C 00 00
2025-11-08T02:05:24.850979,30.610,can0  204  [16]  17 1A 50 46 50 46 50 46 FA 19 20 4E 30 75 00 00
2025-11-08T02:05:24.851024,30.610,can0  204  [16]  17 1A 50 46 50 46 50 46 FA 19 20 4E 30 75 00 00
2025-11-08T02:05:24.851064,30.610,can0  204  [16]  17 1A 50 46 50 46 50 46 FA 19 20 4E 30 75 00 00
2025-11-08T02:05:24.861099,30.620,can0  206  [16]  A3 0C AF 07 9F 0C DA DC ED 07 BF 0C A7 0C 00 00
2025-11-08T02:05:25.787210,31.547,can0  204  [16]  17 1A 50 46 50 46 50 46 FA 19 20 4E 30 75 00 00
2025-11-08T02:05:25.787461,31.547,can0  041  [04]  8B 00 02 00
2025-11-08T02:05:25.787511,31.547,can0  204  [16]  17 1A 50 46 50 46 50 46 FA 19 20 4E 30 75 00 00
2025-11-08T02:05:25.787783,31.547,can0  206  [16]  A7 0C D3 07 97 0C 3A DF EB 07 C7 0C A3 0C 00 00
2025-11-08T02:05:25.788784,31.548,can0  204  [16]  17 1A 50 46 50 46 50 46 FA 19 20 4E 30 75 00 00
2025-11-08T02:05:25.789058,31.548,can0  204  [16]  17 1A 50 46 50 46 50 46 FA 19 20 4E 30 75 00 00
2025-11-08T02:05:25.789672,31.549,can0  204  [16]  17 1A 50 46 50 46 50 46 FA 19 20 4E 30 75 00 00
2025-11-08T02:05:25.790145,31.549,can0  041  [04]  B5 00 02 00
2025-11-08T02:05:25.796286,31.556,can0  206  [16]  9F 0C DC 07 9B 0C DA DC EB 07 BB 0C AB 0C 00 00
2025-11-08T02:05:25.796502,31.556,can0  204  [16]  17 1A 50 46 50 46 50 46 FA 19 20 4E 30 75 00 00
2025-11-08T02:05:25.796660,31.556,can0  204  [16]  17 1A 50 46 50 46 50 46 FA 19 20 4E 30 75 00 00
2025-11-08T02:05:25.798689,31.558,can0  206  [16]  A3 0C D6 07 97 0C DA DC ED 07 C7 0C A7 0C 00 00
2025-11-08T02:05:25.799647,31.559,can0  204  [16]  17 1A 50 46 50 46 50 46 FA 19 20 4E 30 75 00 00
2025-11-08T02:05:25.801182,31.560,can0  204  [16]  17 1A 50 46 50 46 50 46 FA 19 20 4E 30 75 00 00
2025-11-08T02:05:25.801608,31.561,can0  041  [04]  B5 00 02 00
2025-11-08T02:05:25.802226,31.562,can0  204  [16]  17 1A 50 46 50 46 50 46 FA 19 20 4E 30 75 00 00
2025-11-08T02:05:25.802867,31.562,can0  206  [16]  A3 0C D6 07 A3 0C 99 C6 EB 07 BB 0C A7 0C 00 00
2025-11-08T02:05:25.804596,31.564,can0  204  [16]  17 1A 50 46 50 46 50 46 FA 19 20 4E 30 75 00 00
2025-11-08T02:05:25.805070,31.564,can0  204  [16]  17 1A 50 46 50 46 50 46 FA 19 20 4E 30 75 00 00
2025-11-08T02:05:25.806883,31.566,can0  204  [16]  17 1A 50 46 50 46 50 46 FA 19 20 4E 30 75 00 00
2025-11-08T02:05:25.807781,31.567,can0  206  [16]  A3 0C D6 07 9B 0C 99 C6 ED 07 CB 0C AB 0C 00 00
2025-11-08T02:05:25.813754,31.573,can0  041  [04]  B5 00 02 00
2025-11-08T02:05:25.813930,31.573,can0  204  [16]  17 1A 50 46 50 46 50 46 FA 19 20 4E 30 75 00 00
2025-11-08T02:05:25.814353,31.574,can0  204  [16]  17 1A 50 46 50 46 50 46 FA 19 20 4E 30 75 00 00
2025-11-08T02:05:25.814528,31.574,can0  206  [16]  9B 0C D8 07 A3 0C DA DC EF 07 CF 0C A7 0C 00 00
2025-11-08T02:05:25.814827,31.574,can0  204  [16]  17 1A 50 46 50 46 50 46 FA 19 20 4E 30 75 00 00
2025-11-08T02:05:26.500865,32.260,can0  204  [16]  17 1A 50 46 50 46 50 46 FA 19 20 4E 30 75 00 00
2025-11-08T02:05:26.501627,32.261,can0  204  [16]  17 1A 50 46 50 46 50 46 FA 19 20 4E 30 75 00 00
2025-11-08T02:05:26.502181,32.261,can0  041  [04]  9F 00 02 00
2025-11-08T02:05:26.502824,32.262,can0  206  [16]  AF 0C D6 07 A3 0C DA DC EB 07 C3 0C 97 0C 00 00
2025-11-08T02:05:26.503463,32.263,can0  204  [16]  17 1A 50 46 50 46 50 46 FA 19 20 4E 30 75 00 00
2025-11-08T02:05:26.504089,32.263,can0  204  [16]  17 1A 50 46 50 46 50 46 FA 19 20 4E 30 75 00 00
2025-11-08T02:05:26.504710,32.264,can0  204  [16]  17 1A 50 46 50 46 50 46 FA 19 20 4E 30 75 00 00
2025-11-08T02:05:26.514892,32.274,can0  206  [16]  A7 0C CB 07 9B 0C DA DC ED 07 C3 0C A3 0C 00 00
2025-11-08T02:05:26.515136,32.274,can0  204  [16]  17 1A 50 46 50 46 50 46 FA 19 20 4E 30 75 00 00
2025-11-08T02:05:26.515278,32.275,can0  041  [04]  9F 00 02 00
2025-11-08T02:05:26.515433,32.275,can0  204  [16]  17 1A 50 46 50 46 50 46 FA 19 20 4E 30 75 00 00
2025-11-08T02:05:26.518662,32.278,can0  206  [16]  A3 0C C9 07 9F 0C DA DC F2 07 C7 0C A3 0C 00 00
2025-11-08T02:05:26.520824,32.280,can0  204  [16]  17 1A 50 46 50 46 50 46 FA 19 20 4E 30 75 00 00
2025-11-08T02:05:26.524492,32.284,can0  204  [16]  17 1A 50 46 50 46 50 46 FA 19 20 4E 30 75 00 00
2025-11-08T02:05:26.525700,32.285,can0  204  [16]  17 1A 50 46 50 46 50 46 FA 19 20 4E 30 75 00 00
2025-11-08T02:05:26.526556,32.286,can0  206  [16]  A3 0C D8 07 9F 0C 99 C6 D6 07 CF 0C A7 0C 00 00
2025-11-08T02:05:26.527245,32.287,can0  041  [04]  B5 00 02 00
2025-11-08T02:05:26.527997,32.287,can0  204  [16]  17 1A 50 46 50 46 50 46 FA 19 20 4E 30 75 00 00
2025-11-08T02:05:27.196701,32.956,can0  204  [16]  17 1A 50 46 50 46 50 46 FA 19 20 4E 30 75 00 00
2025-11-08T02:05:27.197821,32.957,can0  204  [16]  17 1A 50 46 50 46 50 46 FA 19 20 4E 30 75 00 00
2025-11-08T02:05:27.204486,32.964,can0  206  [16]  9B 0C DA 07 A3 0C 99 C6 E9 07 BF 0C AB 0C 00 00
2025-11-08T02:05:27.213604,32.973,can0  204  [16]  17 1A 50 46 50 46 50 46 FA 19 20 4E 30 75 00 00
2025-11-08T02:05:27.213995,32.973,can0  041  [04]  B5 00 02 00
2025-11-08T02:05:27.214059,32.973,can0  204  [16]  17 1A 50 46 50 46 50 46 FA 19 20 4E 30 75 00 00
2025-11-08T02:05:27.214094,32.973,can0  206  [16]  9B 0C D6 07 9B 0C 99 C6 F2 07 C3 0C AF 0C 00 00
2025-11-08T02:05:27.214124,32.973,can0  204  [16]  17 1A 50 46 50 46 50 46 FA 19 20 4E 30 75 00 00
2025-11-08T02:05:27.214392,32.974,can0  204  [16]  17 1A 50 46 50 46 50 46 FA 19 20 4E 30 75 00 00
2025-11-08T02:05:27.217488,32.977,can0  204  [16]  17 1A 50 46 50 46 50 46 FA 19 20 4E 30 75 00 00
2025-11-08T02:05:27.217568,32.977,can0  206  [16]  A3 0C D8 07 9F 0C 99 C6 EB 07 BF 0C AB 0C 00 00
2025-11-08T02:05:27.217603,32.977,can0  204  [16]  17 1A 50 46 50 46 50 46 FA 19 20 4E 30 75 00 00
2025-11-08T02:05:27.217634,32.977,can0  041  [04]  A7 00 02 00
2025-11-08T02:05:27.217668,32.977,can0  204  [16]  17 1A 50 46 50 46 50 46 FA 19 20 4E 30 75 00 00
2025-11-08T02:05:27.219016,32.978,can0  206  [16]  A3 0C D8 07 A7 0C DA DC ED 07 C7 0C A3 0C 00 00
2025-11-08T02:05:27.224031,32.983,can0  204  [16]  17 1A 50 46 50 46 50 46 FA 19 20 4E 30 75 00 00
2025-11-08T02:05:27.232655,32.992,can0  204  [16]  17 1A 50 46 50 46 50 46 FA 19 20 4E 30 75 00 00
