Timestamp,Elapsed_Time_s,CAN_Message
2025-08-08T20:20:27.078196,3.637,"can1  206  [16]  42 64 8E 1C FD 65 5C 1B 90 18 E1 67 0E 62 00 00
  can1  206  [16]  1A 64 31 1C 0C 65 73 1B 58 18 90 67 CC 60 00 00"
2025-08-08T20:20:27.585129,4.144,"can1  206  [16]  C9 63 50 1C E3 64 6D 1B 61 18 B9 67 7B 60 00 00
  can1  206  [16]  C9 63 62 1C D5 65 5C 1B 6F 18 E1 67 45 61 00 00"
2025-08-08T20:20:27.585129,4.144,"can1  206  [16]  1A 64 75 1C 0C 65 56 1B 94 18 90 67 6D 61 00 00
  can1  206  [16]  A1 63 81 1C D5 65 68 1B B5 18 31 68 95 61 00 00"
2025-08-08T20:20:27.585129,4.144,"can1  206  [16]  A1 63 81 1C 4E 66 79 1B BF 18 31 68 BD 61 00 00
  can1  206  [16]  F2 63 31 1C D5 65 79 1B 82 18 09 68 CC 60 00 00"
2025-08-08T20:20:27.616628,4.175,"can1  206  [16]  A1 63 62 1C 0C 65 73 1B 99 18 E1 67 1C 61 00 00
  can1  206  [16]  A1 63 6E 1C 6A 64 6D 1B 86 18 09 68 6D 61 00 00"
2025-08-08T20:20:27.616628,4.175,"can1  206  [16]  A1 63 8E 1C 6A 64 6D 1B 99 18 31 68 95 61 00 00
  can1  206  [16]  79 63 94 1C 93 64 6D 1B BF 18 31 68 BD 61 00 00"
2025-08-08T20:20:28.077594,4.636,"can1  206  [16]  6A 64 3D 1C 42 64 73 1B 86 18 09 68 A3 60 00 00
  can1  206  [16]  A1 63 56 1C 1A 64 73 1B 90 18 E1 67 F4 60 00 00"
2025-08-08T20:20:28.077594,4.636,"can1  206  [16]  1A 64 75 1C 42 64 73 1B 8B 18 31 68 95 61 00 00
  can1  206  [16]  A1 63 81 1C 6A 64 6D 1B 86 18 31 68 E6 61 00 00"
2025-08-08T20:20:28.108841,4.667,"can1  206  [16]  F2 63 25 1C 1A 64 84 1B 58 18 90 67 A3 60 00 00
  can1  206  [16]  A1 63 43 1C 1A 64 90 1B 61 18 90 67 CC 60 00 00"
2025-08-08T20:20:28.108841,4.667,"can1  206  [16]  79 63 56 1C 1A 64 84 1B 66 18 90 67 F4 60 00 00
  can1  206  [16]  A1 63 68 1C 1A 64 84 1B 6F 18 09 68 1C 61 00 00"
2025-08-08T20:20:28.108841,4.667,"can1  206  [16]  79 63 81 1C 6A 64 79 1B 86 18 E1 67 45 61 00 00
  can1  206  [16]  93 64 8E 1C 1A 64 62 1B 90 18 31 68 BD 61 00 00"
2025-08-08T20:20:28.584153,5.143,"can1  206  [16]  D5 65 31 1C C9 63 84 1B 5D 18 E1 67 CC 60 00 00
  can1  206  [16]  E3 64 50 1C 79 63 84 1B 6B 18 40 67 A3 60 00 00"
2025-08-08T20:20:28.584153,5.143,"can1  206  [16]  E3 64 62 1C A1 63 84 1B 6F 18 17 67 45 61 00 00
  can1  206  [16]  BB 64 6E 1C A1 63 68 1B 7D 18 68 67 6D 61 00 00"
2025-08-08T20:20:28.584153,5.143,"can1  206  [16]  E3 64 81 1C 50 63 62 1B 8B 18 E1 67 BD 61 00 00
  can1  206  [16]  FD 65 1F 1C A1 63 79 1B 58 18 E1 67 7B 60 00 00"
2025-08-08T20:20:28.586201,5.145,"can1  206  [16]  0C 65 43 1C A1 63 73 1B 61 18 68 67 CC 60 00 00
  can1  206  [16]  E3 64 56 1C C9 63 62 1B 6B 18 90 67 45 61 00 00"
2025-08-08T20:20:28.586201,5.145,"can1  206  [16]  D5 65 6E 1C 50 63 62 1B 78 18 90 67 6D 61 00 00
  can1  206  [16]  C9 63 7B 1C C9 63 5C 1B 82 18 09 68 95 61 00 00"
2025-08-08T20:20:29.073904,5.632,"can1  206  [16]  1A 64 8E 1C A1 63 5C 1B 86 18 E1 67 BD 61 00 00
  can1  206  [16]  0C 65 31 1C 79 63 79 1B 54 18 40 67 A3 60 00 00"
2025-08-08T20:20:29.073904,5.632,"can1  206  [16]  D5 65 50 1C A1 63 6D 1B 61 18 90 67 F4 60 00 00
  can1  206  [16]  D5 65 68 1C C9 63 4B 1B 74 18 90 67 F4 60 00 00"
2025-08-08T20:20:29.073904,5.632,"can1  206  [16]  BB 64 81 1C F2 63 3A 1B 78 18 09 68 45 61 00 00
  can1  206  [16]  D5 65 87 1C F2 63 3A 1B 90 18 90 67 95 61 00 00"
2025-08-08T20:20:29.073904,5.632,"can1  206  [16]  93 64 94 1C 42 64 2F 1B 9E 18 68 67 E6 61 00 00
  can1  206  [16]  BB 64 3D 1C C9 63 34 1B 74 18 68 67 F4 60 00 00"
2025-08-08T20:20:29.580557,6.139,"can1  206  [16]  C9 63 62 1C A1 63 34 1B 8B 18 40 67 1C 61 00 00
  can1  206  [16]  42 64 6E 1C 79 63 34 1B 7D 18 17 67 45 61 00 00"
2025-08-08T20:20:29.580557,6.139,"can1  206  [16]  42 64 81 1C F2 63 3A 1B 99 18 09 68 6D 61 00 00
  can1  206  [16]  6A 64 87 1C 6A 64 34 1B 99 18 09 68 E6 61 00 00
  can1  206  [16]  42 64 43 1C F2 63 40 1B 5D 18 E1 67 7B 60 00 00"
2025-08-08T20:20:29.580557,6.139,"can1  206  [16]  F2 63 68 1C C9 63 45 1B 90 18 90 67 A3 60 00 00
  can1  206  [16]  C9 63 68 1C 42 64 45 1B 82 18 E1 67 1C 61 00 00"
2025-08-08T20:20:29.587934,6.146,"can1  206  [16]  79 63 75 1C 1A 64 4B 1B 8B 18 09 68 45 61 00 00
  can1  206  [16]  42 64 8E 1C F2 63 56 1B 99 18 09 68 6D 61 00 00"
2025-08-08T20:20:29.587934,6.146,"can1  206  [16]  1A 64 8E 1C 6A 64 4B 1B A2 18 31 68 E6 61 00 00
  can1  206  [16]  42 64 50 1C 79 63 3A 1B 5D 18 B9 67 F4 60 00 00"
2025-08-08T20:20:30.073706,6.632,"can1  206  [16]  1A 64 68 1C 79 63 3A 1B 74 18 E1 67 F4 60 00 00
  can1  206  [16]  79 63 7B 1C A1 63 40 1B 82 18 90 67 1C 61 00 00"
2025-08-08T20:20:30.073706,6.632,"can1  206  [16]  A1 63 87 1C C9 63 45 1B A7 18 31 68 95 61 00 00
  can1  206  [16]  BB 64 8E 1C 6A 64 4B 1B 99 18 5A 68 E6 61 00 00"
2025-08-08T20:20:30.073706,6.632,"can1  206  [16]  76 66 3D 1C 50 63 51 1B 6F 18 09 68 CC 60 00 00
  can1  206  [16]  FD 65 68 1C F2 63 45 1B 86 18 E1 67 1C 61 00 00"
2025-08-08T20:20:30.073706,6.632,"can1  206  [16]  9F 66 6E 1C C9 63 4B 1B 99 18 31 68 6D 61 00 00
  can1  206  [16]  F2 63 87 1C C9 63 51 1B 94 18 31 68 6D 61 00 00"
2025-08-08T20:20:30.073706,6.632,"can1  206  [16]  42 64 8E 1C F2 63 56 1B 8B 18 82 68 95 61 00 00
  can1  206  [16]  42 64 87 1C 0C 65 4B 1B 94 18 31 68 0E 62 00 00"
2025-08-08T20:20:30.582302,7.141,"can1  206  [16]  42 64 56 1C F2 63 3A 1B 58 18 B9 67 45 61 00 00
  can1  206  [16]  C9 63 6E 1C F2 63 40 1B 74 18 B9 67 6D 61 00 00"
2025-08-08T20:20:30.582302,7.141,can1  206  [16]  6A 64 87 1C C9 63 40 1B 7D 18 09 68 6D 61 00 00
2025-08-08T20:20:30.582302,7.141,"can1  206  [16]  F2 63 87 1C 42 64 4B 1B 99 18 31 68 BD 61 00 00
  can1  206  [16]  6A 64 37 1C F2 63 51 1B 5D 18 B9 67 CC 60 00 00
  can1  206  [16]  C9 63 5C 1C A1 63 40 1B 6B 18 E1 67 1C 61 00 00"
2025-08-08T20:20:30.582302,7.141,"can1  206  [16]  9F 66 68 1C C9 63 3A 1B 7D 18 B9 67 6D 61 00 00
  can1  206  [16]  D5 65 7B 1C 1A 64 34 1B 94 18 B9 67 BD 61 00 00"
2025-08-08T20:20:30.582302,7.141,"can1  206  [16]  4E 66 13 1C C9 63 4B 1B 7D 18 40 67 A3 60 00 00
  can1  206  [16]  FD 65 3D 1C C9 63 40 1B 8B 18 40 67 7B 60 00 00"
2025-08-08T20:20:31.087017,7.645,"can1  206  [16]  0C 65 5C 1C A1 63 40 1B 90 18 68 67 F4 60 00 00
  can1  206  [16]  D5 65 6E 1C C9 63 40 1B 9E 18 E1 67 45 61 00 00"
2025-08-08T20:20:31.090360,7.649,"can1  206  [16]  BB 64 7B 1C 1A 64 45 1B 9E 18 90 67 95 61 00 00
  can1  206  [16]  BB 64 8E 1C 42 64 45 1B B0 18 E1 67 E6 61 00 00"
2025-08-08T20:20:31.090360,7.649,"can1  206  [16]  D5 65 31 1C 1A 64 5C 1B 61 18 B9 67 CC 60 00 00
  can1  206  [16]  BB 64 56 1C C9 63 5C 1B 66 18 68 67 F4 60 00 00"
2025-08-08T20:20:31.090360,7.649,can1  206  [16]  D5 65 62 1C C9 63 4B 1B 6F 18 E1 67 45 61 00 00
2025-08-08T20:20:31.090360,7.649,"can1  206  [16]  1A 64 75 1C 1A 64 62 1B 78 18 09 68 6D 61 00 00
  can1  206  [16]  A1 63 7B 1C 1A 64 6D 1B 8B 18 31 68 6D 61 00 00
  can1  206  [16]  A1 63 94 1C 1A 64 79 1B 94 18 5A 68 BD 61 00 00"
2025-08-08T20:20:31.579548,8.138,can1  206  [16]  93 64 37 1C F2 63 79 1B 4A 18 E1 67 CC 60 00 00
2025-08-08T20:20:31.583473,8.142,"can1  206  [16]  6A 64 5C 1C F2 63 5C 1B 58 18 E1 67 1C 61 00 00
  can1  206  [16]  42 64 68 1C 1A 64 68 1B 61 18 09 68 95 61 00 00
  can1  206  [16]  6A 64 7B 1C 1A 64 6D 1B 6F 18 B9 67 BD 61 00 00"
2025-08-08T20:20:31.583473,8.142,"can1  206  [16]  FD 65 1F 1C C9 63 84 1B 41 18 68 67 7B 60 00 00
  can1  206  [16]  1A 64 56 1C A1 63 7F 1B 46 18 68 67 CC 60 00 00"
2025-08-08T20:20:31.583473,8.142,"can1  206  [16]  1A 64 68 1C A1 63 6D 1B 4F 18 B9 67 1C 61 00 00
  can1  206  [16]  28 63 81 1C A1 63 62 1B 58 18 09 68 6D 61 00 00"
2025-08-08T20:20:31.583473,8.142,"can1  206  [16]  93 64 8E 1C 1A 64 73 1B 6F 18 31 68 95 61 00 00
  can1  206  [16]  E3 64 9A 1C 6A 64 7F 1B 74 18 31 68 E6 61 00 00"
2025-08-08T20:20:32.086948,8.645,"can1  206  [16]  1A 64 43 1C F2 63 7F 1B 41 18 B9 67 7B 60 00 00
  can1  206  [16]  BB 64 75 1C C9 63 68 1B 4A 18 90 67 1C 61 00 00"
2025-08-08T20:20:32.091843,8.650,"can1  206  [16]  1A 64 87 1C 42 64 68 1B 58 18 E1 67 6D 61 00 00
  can1  206  [16]  0C 65 8E 1C F2 63 5C 1B 66 18 E1 67 E6 61 00 00"
2025-08-08T20:20:32.091843,8.650,"can1  206  [16]  9F 66 31 1C F2 63 79 1B 38 18 40 67 53 60 00 00
  can1  206  [16]  68 67 50 1C 1A 64 68 1B 46 18 68 67 7B 60 00 00"
2025-08-08T20:20:32.091843,8.650,"can1  206  [16]  26 66 62 1C F2 63 62 1B 4A 18 68 67 F4 60 00 00
  can1  206  [16]  D5 65 75 1C 28 63 45 1B 54 18 17 67 6D 61 00 00"
2025-08-08T20:20:32.091843,8.650,"can1  206  [16]  D5 65 87 1C 50 63 4B 1B 74 18 40 67 0E 62 00 00
  can1  206  [16]  EF 66 1F 1C 28 63 73 1B 4F 18 9F 66 45 61 00 00"
2025-08-08T20:20:32.577683,9.136,"can1  206  [16]  FD 65 43 1C 00 63 62 1B 5D 18 C7 66 CC 60 00 00
  can1  206  [16]  E3 64 5C 1C 28 63 51 1B 58 18 EF 66 CC 60 00 00"
2025-08-08T20:20:32.581352,9.140,"can1  206  [16]  0C 65 6E 1C 50 63 40 1B 61 18 68 67 6D 61 00 00
  can1  206  [16]  E3 64 87 1C 50 63 40 1B 58 18 40 67 95 61 00 00"
2025-08-08T20:20:32.582671,9.141,"can1  206  [16]  9F 66 94 1C 79 63 3A 1B 66 18 68 67 E6 61 00 00
  can1  206  [16]  68 67 31 1C C9 63 56 1B 26 18 EF 66 CC 60 00 00"
2025-08-08T20:20:32.583683,9.142,"can1  206  [16]  76 66 56 1C 79 63 56 1B 3D 18 EF 66 CC 60 00 00
  can1  206  [16]  C7 66 75 1C A1 63 40 1B 4A 18 68 67 45 61 00 00"
2025-08-08T20:20:32.584742,9.143,"can1  206  [16]  0C 65 7B 1C 42 64 3A 1B 61 18 90 67 45 61 00 00
  can1  206  [16]  BB 64 9A 1C 6A 64 40 1B 6F 18 E1 67 BD 61 00 00"
2025-08-08T20:20:33.086002,9.644,"can1  206  [16]  26 66 2B 1C 1A 64 5C 1B 38 18 68 67 7B 60 00 00
  can1  206  [16]  D5 65 5C 1C 1A 64 51 1B 4A 18 40 67 F4 60 00 00"
2025-08-08T20:20:33.086002,9.644,"can1  206  [16]  D5 65 62 1C 42 64 45 1B 4A 18 68 67 45 61 00 00
  can1  206  [16]  0C 65 7B 1C 42 64 3A 1B 58 18 09 68 95 61 00 00"
2025-08-08T20:20:33.086002,9.644,"can1  206  [16]  4E 66 7B 1C F2 63 40 1B 6B 18 31 68 45 61 00 00
  can1  206  [16]  D5 65 9A 1C 42 64 3A 1B 74 18 31 68 BD 61 00 00"
2025-08-08T20:20:33.086002,9.644,"can1  206  [16]  93 64 3D 1C C9 63 45 1B 41 18 E1 67 CC 60 00 00
  can1  206  [16]  6A 64 56 1C A1 63 3A 1B 4A 18 B9 67 CC 60 00 00"
2025-08-08T20:20:33.093070,9.651,"can1  206  [16]  F2 63 7B 1C A1 63 3A 1B 54 18 09 68 45 61 00 00
  can1  206  [16]  93 64 81 1C C9 63 3A 1B 61 18 09 68 BD 61 00 00"
2025-08-08T20:20:33.576318,10.135,"can1  206  [16]  42 64 19 1C A1 63 51 1B 3D 18 68 67 53 60 00 00
  can1  206  [16]  F2 63 3D 1C C9 63 4B 1B 4A 18 68 67 2B 60 00 00"
2025-08-08T20:20:33.576318,10.135,"can1  206  [16]  C9 63 50 1C C9 63 45 1B 4F 18 68 67 CC 60 00 00
  can1  206  [16]  1A 64 68 1C 1A 64 3A 1B 4F 18 17 67 45 61 00 00"
2025-08-08T20:20:33.576318,10.135,"can1  206  [16]  F2 63 75 1C 42 64 3A 1B 5D 18 90 67 6D 61 00 00
  can1  206  [16]  79 63 8E 1C 42 64 40 1B 6B 18 09 68 BD 61 00 00"
2025-08-08T20:20:33.576318,10.135,"can1  206  [16]  1A 64 31 1C F2 63 5C 1B 38 18 68 67 53 60 00 00
  can1  206  [16]  6A 64 50 1C C9 63 51 1B 4A 18 90 67 7B 60 00 00"
2025-08-08T20:20:33.576318,10.135,"can1  206  [16]  D5 65 68 1C 1A 64 40 1B 58 18 B9 67 45 61 00 00
  can1  206  [16]  F2 63 81 1C F2 63 40 1B 66 18 B9 67 45 61 00 00"
2025-08-08T20:20:34.083586,10.642,"can1  206  [16]  6A 64 81 1C C9 63 40 1B 7D 18 B9 67 95 61 00 00
  can1  206  [16]  C9 63 9A 1C 42 64 40 1B 94 18 09 68 E6 61 00 00"
2025-08-08T20:20:34.083586,10.642,"can1  206  [16]  F2 63 3D 1C F2 63 62 1B 5D 18 B9 67 CC 60 00 00
  can1  206  [16]  1A 64 62 1C A1 63 6D 1B 6F 18 90 67 CC 60 00 00"
2025-08-08T20:20:34.083586,10.642,"can1  206  [16]  C9 63 6E 1C C9 63 6D 1B 7D 18 B9 67 1C 61 00 00
  can1  206  [16]  0C 65 75 1C C9 63 68 1B 8B 18 E1 67 45 61 00 00"
2025-08-08T20:20:34.083586,10.642,"can1  206  [16]  F2 63 8E 1C 42 64 68 1B 90 18 31 68 E6 61 00 00
  can1  206  [16]  BB 64 37 1C C9 63 73 1B 58 18 B9 67 7B 60 00 00"
2025-08-08T20:20:34.083586,10.642,"can1  206  [16]  4E 66 62 1C A1 63 68 1B 6F 18 90 67 F4 60 00 00
  can1  206  [16]  4E 66 75 1C F2 63 62 1B 78 18 E1 67 45 61 00 00"
2025-08-08T20:20:34.574938,11.133,"can1  206  [16]  BB 64 81 1C C9 63 62 1B 86 18 09 68 95 61 00 00
  can1  206  [16]  BB 64 8E 1C F2 63 5C 1B 94 18 09 68 E6 61 00 00"
2025-08-08T20:20:34.574938,11.133,"can1  206  [16]  76 66 31 1C 50 63 51 1B 61 18 EF 66 7B 60 00 00
  can1  206  [16]  76 66 50 1C 00 63 40 1B 6F 18 EF 66 1C 61 00 00"
2025-08-08T20:20:34.574938,11.133,"can1  206  [16]  76 66 68 1C 00 63 3A 1B 78 18 40 67 45 61 00 00
  can1  206  [16]  E3 64 6E 1C 28 63 3A 1B 8B 18 40 67 45 61 00 00"
2025-08-08T20:20:34.574938,11.133,"can1  206  [16]  BB 64 8E 1C 79 63 3A 1B 90 18 B9 67 45 61 00 00
  can1  206  [16]  1A 64 8E 1C C9 63 3A 1B 9E 18 E1 67 5F 62 00 00"
2025-08-08T20:20:34.574938,11.133,"can1  206  [16]  6A 64 3D 1C A1 63 34 1B 61 18 B9 67 F4 60 00 00
  can1  206  [16]  42 64 68 1C 1A 64 3A 1B 6F 18 B9 67 F4 60 00 00"
2025-08-08T20:20:35.081521,11.640,"can1  206  [16]  C9 63 6E 1C 93 64 40 1B 82 18 E1 67 6D 61 00 00
  can1  206  [16]  93 64 87 1C D5 65 40 1B 94 18 31 68 E6 61 00 00"
2025-08-08T20:20:35.081521,11.640,"can1  206  [16]  6A 64 25 1C 0C 65 51 1B 5D 18 B9 67 7B 60 00 00
  can1  206  [16]  C9 63 50 1C D5 65 4B 1B 6F 18 68 67 CC 60 00 00"
2025-08-08T20:20:35.081521,11.640,"can1  206  [16]  C9 63 68 1C D5 65 40 1B 66 18 90 67 F4 60 00 00
  can1  206  [16]  A1 63 75 1C 26 66 40 1B 7D 18 31 68 45 61 00 00"
2025-08-08T20:20:35.081521,11.640,"can1  206  [16]  C9 63 87 1C FD 65 3A 1B 8B 18 09 68 6D 61 00 00
  can1  206  [16]  28 63 87 1C 26 66 40 1B 9E 18 09 68 95 61 00 00"
2025-08-08T20:20:35.081521,11.640,"can1  206  [16]  00 63 94 1C 76 66 40 1B A2 18 82 68 0E 62 00 00
  can1  206  [16]  1A 64 50 1C 0C 65 3A 1B 66 18 09 68 1C 61 00 00"
2025-08-08T20:20:35.589065,12.147,"can1  206  [16]  93 64 6E 1C 0C 65 3A 1B 82 18 E1 67 45 61 00 00
  can1  206  [16]  93 64 7B 1C FD 65 34 1B 8B 18 E1 67 95 61 00 00"
2025-08-08T20:20:35.589065,12.147,"can1  206  [16]  F2 63 87 1C 26 66 29 1B 99 18 31 68 BD 61 00 00
  can1  206  [16]  6A 64 37 1C D5 65 4B 1B 5D 18 90 67 7B 60 00 00"
2025-08-08T20:20:35.589065,12.147,"can1  206  [16]  C9 63 5C 1C FD 65 40 1B 66 18 90 67 F4 60 00 00
  can1  206  [16]  79 63 75 1C FD 65 3A 1B 74 18 B9 67 45 61 00 00"
2025-08-08T20:20:35.589065,12.147,"can1  206  [16]  79 63 7B 1C FD 65 34 1B 86 18 E1 67 95 61 00 00
  can1  206  [16]  42 64 8E 1C 26 66 3A 1B 94 18 09 68 E6 61 00 00
  can1  206  [16]  FD 65 31 1C FD 65 56 1B 5D 18 B9 67 A3 60 00 00"
2025-08-08T20:20:35.597224,12.156,"can1  206  [16]  D5 65 56 1C E3 64 62 1B 61 18 E1 67 CC 60 00 00
  can1  206  [16]  0C 65 75 1C D5 65 5C 1B 74 18 B9 67 45 61 00 00"
2025-08-08T20:20:36.081651,12.640,"can1  206  [16]  0C 65 7B 1C D5 65 5C 1B 86 18 B9 67 6D 61 00 00
  can1  206  [16]  4E 66 81 1C FD 65 5C 1B 90 18 E1 67 E6 61 00 00"
2025-08-08T20:20:36.081651,12.640,"can1  206  [16]  C7 66 2B 1C D5 65 6D 1B 5D 18 B9 67 F4 60 00 00
  can1  206  [16]  C7 66 43 1C E3 64 68 1B 5D 18 68 67 1C 61 00 00"
2025-08-08T20:20:36.081651,12.640,"can1  206  [16]  76 66 68 1C D5 65 5C 1B 6B 18 90 67 1C 61 00 00
  can1  206  [16]  4E 66 6E 1C FD 65 5C 1B 7D 18 B9 67 45 61 00 00"
2025-08-08T20:20:36.081651,12.640,"can1  206  [16]  26 66 87 1C FD 65 62 1B 86 18 E1 67 6D 61 00 00
  can1  206  [16]  4E 66 87 1C 9F 66 62 1B 99 18 E1 67 E6 61 00 00"
2025-08-08T20:20:36.081651,12.640,"can1  206  [16]  EF 66 31 1C D5 65 6D 1B 58 18 E1 67 F4 60 00 00
  can1  206  [16]  9F 66 5C 1C D5 65 5C 1B 6B 18 90 67 1C 61 00 00"
2025-08-08T20:20:36.574940,13.133,"can1  206  [16]  76 66 68 1C 0C 65 4B 1B 7D 18 B9 67 1C 61 00 00
  can1  206  [16]  C7 66 81 1C FD 65 45 1B 86 18 90 67 6D 61 00 00"
2025-08-08T20:20:36.574940,13.133,"can1  206  [16]  EF 66 7B 1C 26 66 40 1B 94 18 E1 67 45 61 00 00
  can1  206  [16]  4E 66 87 1C EF 66 40 1B 9E 18 31 68 95 61 00 00"
2025-08-08T20:20:36.574940,13.133,"can1  206  [16]  4E 66 87 1C 17 67 4B 1B A7 18 31 68 5F 62 00 00
  can1  206  [16]  68 67 5C 1C FD 65 51 1B 6B 18 31 68 95 61 00 00"
2025-08-08T20:20:36.574940,13.133,"can1  206  [16]  FD 65 75 1C D5 65 62 1B 86 18 09 68 6D 61 00 00
  can1  206  [16]  0C 65 81 1C FD 65 62 1B 94 18 31 68 6D 61 00 00"
2025-08-08T20:20:36.574940,13.133,"can1  206  [16]  93 64 87 1C 76 66 6D 1B 9E 18 09 68 6D 61 00 00
  can1  206  [16]  6A 64 8E 1C EF 66 73 1B A7 18 82 68 6D 61 00 00"
2025-08-08T20:20:37.081191,13.640,"can1  206  [16]  FD 65 87 1C 40 67 79 1B B5 18 AA 68 BD 61 00 00
  can1  206  [16]  68 67 75 1C 4E 66 3A 1B 7D 18 31 68 BD 61 00 00"
2025-08-08T20:20:37.081191,13.640,"can1  206  [16]  82 68 19 1C BB 64 68 1B 54 18 90 67 2B 60 00 00
  can1  206  [16]  17 67 43 1C E3 64 62 1B 6F 18 68 67 2B 60 00 00"
2025-08-08T20:20:37.081191,13.640,"can1  206  [16]  68 67 62 1C E3 64 68 1B 74 18 90 67 53 60 00 00
  can1  206  [16]  EF 66 6E 1C AD 65 73 1B 78 18 E1 67 A3 60 00 00"
2025-08-08T20:20:37.081191,13.640,"can1  206  [16]  17 67 75 1C D5 65 79 1B 8B 18 E1 67 45 61 00 00
  can1  206  [16]  90 67 81 1C D5 65 73 1B 90 18 E1 67 95 61 00 00"
2025-08-08T20:20:37.081191,13.640,"can1  206  [16]  EF 66 8E 1C 76 66 6D 1B 90 18 E1 67 0E 62 00 00
  can1  206  [16]  C7 66 43 1C 1A 64 62 1B 4F 18 B9 67 A3 60 00 00"
2025-08-08T20:20:37.588075,14.146,"can1  206  [16]  EF 66 68 1C C9 63 62 1B 66 18 68 67 CC 60 00 00
  can1  206  [16]  68 67 6E 1C 1A 64 6D 1B 6F 18 68 67 45 61 00 00"
2025-08-08T20:20:37.588075,14.146,"can1  206  [16]  9F 66 7B 1C BB 64 73 1B 82 18 E1 67 6D 61 00 00
  can1  206  [16]  EF 66 8E 1C 26 66 56 1B 99 18 09 68 E6 61 00 00"
2025-08-08T20:20:37.588075,14.146,"can1  206  [16]  40 67 43 1C 0C 65 45 1B 5D 18 B9 67 A3 60 00 00
  can1  206  [16]  31 68 68 1C E3 64 3A 1B 74 18 B9 67 F4 60 00 00"
2025-08-08T20:20:37.588075,14.146,"can1  206  [16]  4E 66 6E 1C 0C 65 3A 1B 7D 18 90 67 45 61 00 00
  can1  206  [16]  93 64 8E 1C E3 64 34 1B 8B 18 90 67 6D 61 00 00"
2025-08-08T20:20:37.588075,14.146,"can1  206  [16]  B9 67 87 1C D5 65 34 1B 94 18 B9 67 BD 61 00 00
  can1  206  [16]  31 68 31 1C 1A 64 34 1B 5D 18 EF 66 A3 60 00 00"
2025-08-08T20:20:38.077998,14.636,"can1  206  [16]  09 68 62 1C C9 63 2F 1B 6B 18 EF 66 F4 60 00 00
  can1  206  [16]  B9 67 6E 1C F2 63 3A 1B 78 18 C7 66 45 61 00 00"
2025-08-08T20:20:38.077998,14.636,"can1  206  [16]  26 66 75 1C C9 63 68 1B 8B 18 68 67 45 61 00 00
  can1  206  [16]  26 66 87 1C F2 63 73 1B 94 18 90 67 BD 61 00 00"
2025-08-08T20:20:38.077998,14.636,"can1  206  [16]  4E 66 37 1C 79 63 7F 1B 5D 18 90 67 A3 60 00 00
  can1  206  [16]  4E 66 49 1C 79 63 7F 1B 6F 18 68 67 F4 60 00 00"
2025-08-08T20:20:38.077998,14.636,"can1  206  [16]  EF 66 68 1C A1 63 7F 1B 78 18 90 67 1C 61 00 00
  can1  206  [16]  E3 64 7B 1C F2 63 84 1B 8B 18 90 67 45 61 00 00"
2025-08-08T20:20:38.077998,14.636,"can1  206  [16]  E3 64 7B 1C F2 63 84 1B 99 18 B9 67 45 61 00 00
  can1  206  [16]  BB 64 75 1C 6A 64 7F 1B 9E 18 09 68 E6 61 00 00"
2025-08-08T20:20:38.586313,15.145,"can1  206  [16]  EF 66 43 1C A1 63 73 1B 58 18 68 67 F4 60 00 00
  can1  206  [16]  D5 65 56 1C 50 63 68 1B 74 18 B9 67 1C 61 00 00"
2025-08-08T20:20:38.586313,15.145,"can1  206  [16]  26 66 6E 1C 79 63 62 1B 78 18 09 68 45 61 00 00
  can1  206  [16]  E3 64 6E 1C C9 63 68 1B 90 18 09 68 6D 61 00 00"
2025-08-08T20:20:38.586313,15.145,"can1  206  [16]  0C 65 75 1C 42 64 40 1B 99 18 09 68 BD 61 00 00
  can1  206  [16]  17 67 3D 1C C9 63 3A 1B 58 18 90 67 A3 60 00 00"
2025-08-08T20:20:38.586313,15.145,"can1  206  [16]  93 64 50 1C A1 63 34 1B 74 18 90 67 CC 60 00 00
  can1  206  [16]  A1 63 56 1C 79 63 3A 1B 82 18 31 68 45 61 00 00"
2025-08-08T20:20:38.586313,15.145,"can1  206  [16]  BB 64 6E 1C C9 63 34 1B 90 18 09 68 6D 61 00 00
  can1  206  [16]  28 63 75 1C 1A 64 3A 1B A2 18 82 68 6D 61 00 00"
2025-08-08T20:20:39.082044,15.640,"can1  206  [16]  28 63 75 1C 93 64 40 1B A7 18 5A 68 E6 61 00 00
  can1  206  [16]  E3 64 3D 1C A1 63 34 1B 61 18 E1 67 1C 61 00 00"
2025-08-08T20:20:39.082044,15.640,"can1  206  [16]  93 64 5C 1C 1A 64 45 1B 78 18 09 68 45 61 00 00
  can1  206  [16]  1A 64 68 1C 1A 64 51 1B 8B 18 E1 67 BD 61 00 00"
2025-08-08T20:20:39.082044,15.640,"can1  206  [16]  93 64 13 1C F2 63 62 1B 46 18 40 67 A3 60 00 00
  can1  206  [16]  BB 64 2B 1C C9 63 62 1B 4A 18 40 67 F4 60 00 00"
2025-08-08T20:20:39.082044,15.640,"can1  206  [16]  C9 63 49 1C C9 63 56 1B 58 18 68 67 F4 60 00 00
  can1  206  [16]  0C 65 56 1C C9 63 4B 1B 66 18 68 67 45 61 00 00"
2025-08-08T20:20:39.082044,15.640,"can1  206  [16]  1A 64 6E 1C F2 63 45 1B 78 18 B9 67 95 61 00 00
  can1  206  [16]  6A 64 6E 1C 42 64 45 1B 82 18 90 67 0E 62 00 00"
2025-08-08T20:20:39.588918,16.147,"can1  206  [16]  1A 64 25 1C A1 63 56 1B 46 18 68 67 95 61 00 00
  can1  206  [16]  D5 65 43 1C 50 63 51 1B 58 18 68 67 BD 61 00 00"
2025-08-08T20:20:39.588918,16.147,"can1  206  [16]  76 66 E3 1B 00 63 79 1B 41 18 EF 66 7B 60 00 00
  can1  206  [16]  E3 64 06 1C D8 62 6D 1B 46 18 EF 66 7B 60 00 00"
2025-08-08T20:20:39.588918,16.147,"can1  206  [16]  1A 64 1F 1C 00 63 56 1B 4A 18 17 67 7B 60 00 00
  can1  206  [16]  42 64 37 1C 79 63 4B 1B 54 18 40 67 CC 60 00 00"
2025-08-08T20:20:39.588918,16.147,"can1  206  [16]  BB 64 49 1C A1 63 40 1B 58 18 90 67 45 61 00 00
  can1  206  [16]  1A 64 56 1C A1 63 40 1B 66 18 B9 67 E6 61 00 00"
2025-08-08T20:20:39.588918,16.147,"can1  206  [16]  1A 64 F4 1B 50 63 62 1B 26 18 17 67 7B 60 00 00
  can1  206  [16]  C9 63 1F 1C 00 63 5C 1B 4A 18 C7 66 2B 60 00 00"
2025-08-08T20:20:40.083403,16.642,"can1  206  [16]  A1 63 43 1C 79 63 51 1B 54 18 EF 66 53 60 00 00
  can1  206  [16]  1A 64 49 1C 79 63 40 1B 4A 18 17 67 F4 60 00 00"
2025-08-08T20:20:40.083403,16.642,"can1  206  [16]  C9 63 5C 1C A1 63 45 1B 66 18 40 67 6D 61 00 00
  can1  206  [16]  C9 63 68 1C A1 63 56 1B 8B 18 90 67 BD 61 00 00"
2025-08-08T20:20:40.083403,16.642,"can1  206  [16]  6A 64 0C 1C 50 63 73 1B 58 18 EF 66 7B 60 00 00
  can1  206  [16]  BB 64 2B 1C 28 63 73 1B 58 18 40 67 CC 60 00 00"
2025-08-08T20:20:40.083403,16.642,"can1  206  [16]  93 64 56 1C 50 63 68 1B 5D 18 68 67 45 61 00 00
  can1  206  [16]  6A 64 56 1C A1 63 68 1B 6B 18 90 67 45 61 00 00"
2025-08-08T20:20:40.083403,16.642,"can1  206  [16]  50 63 62 1C F2 63 68 1B 74 18 09 68 BD 61 00 00
  can1  206  [16]  F2 63 0C 1C 50 63 7F 1B 4A 18 90 67 7B 60 00 00"
2025-08-08T20:20:40.580432,17.139,"can1  206  [16]  1A 64 37 1C 50 63 7F 1B 58 18 68 67 CC 60 00 00
  can1  206  [16]  A1 63 50 1C 79 63 51 1B 58 18 B9 67 45 61 00 00"
2025-08-08T20:20:40.611304,17.170,"can1  206  [16]  6A 64 62 1C 79 63 3A 1B 66 18 90 67 6D 61 00 00
  can1  206  [16]  A1 63 75 1C A1 63 3A 1B 74 18 90 67 6D 61 00 00"
2025-08-08T20:20:40.611304,17.170,"can1  206  [16]  28 63 7B 1C C9 63 3A 1B 82 18 B9 67 E6 61 00 00
  can1  206  [16]  A1 63 25 1C A1 63 4B 1B 4A 18 68 67 CC 60 00 00"
2025-08-08T20:20:40.611304,17.170,"can1  206  [16]  50 63 50 1C 79 63 45 1B 5D 18 40 67 CC 60 00 00
  can1  206  [16]  6A 64 62 1C 79 63 3A 1B 66 18 68 67 45 61 00 00"
2025-08-08T20:20:40.611304,17.170,"can1  206  [16]  6A 64 6E 1C A1 63 40 1B 74 18 90 67 6D 61 00 00
  can1  206  [16]  42 64 75 1C C9 63 3A 1B 7D 18 B9 67 0E 62 00 00"
2025-08-08T20:20:41.088745,17.647,"can1  206  [16]  6A 64 25 1C 79 63 4B 1B 46 18 40 67 CC 60 00 00
  can1  206  [16]  F2 63 43 1C 50 63 40 1B 54 18 68 67 F4 60 00 00"
2025-08-08T20:20:41.088745,17.647,"can1  206  [16]  A1 63 56 1C 28 63 3A 1B 66 18 40 67 45 61 00 00
  can1  206  [16]  F2 63 68 1C 50 63 40 1B 7D 18 68 67 95 61 00 00"
2025-08-08T20:20:41.090769,17.649,"can1  206  [16]  79 63 7B 1C A1 63 45 1B 90 18 90 67 E6 61 00 00
  can1  206  [16]  BB 64 1F 1C 00 63 4B 1B 54 18 90 67 7B 60 00 00"
2025-08-08T20:20:41.092792,17.651,"can1  206  [16]  6A 64 49 1C 00 63 40 1B 5D 18 68 67 F4 60 00 00
  can1  206  [16]  A1 63 56 1C 00 63 3A 1B 6B 18 90 67 1C 61 00 00"
2025-08-08T20:20:41.092792,17.651,"can1  206  [16]  C9 63 6E 1C A1 63 3A 1B 82 18 B9 67 6D 61 00 00
  can1  206  [16]  50 63 7B 1C F2 63 3A 1B 90 18 B9 67 E6 61 00 00"
2025-08-08T20:20:41.583459,18.142,"can1  206  [16]  6A 64 25 1C 79 63 40 1B 54 18 90 67 A3 60 00 00
  can1  206  [16]  1A 64 3D 1C 50 63 3A 1B 5D 18 17 67 CC 60 00 00"
2025-08-08T20:20:41.584471,18.143,"can1  206  [16]  A1 63 56 1C 79 63 3A 1B 6F 18 68 67 45 61 00 00
  can1  206  [16]  C9 63 68 1C A1 63 40 1B 7D 18 B9 67 45 61 00 00"
2025-08-08T20:20:41.586482,18.145,"can1  206  [16]  F2 63 6E 1C F2 63 3A 1B 86 18 E1 67 BD 61 00 00
  can1  206  [16]  93 64 13 1C A1 63 4B 1B 58 18 90 67 7B 60 00 00"
2025-08-08T20:20:41.586482,18.145,"can1  206  [16]  79 63 31 1C 50 63 40 1B 66 18 9F 66 A3 60 00 00
  can1  206  [16]  79 63 5C 1C A1 63 3A 1B 66 18 17 67 1C 61 00 00"
2025-08-08T20:20:42.087322,18.646,"can1  206  [16]  1A 64 62 1C C9 63 3A 1B 78 18 E1 67 45 61 00 00
  can1  206  [16]  93 64 7B 1C F2 63 3A 1B 90 18 E1 67 6D 61 00 00"
2025-08-08T20:20:42.087322,18.646,"can1  206  [16]  6A 64 7B 1C 42 64 3A 1B 99 18 AA 68 BD 61 00 00
  can1  206  [16]  FD 65 31 1C A1 63 45 1B 61 18 B9 67 A3 60 00 00
  can1  206  [16]  BB 64 50 1C A1 63 45 1B 6F 18 90 67 45 61 00 00"
2025-08-08T20:20:42.087322,18.646,"can1  206  [16]  E3 64 62 1C C9 63 45 1B 78 18 E1 67 45 61 00 00
  can1  206  [16]  93 64 7B 1C C9 63 45 1B 82 18 90 67 BD 61 00 00"
2025-08-08T20:20:42.087322,18.646,"can1  206  [16]  C9 63 19 1C C9 63 56 1B 4A 18 90 67 7B 60 00 00
  can1  206  [16]  79 63 3D 1C 79 63 56 1B 61 18 17 67 A3 60 00 00"
2025-08-08T20:20:42.087322,18.646,"can1  206  [16]  50 63 5C 1C A1 63 4B 1B 6B 18 EF 66 F4 60 00 00
  can1  206  [16]  28 63 68 1C BB 64 40 1B 78 18 EF 66 45 61 00 00"
2025-08-08T20:20:42.583751,19.142,"can1  206  [16]  00 63 7B 1C 0C 65 40 1B 8B 18 68 67 6D 61 00 00
  can1  206  [16]  00 63 9A 1C D5 65 40 1B 8B 18 E1 67 E6 61 00 00"
2025-08-08T20:20:42.585768,19.144,"can1  206  [16]  79 63 2B 1C 6A 64 51 1B 4F 18 17 67 CC 60 00 00
  can1  206  [16]  C9 63 5C 1C 6A 64 45 1B 5D 18 68 67 F4 60 00 00"
2025-08-08T20:20:42.585768,19.144,"can1  206  [16]  28 63 68 1C 93 64 40 1B 6F 18 68 67 45 61 00 00
  can1  206  [16]  79 63 68 1C 93 64 3A 1B 8B 18 90 67 45 61 00 00"
2025-08-08T20:20:42.587784,19.146,"can1  206  [16]  1A 64 7B 1C BB 64 3A 1B 99 18 E1 67 95 61 00 00
  can1  206  [16]  79 63 8E 1C D5 65 3A 1B A2 18 E1 67 E6 61 00 00"
2025-08-08T20:20:42.587784,19.146,"can1  206  [16]  42 64 43 1C 93 64 34 1B 61 18 90 67 F4 60 00 00
  can1  206  [16]  F2 63 56 1C 93 64 34 1B 78 18 90 67 F4 60 00 00"
2025-08-08T20:20:43.091706,19.650,"can1  206  [16]  6A 64 68 1C 93 64 29 1B 82 18 E1 67 6D 61 00 00
  can1  206  [16]  C9 63 81 1C BB 64 3A 1B 90 18 09 68 95 61 00 00"
2025-08-08T20:20:43.093721,19.652,"can1  206  [16]  A1 63 7B 1C D5 65 45 1B A2 18 31 68 6D 61 00 00
  can1  206  [16]  50 63 7B 1C 4E 66 51 1B AC 18 82 68 1C 61 00 00"
2025-08-08T20:20:43.093721,19.652,"can1  206  [16]  6A 64 75 1C 9F 66 56 1B B0 18 5A 68 45 61 00 00
  can1  206  [16]  1A 64 6E 1C EF 66 68 1B B5 18 31 68 45 61 00 00"
2025-08-08T20:20:43.093721,19.652,"can1  206  [16]  1A 64 5C 1C 68 67 6D 1B B0 18 31 68 45 61 00 00
  can1  206  [16]  28 63 56 1C B9 67 62 1B B0 18 4C 69 CC 60 00 00"
2025-08-08T20:20:43.095730,19.654,"can1  206  [16]  93 64 56 1C B9 67 68 1B B0 18 ED 69 A3 60 00 00
  can1  206  [16]  AF 62 49 1C B9 67 79 1B A7 18 66 6A CC 60 00 00"
2025-08-08T20:20:43.602562,20.161,"can1  206  [16]  00 63 3D 1C 90 67 84 1B A7 18 3D 6A 53 60 00 00
  can1  206  [16]  D8 62 31 1C 90 67 9C 1B 94 18 DE 6A 2B 60 00 00"
2025-08-08T20:20:43.604581,20.163,"can1  206  [16]  79 63 2B 1C 90 67 A7 1B 8B 18 B6 6A CC 60 00 00
  can1  206  [16]  79 63 25 1C 90 67 A7 1B 86 18 8E 6A A3 60 00 00"
2025-08-08T20:20:43.604581,20.163,"can1  206  [16]  42 64 1F 1C 68 67 A2 1B 86 18 3D 6A A3 60 00 00
  can1  206  [16]  A1 63 1F 1C 17 67 B9 1B 82 18 3D 6A 7B 60 00 00"
2025-08-08T20:20:43.606596,20.165,"can1  206  [16]  F2 63 19 1C 9F 66 DD 1B 82 18 3D 6A 2B 60 00 00
  can1  206  [16]  79 63 06 1C 4E 66 F4 1B 7D 18 3D 6A 02 60 00 00"
2025-08-08T20:20:43.606596,20.165,"can1  206  [16]  F2 63 E8 1B 4E 66 EE 1B 74 18 ED 69 DA 5F 00 00
  can1  206  [16]  6A 64 DD 1B 4E 66 FA 1B 74 18 C4 69 61 5F 00 00"
2025-08-08T20:20:44.113034,20.671,"can1  206  [16]  BB 64 C5 1B FD 65 00 1C 6B 18 74 69 E8 5E 00 00
  can1  206  [16]  C9 63 AD 1B D5 65 00 1C 58 18 23 69 98 5E 00 00"
2025-08-08T20:20:44.113034,20.671,"can1  206  [16]  F2 63 9C 1B 0C 65 06 1C 4A 18 AA 68 47 5E 00 00
  can1  206  [16]  D5 65 9C 1B E3 64 0C 1C 41 18 AA 68 F6 5D 00 00"
2025-08-08T20:20:44.113034,20.671,"can1  206  [16]  F2 63 96 1B 42 64 06 1C 26 18 82 68 CE 5D 00 00
  can1  206  [16]  93 64 96 1B C9 63 E8 1B 22 18 5A 68 CE 5D 00 00"
2025-08-08T20:20:44.113034,20.671,"can1  206  [16]  9F 66 A2 1B A1 63 E8 1B 18 18 D3 68 F6 5D 00 00
  can1  206  [16]  D5 65 AD 1B 28 63 F4 1B 1D 18 82 68 CE 5D 00 00"
2025-08-08T20:20:44.113034,20.671,"can1  206  [16]  0C 65 C5 1B 28 63 00 1C 18 18 B9 67 CE 5D 00 00
  can1  206  [16]  93 64 C5 1B 00 63 00 1C 18 18 40 67 47 5E 00 00"
2025-08-08T20:20:44.622173,21.181,"can1  206  [16]  9F 66 CB 1B 00 63 EE 1B 22 18 EF 66 6F 5E 00 00
  can1  206  [16]  0C 65 D7 1B D8 62 DD 1B 22 18 4E 66 98 5E 00 00"
2025-08-08T20:20:44.622173,21.181,"can1  206  [16]  0C 65 E3 1B D8 62 E3 1B 41 18 4E 66 98 5E 00 00
  can1  206  [16]  26 66 E3 1B 28 63 DD 1B 4A 18 26 66 C0 5E 00 00"
2025-08-08T20:20:44.622173,21.181,"can1  206  [16]  0C 65 E8 1B 79 63 D1 1B 4A 18 26 66 E8 5E 00 00
  can1  206  [16]  E3 64 E8 1B C9 63 D1 1B 4F 18 26 66 10 5F 00 00"
2025-08-08T20:20:44.622173,21.181,"can1  206  [16]  FD 65 00 1C F2 63 C5 1B 4F 18 C7 66 61 5F 00 00
  can1  206  [16]  FD 65 00 1C 6A 64 A2 1B 54 18 76 66 B2 5F 00 00"
2025-08-08T20:20:44.622173,21.181,"can1  206  [16]  6A 64 06 1C 1A 64 73 1B 5D 18 C7 66 B2 5F 00 00
  can1  206  [16]  C9 63 19 1C 6A 64 68 1B 5D 18 40 67 B2 5F 00 00"
2025-08-08T20:20:45.128762,21.687,"can1  206  [16]  A1 63 31 1C 6A 64 56 1B 61 18 90 67 2B 60 00 00
  can1  206  [16]  C9 63 43 1C 6A 64 45 1B 66 18 B9 67 7B 60 00 00"
2025-08-08T20:20:45.128762,21.687,"can1  206  [16]  A1 63 62 1C BB 64 3A 1B 6B 18 09 68 F4 60 00 00
  can1  206  [16]  BB 64 68 1C E3 64 3A 1B 82 18 B9 67 F4 60 00 00"
2025-08-08T20:20:45.128762,21.687,"can1  206  [16]  BB 64 75 1C E3 64 40 1B 94 18 E1 67 95 61 00 00
  can1  206  [16]  93 64 75 1C D5 65 40 1B 9E 18 09 68 E6 61 00 00"
2025-08-08T20:20:45.128762,21.687,"can1  206  [16]  AD 65 31 1C 93 64 45 1B 5D 18 09 68 F4 60 00 00
  can1  206  [16]  C9 63 62 1C BB 64 4B 1B 74 18 90 67 45 61 00 00"
2025-08-08T20:20:45.128762,21.687,"can1  206  [16]  C9 63 6E 1C D5 65 40 1B 82 18 09 68 45 61 00 00
  can1  206  [16]  79 63 7B 1C D5 65 3A 1B 94 18 09 68 6D 61 00 00"
2025-08-08T20:20:45.627217,22.186,"can1  206  [16]  79 63 75 1C 76 66 3A 1B A2 18 82 68 95 61 00 00
  can1  206  [16]  79 63 75 1C C7 66 45 1B A7 18 5A 68 E6 61 00 00
  can1  206  [16]  1A 64 43 1C E3 64 34 1B 6B 18 09 68 45 61 00 00"
2025-08-08T20:20:45.629237,22.188,"can1  206  [16]  A1 63 62 1C E3 64 45 1B 78 18 68 67 1C 61 00 00
  can1  206  [16]  79 63 75 1C 0C 65 40 1B 86 18 40 67 45 61 00 00"
2025-08-08T20:20:45.629237,22.188,"can1  206  [16]  28 63 75 1C 26 66 45 1B 90 18 90 67 E6 61 00 00
  can1  206  [16]  0C 65 2B 1C E3 64 3A 1B 58 18 90 67 95 61 00 00"
2025-08-08T20:20:45.631251,22.190,"can1  206  [16]  BB 64 56 1C E3 64 34 1B 6F 18 B9 67 45 61 00 00
  can1  206  [16]  D5 65 62 1C 0C 65 34 1B 7D 18 09 68 E6 61 00 00"
2025-08-08T20:20:45.631251,22.190,"can1  206  [16]  FD 65 06 1C 93 64 51 1B 54 18 68 67 7B 60 00 00
  can1  206  [16]  6A 64 25 1C 42 64 4B 1B 61 18 68 67 7B 60 00 00"
2025-08-08T20:20:46.135834,22.694,"can1  206  [16]  BB 64 43 1C 6A 64 5C 1B 66 18 90 67 CC 60 00 00
  can1  206  [16]  C9 63 56 1C E3 64 5C 1B 6F 18 09 68 95 61 00 00"
2025-08-08T20:20:46.135834,22.694,"can1  206  [16]  6A 64 5C 1C E3 64 5C 1B 7D 18 09 68 6D 61 00 00
  can1  206  [16]  0C 65 68 1C 0C 65 68 1B 90 18 09 68 0E 62 00 00"
2025-08-08T20:20:46.135834,22.694,"can1  206  [16]  93 64 13 1C BB 64 7F 1B 58 18 90 67 7B 60 00 00
  can1  206  [16]  79 63 3D 1C 93 64 73 1B 61 18 68 67 CC 60 00 00"
2025-08-08T20:20:46.135834,22.694,"can1  206  [16]  F2 63 56 1C BB 64 68 1B 66 18 09 68 CC 60 00 00
  can1  206  [16]  50 63 68 1C E3 64 68 1B 74 18 E1 67 45 61 00 00"
2025-08-08T20:20:46.135834,22.694,"can1  206  [16]  28 63 75 1C 0C 65 68 1B 78 18 31 68 6D 61 00 00
  can1  206  [16]  79 63 7B 1C D5 65 68 1B 8B 18 09 68 95 61 00 00"
2025-08-08T20:20:46.633555,23.192,"can1  206  [16]  28 63 7B 1C C7 66 68 1B 94 18 31 68 95 61 00 00
  can1  206  [16]  D8 62 8E 1C 40 67 5C 1B A2 18 82 68 95 61 00 00"
2025-08-08T20:20:46.633555,23.192,"can1  206  [16]  0E 62 87 1C B9 67 56 1B A7 18 AA 68 E6 61 00 00
  can1  206  [16]  C9 63 6E 1C 76 66 29 1B 78 18 31 68 6D 61 00 00"
2025-08-08T20:20:46.635572,23.194,"can1  206  [16]  1A 64 81 1C 9F 66 45 1B 8B 18 82 68 95 61 00 00
  can1  206  [16]  6A 64 8E 1C EF 66 5C 1B A7 18 B9 67 36 62 00 00"
2025-08-08T20:20:46.635572,23.194,"can1  206  [16]  E3 64 50 1C FD 65 45 1B 5D 18 90 67 F4 60 00 00
  can1  206  [16]  FD 65 6E 1C 26 66 40 1B 74 18 68 67 F4 60 00 00"
2025-08-08T20:20:46.635572,23.194,"can1  206  [16]  BB 64 7B 1C 26 66 40 1B 82 18 90 67 F4 60 00 00
  can1  206  [16]  0C 65 87 1C 9F 66 40 1B 90 18 68 67 1C 61 00 00"
2025-08-08T20:20:47.128056,23.686,"can1  206  [16]  BB 64 8E 1C EF 66 45 1B A2 18 E1 67 6D 61 00 00
  can1  206  [16]  42 64 87 1C 68 67 51 1B A7 18 09 68 45 61 00 00"
2025-08-08T20:20:47.130074,23.688,"can1  206  [16]  D8 62 8E 1C EF 66 5C 1B B0 18 82 68 1C 61 00 00
  can1  206  [16]  D8 62 7B 1C 40 67 62 1B B0 18 AA 68 95 61 00 00"
2025-08-08T20:20:47.130074,23.688,"can1  206  [16]  00 63 7B 1C 90 67 84 1B B0 18 23 69 E6 61 00 00
  can1  206  [16]  E3 64 81 1C 4E 66 4B 1B 99 18 09 68 36 62 00 00"
2025-08-08T20:20:47.132090,23.690,"can1  206  [16]  0C 65 49 1C BB 64 56 1B 5D 18 B9 67 F4 60 00 00
  can1  206  [16]  0C 65 62 1C 93 64 5C 1B 78 18 90 67 F4 60 00 00"
2025-08-08T20:20:47.132090,23.690,"can1  206  [16]  C9 63 81 1C 93 64 62 1B 8B 18 09 68 1C 61 00 00
  can1  206  [16]  6A 64 8E 1C D5 65 68 1B 90 18 E1 67 6D 61 00 00"
2025-08-08T20:20:47.621983,24.180,"can1  206  [16]  1A 64 8E 1C 26 66 6D 1B 90 18 09 68 0E 62 00 00
  can1  206  [16]  E3 64 50 1C 0C 65 68 1B 54 18 09 68 1C 61 00 00"
2025-08-08T20:20:47.621983,24.180,"can1  206  [16]  50 63 68 1C 0C 65 68 1B 6B 18 E1 67 95 61 00 00
  can1  206  [16]  93 64 7B 1C E3 64 6D 1B 78 18 E1 67 BD 61 00 00"
2025-08-08T20:20:47.621983,24.180,"can1  206  [16]  E3 64 13 1C E3 64 8A 1B 58 18 90 67 7B 60 00 00
  can1  206  [16]  26 66 49 1C 93 64 79 1B 6B 18 68 67 CC 60 00 00"
2025-08-08T20:20:47.621983,24.180,"can1  206  [16]  D5 65 62 1C 93 64 6D 1B 58 18 B9 67 45 61 00 00
  can1  206  [16]  26 66 6E 1C BB 64 62 1B 61 18 E1 67 E6 61 00 00"
2025-08-08T20:20:47.621983,24.180,"can1  206  [16]  26 66 0C 1C 93 64 8A 1B 3D 18 EF 66 7B 60 00 00
  can1  206  [16]  D5 65 2B 1C 93 64 84 1B 46 18 EF 66 2B 60 00 00"
2025-08-08T20:20:48.131429,24.690,"can1  206  [16]  BB 64 49 1C 93 64 7F 1B 5D 18 68 67 2B 60 00 00
  can1  206  [16]  F2 63 62 1C 93 64 73 1B 66 18 90 67 CC 60 00 00"
2025-08-08T20:20:48.131429,24.690,"can1  206  [16]  C9 63 6E 1C 0C 65 68 1B 6F 18 B9 67 F4 60 00 00
  can1  206  [16]  28 63 7B 1C 0C 65 68 1B 86 18 E1 67 6D 61 00 00"
2025-08-08T20:20:48.133444,24.692,"can1  206  [16]  93 64 81 1C 42 64 6D 1B 90 18 31 68 95 61 00 00
  can1  206  [16]  93 64 87 1C 6A 64 68 1B A2 18 09 68 0E 62 00 00"
2025-08-08T20:20:48.135457,24.694,"can1  206  [16]  BB 64 3D 1C C9 63 5C 1B 58 18 68 67 F4 60 00 00
  can1  206  [16]  C9 63 68 1C F2 63 5C 1B 74 18 EF 66 45 61 00 00"
2025-08-08T20:20:48.135457,24.694,"can1  206  [16]  1A 64 7B 1C A1 63 68 1B 82 18 EF 66 BD 61 00 00
  can1  206  [16]  BB 64 13 1C 79 63 96 1B 58 18 76 66 A3 60 00 00"
2025-08-08T20:20:48.624312,25.183,"can1  206  [16]  AD 65 37 1C 28 63 9C 1B 66 18 17 67 53 60 00 00
  can1  206  [16]  E3 64 50 1C 79 63 84 1B 5D 18 40 67 7B 60 00 00"
2025-08-08T20:20:48.626329,25.185,"can1  206  [16]  76 66 5C 1C A1 63 73 1B 66 18 40 67 F4 60 00 00
  can1  206  [16]  EF 66 7B 1C 79 63 79 1B 74 18 B9 67 6D 61 00 00"
2025-08-08T20:20:48.626329,25.185,"can1  206  [16]  BB 64 87 1C F2 63 68 1B 90 18 09 68 6D 61 00 00
  can1  206  [16]  FD 65 7B 1C 42 64 56 1B 9E 18 82 68 BD 61 00 00"
2025-08-08T20:20:48.628345,25.187,"can1  206  [16]  42 64 3D 1C F2 63 56 1B 58 18 E1 67 F4 60 00 00
  can1  206  [16]  6A 64 5C 1C A1 63 40 1B 74 18 09 68 45 61 00 00"
2025-08-08T20:20:48.628345,25.187,"can1  206  [16]  F2 63 75 1C A1 63 40 1B 82 18 E1 67 E6 61 00 00
  can1  206  [16]  6A 64 13 1C 50 63 62 1B 54 18 40 67 CC 60 00 00"
2025-08-08T20:20:49.130523,25.689,"can1  206  [16]  79 63 3D 1C 79 63 5C 1B 66 18 68 67 F4 60 00 00
  can1  206  [16]  A1 63 56 1C 79 63 5C 1B 6B 18 68 67 45 61 00 00"
2025-08-08T20:20:49.130523,25.689,"can1  206  [16]  28 63 5C 1C A1 63 5C 1B 78 18 B9 67 6D 61 00 00
  can1  206  [16]  28 63 6E 1C A1 63 56 1B 7D 18 31 68 BD 61 00 00"
2025-08-08T20:20:49.130523,25.689,"can1  206  [16]  6A 64 13 1C 79 63 6D 1B 58 18 68 67 CC 60 00 00
  can1  206  [16]  79 63 2B 1C 50 63 62 1B 66 18 68 67 F4 60 00 00"
2025-08-08T20:20:49.130523,25.689,"can1  206  [16]  A1 63 50 1C 79 63 56 1B 6F 18 90 67 F4 60 00 00
  can1  206  [16]  1A 64 5C 1C C9 63 45 1B 74 18 90 67 6D 61 00 00"
2025-08-08T20:20:49.130523,25.689,"can1  206  [16]  28 63 75 1C 1A 64 45 1B 7D 18 E1 67 BD 61 00 00
  can1  206  [16]  FD 65 13 1C 79 63 6D 1B 58 18 68 67 02 60 00 00"
2025-08-08T20:20:49.627643,26.186,"can1  206  [16]  0C 65 37 1C 28 63 5C 1B 66 18 17 67 53 60 00 00
  can1  206  [16]  93 64 49 1C 28 63 4B 1B 6B 18 40 67 53 60 00 00"
2025-08-08T20:20:49.627643,26.186,"can1  206  [16]  93 64 68 1C A1 63 4B 1B 6F 18 68 67 7B 60 00 00
  can1  206  [16]  26 66 6E 1C 79 63 45 1B 7D 18 B9 67 1C 61 00 00"
2025-08-08T20:20:49.627643,26.186,"can1  206  [16]  93 64 8E 1C C9 63 4B 1B 82 18 B9 67 45 61 00 00
  can1  206  [16]  93 64 94 1C 1A 64 45 1B 94 18 E1 67 6D 61 00 00"
2025-08-08T20:20:49.627643,26.186,"can1  206  [16]  93 64 8E 1C BB 64 4B 1B 9E 18 31 68 BD 61 00 00
  can1  206  [16]  76 66 49 1C C9 63 3A 1B 54 18 09 68 F4 60 00 00"
2025-08-08T20:20:49.627643,26.186,"can1  206  [16]  6A 64 6E 1C C9 63 3A 1B 74 18 B9 67 1C 61 00 00
  can1  206  [16]  42 64 81 1C F2 63 3A 1B 82 18 E1 67 6D 61 00 00"
2025-08-08T20:20:50.143477,26.702,"can1  206  [16]  D5 65 8E 1C 42 64 40 1B 90 18 09 68 95 61 00 00
  can1  206  [16]  C9 63 94 1C 6A 64 40 1B 9E 18 E1 67 95 61 00 00"
2025-08-08T20:20:50.154746,26.713,"can1  206  [16]  C9 63 8E 1C BB 64 4B 1B 90 18 31 68 6D 61 00 00
  can1  206  [16]  A1 63 87 1C FD 65 51 1B 90 18 5A 68 6D 61 00 00"
2025-08-08T20:20:50.154746,26.713,"can1  206  [16]  00 63 7B 1C 4E 66 68 1B 94 18 AA 68 6D 61 00 00
  can1  206  [16]  D8 62 6E 1C 17 67 73 1B 94 18 4C 69 45 61 00 00"
2025-08-08T20:20:50.154746,26.713,"can1  206  [16]  AF 62 62 1C 17 67 79 1B 94 18 15 6A 45 61 00 00
  can1  206  [16]  6D 61 31 1C D5 65 BF 1B 61 18 8E 6A 2B 60 00 00"
2025-08-08T20:20:50.154746,26.713,"can1  206  [16]  E6 61 1F 1C 93 64 F4 1B 58 18 66 6A 02 60 00 00
  can1  206  [16]  28 63 F4 1B BB 64 06 1C 4A 18 15 6A 2B 60 00 00"
2025-08-08T20:20:50.653900,27.212,"can1  206  [16]  00 63 E8 1B 93 64 06 1C 4A 18 9C 69 B2 5F 00 00
  can1  206  [16]  00 63 D7 1B 6A 64 1F 1C 46 18 74 69 39 5F 00 00"
2025-08-08T20:20:50.653900,27.212,"can1  206  [16]  1A 64 CB 1B 42 64 13 1C 26 18 74 69 E8 5E 00 00
  can1  206  [16]  79 63 B3 1B 6A 64 1F 1C 1D 18 23 69 47 5E 00 00"
2025-08-08T20:20:50.653900,27.212,"can1  206  [16]  C9 63 AD 1B C9 63 19 1C 06 18 D3 68 47 5E 00 00
  can1  206  [16]  93 64 AD 1B 28 63 19 1C 02 18 FB 68 47 5E 00 00"
2025-08-08T20:20:50.653900,27.212,"can1  206  [16]  1A 64 AD 1B D8 62 0C 1C F9 17 31 68 1F 5E 00 00
  can1  206  [16]  4E 66 B3 1B 5F 62 0C 1C F5 17 82 68 6F 5E 00 00"
2025-08-08T20:20:50.653900,27.212,"can1  206  [16]  C7 66 B9 1B 0E 62 00 1C F0 17 E1 67 6F 5E 00 00
  can1  206  [16]  C7 66 D1 1B E6 61 FA 1B F0 17 90 67 98 5E 00 00"
2025-08-08T20:20:51.165237,27.724,"can1  206  [16]  76 66 D7 1B 6D 61 E3 1B 26 18 D5 65 89 5F 00 00
  can1  206  [16]  D5 65 31 1C 00 63 90 1B 1D 18 76 66 B2 5F 00 00"
2025-08-08T20:20:51.165237,27.724,"can1  206  [16]  C7 66 2B 1C 79 63 73 1B 26 18 17 67 02 60 00 00
  can1  206  [16]  76 66 49 1C A1 63 62 1B 3D 18 68 67 2B 60 00 00"
2025-08-08T20:20:51.167247,27.726,"can1  206  [16]  E3 64 56 1C A1 63 51 1B 3D 18 E1 67 B2 5F 00 00
  can1  206  [16]  93 64 62 1C F2 63 45 1B 4A 18 90 67 53 60 00 00"
2025-08-08T20:20:51.167247,27.726,"can1  206  [16]  C9 63 6E 1C F2 63 4B 1B 66 18 E1 67 A3 60 00 00
  can1  206  [16]  50 63 81 1C 1A 64 45 1B 78 18 09 68 CC 60 00 00"
2025-08-08T20:20:51.167247,27.726,"can1  206  [16]  D8 62 81 1C 6A 64 51 1B 7D 18 31 68 1C 61 00 00
  can1  206  [16]  87 62 7B 1C E3 64 56 1B 90 18 82 68 45 61 00 00"
2025-08-08T20:20:51.660790,28.219,"can1  206  [16]  36 62 81 1C FD 65 56 1B 94 18 09 68 6D 61 00 00
  can1  206  [16]  BD 61 75 1C 26 66 5C 1B 99 18 5A 68 CC 60 00 00"
2025-08-08T20:20:51.660790,28.219,"can1  206  [16]  36 62 6E 1C 76 66 68 1B 9E 18 FB 68 1C 61 00 00
  can1  206  [16]  6D 61 3D 1C 0C 65 A7 1B 7D 18 DE 6A 89 5F 00 00"
2025-08-08T20:20:51.660790,28.219,"can1  206  [16]  1C 61 BF 1B F2 63 25 1C 41 18 D3 68 55 5D 00 00
  can1  206  [16]  28 63 A7 1B 28 63 13 1C 14 18 82 68 05 5D 00 00"
2025-08-08T20:20:51.660790,28.219,"can1  206  [16]  00 63 A7 1B D8 62 F4 1B 06 18 31 68 2D 5D 00 00
  can1  206  [16]  93 64 B9 1B 87 62 DD 1B 02 18 E1 67 2D 5D 00 00"
2025-08-08T20:20:51.660790,28.219,"can1  206  [16]  FD 65 C5 1B 0E 62 D7 1B 02 18 B9 67 7E 5D 00 00
  can1  206  [16]  0C 65 D7 1B BD 61 CB 1B 06 18 17 67 7E 5D 00 00"
2025-08-08T20:20:52.153665,28.712,"can1  206  [16]  26 66 D7 1B BD 61 BF 1B 06 18 EF 66 C0 5E 00 00
  can1  206  [16]  90 67 E8 1B E6 61 B9 1B 0B 18 26 66 10 5F 00 00"
2025-08-08T20:20:52.153665,28.712,"can1  206  [16]  17 67 EE 1B 36 62 AD 1B 0F 18 26 66 89 5F 00 00
  can1  206  [16]  76 66 00 1C 0E 62 B3 1B 18 18 26 66 DA 5F 00 00"
2025-08-08T20:20:52.153665,28.712,"can1  206  [16]  17 67 00 1C 5F 62 A7 1B 1D 18 26 66 02 60 00 00
  can1  206  [16]  76 66 00 1C 87 62 AD 1B 38 18 FD 65 89 5F 00 00"
2025-08-08T20:20:52.153665,28.712,"can1  206  [16]  17 67 06 1C D8 62 AD 1B 3D 18 FD 65 DA 5F 00 00
  can1  206  [16]  0C 65 0C 1C 00 63 A2 1B 3D 18 76 66 02 60 00 00"
2025-08-08T20:20:52.153665,28.712,"can1  206  [16]  6A 64 13 1C 00 63 8A 1B 41 18 C7 66 53 60 00 00
  can1  206  [16]  6A 64 2B 1C 50 63 73 1B 46 18 17 67 53 60 00 00"
2025-08-08T20:20:52.666762,29.225,"can1  206  [16]  BB 64 49 1C 28 63 68 1B 4A 18 68 67 2B 60 00 00
  can1  206  [16]  BB 64 62 1C 50 63 62 1B 4F 18 68 67 7B 60 00 00"
2025-08-08T20:20:52.668777,29.227,"can1  206  [16]  D5 65 62 1C A1 63 56 1B 58 18 B9 67 A3 60 00 00
  can1  206  [16]  26 66 7B 1C A1 63 5C 1B 66 18 E1 67 45 61 00 00"
2025-08-08T20:20:52.668777,29.227,"can1  206  [16]  BB 64 8E 1C C9 63 5C 1B 78 18 E1 67 45 61 00 00
  can1  206  [16]  A1 63 94 1C F2 63 5C 1B 82 18 09 68 95 61 00 00"
2025-08-08T20:20:52.670789,29.229,"can1  206  [16]  F2 63 8E 1C 6A 64 5C 1B 90 18 09 68 45 61 00 00
  can1  206  [16]  00 63 8E 1C E3 64 5C 1B 94 18 82 68 F4 60 00 00"
2025-08-08T20:20:52.670789,29.229,"can1  206  [16]  50 63 81 1C AD 65 68 1B 99 18 D3 68 45 61 00 00
  can1  206  [16]  36 62 75 1C FD 65 73 1B 9E 18 FB 68 1C 61 00 00"
2025-08-08T20:20:53.155482,29.714,"can1  206  [16]  5F 62 68 1C 4E 66 84 1B 9E 18 9C 69 95 61 00 00
  can1  206  [16]  6D 61 3D 1C 93 64 C5 1B 78 18 8E 6A 02 60 00 00"
2025-08-08T20:20:53.155482,29.714,"can1  206  [16]  95 61 C5 1B 28 63 49 1C 3D 18 AA 68 47 5E 00 00
  can1  206  [16]  AF 62 B9 1B 87 62 31 1C 06 18 D3 68 F6 5D 00 00"
2025-08-08T20:20:53.155482,29.714,"can1  206  [16]  50 63 A7 1B 0E 62 1F 1C 02 18 82 68 CE 5D 00 00
  can1  206  [16]  F2 63 AD 1B E6 61 19 1C 02 18 09 68 47 5E 00 00"
2025-08-08T20:20:53.155482,29.714,"can1  206  [16]  6A 64 C5 1B BD 61 06 1C 02 18 90 67 F6 5D 00 00
  can1  206  [16]  93 64 D1 1B BD 61 00 1C 02 18 17 67 98 5E 00 00"
2025-08-08T20:20:53.155482,29.714,"can1  206  [16]  BB 64 DD 1B 6D 61 DD 1B 41 18 FD 65 89 5F 00 00
  can1  206  [16]  C9 63 37 1C 87 62 A7 1B 46 18 40 67 B2 5F 00 00"
2025-08-08T20:20:53.666697,30.225,"can1  206  [16]  A1 63 37 1C 00 63 96 1B 4A 18 90 67 02 60 00 00
  can1  206  [16]  79 63 49 1C 28 63 8A 1B 54 18 40 67 2B 60 00 00"
2025-08-08T20:20:53.666697,30.225,"can1  206  [16]  50 63 62 1C 50 63 7F 1B 5D 18 E1 67 CC 60 00 00
  can1  206  [16]  1A 64 7B 1C 79 63 7F 1B 6F 18 E1 67 1C 61 00 00"
2025-08-08T20:20:53.666697,30.225,"can1  206  [16]  C9 63 8E 1C A1 63 84 1B 78 18 09 68 95 61 00 00
  can1  206  [16]  79 63 94 1C 1A 64 84 1B 82 18 31 68 BD 61 00 00"
2025-08-08T20:20:53.666697,30.225,"can1  206  [16]  BB 64 3D 1C 50 63 84 1B 54 18 E1 67 CC 60 00 00
  can1  206  [16]  E3 64 68 1C 50 63 79 1B 61 18 B9 67 F4 60 00 00"
2025-08-08T20:20:53.666697,30.225,"can1  206  [16]  BB 64 75 1C A1 63 73 1B 6F 18 90 67 45 61 00 00
  can1  206  [16]  FD 65 81 1C C9 63 73 1B 78 18 B9 67 95 61 00 00"
2025-08-08T20:20:54.159642,30.718,"can1  206  [16]  BB 64 8E 1C F2 63 79 1B 86 18 B9 67 95 61 00 00
  can1  206  [16]  79 63 8E 1C 6A 64 84 1B 94 18 09 68 E6 61 00 00
  can1  206  [16]  C9 63 56 1C 79 63 73 1B 54 18 E1 67 1C 61 00 00"
2025-08-08T20:20:54.161646,30.720,"can1  206  [16]  79 63 75 1C 79 63 79 1B 74 18 90 67 45 61 00 00
  can1  206  [16]  50 63 81 1C A1 63 73 1B 78 18 90 67 BD 61 00 00"
2025-08-08T20:20:54.163651,30.722,"can1  206  [16]  C9 63 25 1C 79 63 8A 1B 46 18 40 67 7B 60 00 00
  can1  206  [16]  A1 63 43 1C 28 63 84 1B 54 18 40 67 CC 60 00 00"
2025-08-08T20:20:54.163651,30.722,can1  206  [16]  79 63 62 1C 50 63 7F 1B 61 18 90 67 1C 61 00 00
2025-08-08T20:20:54.165655,30.724,"can1  206  [16]  79 63 75 1C 79 63 79 1B 6F 18 E1 67 45 61 00 00
  can1  206  [16]  79 63 81 1C A1 63 68 1B 7D 18 09 68 95 61 00 00
  can1  206  [16]  50 63 87 1C 1A 64 5C 1B 99 18 09 68 0E 62 00 00"
2025-08-08T20:20:54.665298,31.224,"can1  206  [16]  A1 63 3D 1C A1 63 56 1B 58 18 90 67 1C 61 00 00
  can1  206  [16]  A1 63 5C 1C 28 63 4B 1B 6B 18 B9 67 45 61 00 00"
2025-08-08T20:20:54.667302,31.226,"can1  206  [16]  C9 63 68 1C 00 63 45 1B 7D 18 B9 67 BD 61 00 00
  can1  206  [16]  E3 64 06 1C 87 62 68 1B 58 18 68 67 53 60 00 00"
2025-08-08T20:20:54.669306,31.228,"can1  206  [16]  1A 64 37 1C 87 62 62 1B 66 18 90 67 7B 60 00 00
  can1  206  [16]  93 64 56 1C AF 62 5C 1B 66 18 E1 67 A3 60 00 00"
2025-08-08T20:20:54.671310,31.230,"can1  206  [16]  42 64 68 1C D8 62 51 1B 78 18 E1 67 F4 60 00 00
  can1  206  [16]  C9 63 6E 1C 00 63 4B 1B 86 18 E1 67 6D 61 00 00"
2025-08-08T20:20:54.671310,31.230,"can1  206  [16]  C9 63 81 1C 28 63 4B 1B 94 18 31 68 6D 61 00 00
  can1  206  [16]  C9 63 7B 1C 79 63 45 1B A2 18 31 68 E6 61 00 00"
2025-08-08T20:20:55.152721,31.713,"can1  206  [16]  42 64 31 1C 00 63 45 1B 66 18 B9 67 CC 60 00 00
  can1  206  [16]  1A 64 56 1C 00 63 40 1B 78 18 B9 67 CC 60 00 00"
2025-08-08T20:20:55.154734,31.713,can1  206  [16]  0C 65 75 1C 79 63 40 1B 86 18 B9 67 1C 61 00 00
2025-08-08T20:20:55.156767,31.715,"can1  206  [16]  E3 64 87 1C A1 63 3A 1B 94 18 09 68 95 61 00 00
  can1  206  [16]  FD 65 81 1C 1A 64 3A 1B A2 18 82 68 E6 61 00 00
  can1  206  [16]  FD 65 43 1C 50 63 40 1B 5D 18 09 68 CC 60 00 00"
2025-08-08T20:20:55.156767,31.715,"can1  206  [16]  C7 66 62 1C 50 63 40 1B 74 18 E1 67 45 61 00 00
  can1  206  [16]  9F 66 75 1C 79 63 3A 1B 7D 18 E1 67 45 61 00 00"
2025-08-08T20:20:55.658273,32.217,"can1  206  [16]  26 66 81 1C 79 63 40 1B 90 18 09 68 95 61 00 00
  can1  206  [16]  6A 64 87 1C 1A 64 45 1B A7 18 31 68 E6 61 00 00"
2025-08-08T20:20:55.662053,32.220,"can1  206  [16]  1A 64 3D 1C A1 63 45 1B 61 18 E1 67 A3 60 00 00
  can1  206  [16]  1A 64 56 1C C9 63 4B 1B 74 18 B9 67 1C 61 00 00"
2025-08-08T20:20:55.662053,32.220,"can1  206  [16]  6A 64 68 1C C9 63 45 1B 7D 18 E1 67 45 61 00 00
  can1  206  [16]  C9 63 7B 1C 28 63 4B 1B 90 18 09 68 BD 61 00 00"
2025-08-08T20:20:55.662053,32.220,"can1  206  [16]  0C 65 1F 1C 00 63 62 1B 58 18 90 67 A3 60 00 00
  can1  206  [16]  6A 64 43 1C 00 63 62 1B 66 18 E1 67 F4 60 00 00"
2025-08-08T20:20:55.662053,32.220,"can1  206  [16]  C9 63 62 1C D8 62 56 1B 6F 18 09 68 CC 60 00 00
  can1  206  [16]  A1 63 6E 1C 28 63 51 1B 78 18 B9 67 45 61 00 00"
2025-08-08T20:20:55.662053,32.220,"can1  206  [16]  93 64 87 1C 50 63 45 1B 90 18 B9 67 6D 61 00 00
  can1  206  [16]  79 63 8E 1C C9 63 45 1B 9E 18 E1 67 0E 62 00 00"
2025-08-08T20:20:56.154859,32.713,"can1  206  [16]  42 64 3D 1C 28 63 45 1B 5D 18 90 67 CC 60 00 00
  can1  206  [16]  F2 63 5C 1C 00 63 40 1B 74 18 68 67 45 61 00 00"
2025-08-08T20:20:56.156879,32.715,"can1  206  [16]  79 63 75 1C 50 63 40 1B 82 18 90 67 95 61 00 00
  can1  206  [16]  A1 63 87 1C 28 63 3A 1B 90 18 90 67 BD 61 00 00"
2025-08-08T20:20:56.158896,32.717,"can1  206  [16]  1A 64 2B 1C 00 63 51 1B 5D 18 40 67 7B 60 00 00
  can1  206  [16]  C9 63 5C 1C 28 63 40 1B 6B 18 40 67 F4 60 00 00"
2025-08-08T20:20:56.158896,32.717,"can1  206  [16]  79 63 62 1C 50 63 3A 1B 78 18 68 67 1C 61 00 00
  can1  206  [16]  1A 64 75 1C 50 63 3A 1B 74 18 90 67 45 61 00 00"
2025-08-08T20:20:56.667100,33.226,"can1  206  [16]  F2 63 8E 1C 79 63 40 1B 7D 18 90 67 E6 61 00 00
  can1  206  [16]  AD 65 25 1C 79 63 56 1B 4A 18 68 67 53 60 00 00"
2025-08-08T20:20:56.668114,33.227,"can1  206  [16]  A1 63 56 1C 79 63 56 1B 58 18 40 67 7B 60 00 00
  can1  206  [16]  50 63 62 1C 79 63 51 1B 61 18 40 67 45 61 00 00"
2025-08-08T20:20:56.670129,33.229,"can1  206  [16]  00 63 75 1C A1 63 51 1B 6F 18 B9 67 45 61 00 00
  can1  206  [16]  A1 63 87 1C F2 63 51 1B 78 18 E1 67 6D 61 00 00"
2025-08-08T20:20:56.670129,33.229,"can1  206  [16]  28 63 8E 1C 6A 64 56 1B 9E 18 B9 67 E6 61 00 00
  can1  206  [16]  C9 63 43 1C 79 63 56 1B 61 18 B9 67 CC 60 00 00"
2025-08-08T20:20:56.672143,33.231,"can1  206  [16]  A1 63 62 1C A1 63 4B 1B 74 18 68 67 1C 61 00 00
  can1  206  [16]  F2 63 68 1C 79 63 51 1B 82 18 90 67 6D 61 00 00"
2025-08-08T20:20:56.672143,33.231,"can1  206  [16]  A1 63 87 1C 79 63 56 1B 94 18 B9 67 BD 61 00 00
  can1  206  [16]  F2 63 25 1C 79 63 62 1B 5D 18 68 67 2B 60 00 00"
2025-08-08T20:20:57.162521,33.721,"can1  206  [16]  1A 64 50 1C 50 63 5C 1B 6B 18 40 67 CC 60 00 00
  can1  206  [16]  42 64 68 1C 79 63 4B 1B 74 18 90 67 1C 61 00 00"
2025-08-08T20:20:57.164540,33.723,"can1  206  [16]  42 64 81 1C 79 63 51 1B 82 18 B9 67 6D 61 00 00
  can1  206  [16]  C9 63 8E 1C 79 63 51 1B 94 18 E1 67 BD 61 00 00"
2025-08-08T20:20:57.164540,33.723,"can1  206  [16]  1A 64 31 1C 50 63 62 1B 5D 18 68 67 53 60 00 00
  can1  206  [16]  1A 64 50 1C 79 63 5C 1B 6B 18 40 67 A3 60 00 00"
2025-08-08T20:20:57.166557,33.725,"can1  206  [16]  42 64 62 1C A1 63 4B 1B 74 18 68 67 6D 61 00 00
  can1  206  [16]  E3 64 75 1C A1 63 4B 1B 82 18 68 67 E6 61 00 00"
2025-08-08T20:20:57.656884,34.215,"can1  206  [16]  0C 65 13 1C 79 63 6D 1B 54 18 17 67 F4 60 00 00
  can1  206  [16]  D5 65 37 1C 50 63 68 1B 58 18 68 67 CC 60 00 00"
2025-08-08T20:20:57.656884,34.215,"can1  206  [16]  6A 64 50 1C 28 63 62 1B 6B 18 68 67 CC 60 00 00
  can1  206  [16]  BB 64 62 1C A1 63 4B 1B 7D 18 B9 67 45 61 00 00"
2025-08-08T20:20:57.656884,34.215,"can1  206  [16]  4E 66 6E 1C A1 63 4B 1B 86 18 31 68 BD 61 00 00
  can1  206  [16]  76 66 13 1C 79 63 68 1B 58 18 B9 67 53 60 00 00"
2025-08-08T20:20:57.656884,34.215,"can1  206  [16]  0C 65 31 1C 28 63 68 1B 66 18 B9 67 53 60 00 00
  can1  206  [16]  E3 64 50 1C 50 63 5C 1B 6B 18 E1 67 CC 60 00 00"
2025-08-08T20:20:57.656884,34.215,"can1  206  [16]  D5 65 62 1C 50 63 56 1B 74 18 09 68 45 61 00 00
  can1  206  [16]  BB 64 7B 1C 79 63 51 1B 82 18 31 68 E6 61 00 00"
2025-08-08T20:20:58.164074,34.722,"can1  206  [16]  9F 66 0C 1C 28 63 79 1B 58 18 40 67 CC 60 00 00
  can1  206  [16]  EF 66 3D 1C 00 63 68 1B 61 18 C7 66 CC 60 00 00"
2025-08-08T20:20:58.164074,34.722,"can1  206  [16]  9F 66 49 1C A1 63 62 1B 66 18 B9 67 1C 61 00 00
  can1  206  [16]  4E 66 56 1C 28 63 4B 1B 6F 18 E1 67 45 61 00 00"
2025-08-08T20:20:58.164074,34.722,"can1  206  [16]  76 66 6E 1C 28 63 51 1B 7D 18 E1 67 45 61 00 00
  can1  206  [16]  76 66 87 1C 50 63 51 1B 90 18 09 68 BD 61 00 00"
2025-08-08T20:20:58.164074,34.722,"can1  206  [16]  C7 66 1F 1C 28 63 6D 1B 5D 18 90 67 53 60 00 00
  can1  206  [16]  76 66 50 1C 00 63 68 1B 66 18 90 67 7B 60 00 00"
2025-08-08T20:20:58.164074,34.722,"can1  206  [16]  26 66 62 1C 00 63 4B 1B 78 18 B9 67 1C 61 00 00
  can1  206  [16]  BB 64 75 1C 28 63 4B 1B A2 18 09 68 45 61 00 00"
2025-08-08T20:20:58.656122,35.215,"can1  206  [16]  93 64 87 1C A1 63 51 1B 99 18 31 68 36 62 00 00
  can1  206  [16]  FD 65 1F 1C D8 62 68 1B 5D 18 B9 67 A3 60 00 00"
2025-08-08T20:20:58.657133,35.216,"can1  206  [16]  0C 65 56 1C 0E 62 68 1B 6B 18 E1 67 CC 60 00 00
  can1  206  [16]  D5 65 62 1C 00 63 68 1B 6F 18 B9 67 45 61 00 00"
2025-08-08T20:20:58.658738,35.217,"can1  206  [16]  D5 65 75 1C 00 63 62 1B 7D 18 E1 67 6D 61 00 00
  can1  206  [16]  6A 64 8E 1C 28 63 51 1B 90 18 31 68 BD 61 00 00"
2025-08-08T20:20:58.660348,35.219,"can1  206  [16]  FD 65 1F 1C D8 62 62 1B 5D 18 90 67 CC 60 00 00
  can1  206  [16]  93 64 43 1C 28 63 79 1B 78 18 90 67 A3 60 00 00"
2025-08-08T20:20:58.660348,35.219,"can1  206  [16]  6A 64 62 1C A1 63 79 1B 99 18 90 67 1C 61 00 00
  can1  206  [16]  E3 64 6E 1C 79 63 79 1B A7 18 17 67 45 61 00 00"
2025-08-08T20:20:59.163847,35.722,"can1  206  [16]  93 64 7B 1C A1 63 73 1B B5 18 68 67 E6 61 00 00
  can1  206  [16]  FD 65 1F 1C 79 63 8A 1B 86 18 90 67 7B 60 00 00"
2025-08-08T20:20:59.163847,35.722,"can1  206  [16]  0C 65 43 1C 50 63 8A 1B 90 18 90 67 CC 60 00 00
  can1  206  [16]  93 64 62 1C A1 63 84 1B 94 18 68 67 45 61 00 00"
2025-08-08T20:20:59.163847,35.722,"can1  206  [16]  BB 64 68 1C A1 63 73 1B AC 18 B9 67 95 61 00 00
  can1  206  [16]  42 64 87 1C C9 63 6D 1B B0 18 B9 67 BD 61 00 00"
2025-08-08T20:20:59.163847,35.722,"can1  206  [16]  D5 65 31 1C 79 63 84 1B 74 18 90 67 7B 60 00 00
  can1  206  [16]  93 64 49 1C 50 63 84 1B 74 18 17 67 A3 60 00 00"
2025-08-08T20:20:59.163847,35.722,"can1  206  [16]  6A 64 62 1C 28 63 79 1B 74 18 40 67 1C 61 00 00
  can1  206  [16]  93 64 75 1C 79 63 79 1B 78 18 17 67 6D 61 00 00"
2025-08-08T20:20:59.660510,36.219,"can1  206  [16]  1A 64 87 1C 79 63 6D 1B 90 18 EF 66 E6 61 00 00
  can1  206  [16]  BB 64 1F 1C 00 63 84 1B 5D 18 68 67 7B 60 00 00"
2025-08-08T20:20:59.689923,36.248,"can1  206  [16]  E3 64 50 1C D8 62 7F 1B 86 18 90 67 CC 60 00 00
  can1  206  [16]  93 64 6E 1C 28 63 79 1B 94 18 B9 67 F4 60 00 00"
2025-08-08T20:20:59.691937,36.250,"can1  206  [16]  BB 64 75 1C 28 63 73 1B 94 18 E1 67 6D 61 00 00
  can1  206  [16]  93 64 87 1C 79 63 6D 1B 8B 18 E1 67 95 61 00 00"
2025-08-08T20:20:59.691937,36.250,"can1  206  [16]  93 64 94 1C C9 63 6D 1B 99 18 09 68 E6 61 00 00
  can1  206  [16]  1A 64 43 1C 50 63 7F 1B 6F 18 B9 67 A3 60 00 00"
2025-08-08T20:20:59.693952,36.252,"can1  206  [16]  F2 63 68 1C 28 63 79 1B 94 18 31 68 A3 60 00 00
  can1  206  [16]  C9 63 87 1C 50 63 79 1B A7 18 E1 67 6D 61 00 00"
2025-08-08T20:20:59.695968,36.254,"can1  206  [16]  1A 64 8E 1C A1 63 79 1B 94 18 31 68 6D 61 00 00
  can1  206  [16]  1A 64 8E 1C 79 63 73 1B 9E 18 E1 67 95 61 00 00"
2025-08-08T20:21:00.168153,36.727,"can1  206  [16]  A1 63 9A 1C F2 63 79 1B A7 18 31 68 95 61 00 00
  can1  206  [16]  00 63 8E 1C 6A 64 7F 1B AC 18 AA 68 E6 61 00 00"
2025-08-08T20:21:00.170167,36.729,"can1  206  [16]  1A 64 5C 1C 79 63 68 1B 6B 18 31 68 6D 61 00 00
  can1  206  [16]  79 63 87 1C 50 63 6D 1B 8B 18 E1 67 BD 61 00 00"
2025-08-08T20:21:00.172182,36.731,"can1  206  [16]  1A 64 2B 1C 00 63 84 1B 5D 18 68 67 F4 60 00 00
  can1  206  [16]  C9 63 50 1C D8 62 8A 1B 6B 18 90 67 95 61 00 00"
2025-08-08T20:21:00.172182,36.731,"can1  206  [16]  6A 64 68 1C 00 63 73 1B 7D 18 09 68 0E 62 00 00
  can1  206  [16]  D5 65 06 1C AF 62 96 1B 7D 18 40 67 45 61 00 00"
2025-08-08T20:21:00.662447,37.221,"can1  206  [16]  BB 64 1F 1C AF 62 7F 1B 86 18 40 67 53 60 00 00
  can1  206  [16]  93 64 3D 1C 00 63 68 1B 8B 18 90 67 53 60 00 00"
2025-08-08T20:21:00.664462,37.223,"can1  206  [16]  C9 63 50 1C 00 63 5C 1B 90 18 B9 67 F4 60 00 00
  can1  206  [16]  6A 64 56 1C 28 63 4B 1B 6F 18 E1 67 F4 60 00 00"
2025-08-08T20:21:00.664462,37.223,"can1  206  [16]  1A 64 6E 1C 79 63 4B 1B 6F 18 90 67 F4 60 00 00
  can1  206  [16]  1A 64 81 1C C9 63 4B 1B 86 18 31 68 BD 61 00 00"
2025-08-08T20:21:00.666476,37.225,"can1  206  [16]  BB 64 1F 1C 79 63 6D 1B 4F 18 E1 67 53 60 00 00
  can1  206  [16]  42 64 56 1C 79 63 62 1B 61 18 90 67 7B 60 00 00"
2025-08-08T20:21:00.666476,37.225,"can1  206  [16]  93 64 68 1C A1 63 51 1B 61 18 B9 67 7B 60 00 00
  can1  206  [16]  A1 63 6E 1C F2 63 40 1B 74 18 E1 67 45 61 00 00
  can1  206  [16]  C9 63 87 1C F2 63 45 1B 82 18 5A 68 45 61 00 00"
2025-08-08T20:21:01.155469,37.714,"can1  206  [16]  79 63 94 1C C9 63 4B 1B 94 18 5A 68 1C 61 00 00
  can1  206  [16]  1A 64 8E 1C 1A 64 51 1B 9E 18 09 68 95 61 00 00"
2025-08-08T20:21:01.155469,37.714,"can1  206  [16]  93 64 94 1C 93 64 51 1B A7 18 31 68 BD 61 00 00
  can1  206  [16]  6A 64 56 1C A1 63 45 1B 66 18 09 68 45 61 00 00"
2025-08-08T20:21:01.155469,37.714,"can1  206  [16]  F2 63 81 1C A1 63 45 1B 74 18 B9 67 6D 61 00 00
  can1  206  [16]  F2 63 87 1C C9 63 4B 1B 8B 18 E1 67 6D 61 00 00"
2025-08-08T20:21:01.155469,37.714,"can1  206  [16]  93 64 9A 1C 6A 64 45 1B 94 18 31 68 E6 61 00 00
  can1  206  [16]  0C 65 49 1C 1A 64 45 1B 5D 18 09 68 F4 60 00 00"
2025-08-08T20:21:01.155469,37.714,"can1  206  [16]  0C 65 68 1C C9 63 4B 1B 7D 18 5A 68 F4 60 00 00
  can1  206  [16]  0C 65 81 1C A1 63 68 1B 8B 18 82 68 95 61 00 00"
2025-08-08T20:21:01.665893,38.224,"can1  206  [16]  BB 64 94 1C C9 63 6D 1B 99 18 5A 68 BD 61 00 00
  can1  206  [16]  D5 65 2B 1C 79 63 79 1B 5D 18 E1 67 A3 60 00 00"
2025-08-08T20:21:01.667912,38.226,"can1  206  [16]  E3 64 50 1C A1 63 7F 1B 6B 18 B9 67 1C 61 00 00
  can1  206  [16]  93 64 62 1C A1 63 73 1B 78 18 E1 67 45 61 00 00"
2025-08-08T20:21:01.669933,38.228,"can1  206  [16]  6A 64 81 1C A1 63 73 1B 82 18 09 68 95 61 00 00
  can1  206  [16]  93 64 94 1C 1A 64 73 1B 94 18 B9 67 95 61 00 00"
2025-08-08T20:21:01.669933,38.228,"can1  206  [16]  BB 64 94 1C 93 64 73 1B 9E 18 31 68 E6 61 00 00
  can1  206  [16]  0C 65 56 1C A1 63 73 1B 5D 18 31 68 CC 60 00 00"
2025-08-08T20:21:01.669933,38.228,"can1  206  [16]  76 66 7B 1C A1 63 68 1B 6F 18 B9 67 45 61 00 00
  can1  206  [16]  9F 66 8E 1C F2 63 73 1B 82 18 09 68 45 61 00 00"
2025-08-08T20:21:02.157117,38.716,"can1  206  [16]  0C 65 9A 1C F2 63 51 1B 94 18 31 68 6D 61 00 00
  can1  206  [16]  C7 66 9A 1C 42 64 56 1B 9E 18 AA 68 E6 61 00 00"
2025-08-08T20:21:02.157117,38.716,"can1  206  [16]  FD 65 49 1C 1A 64 4B 1B 5D 18 31 68 F4 60 00 00
  can1  206  [16]  EF 66 68 1C C9 63 68 1B 99 18 09 68 45 61 00 00"
2025-08-08T20:21:02.157117,38.716,"can1  206  [16]  EF 66 87 1C C9 63 73 1B 90 18 5A 68 45 61 00 00
  can1  206  [16]  76 66 8E 1C F2 63 62 1B 94 18 09 68 BD 61 00 00"
2025-08-08T20:21:02.157117,38.716,"can1  206  [16]  31 68 2B 1C A1 63 56 1B 5D 18 E1 67 2B 60 00 00
  can1  206  [16]  40 67 5C 1C C9 63 45 1B 6B 18 E1 67 A3 60 00 00"
2025-08-08T20:21:02.157117,38.716,"can1  206  [16]  68 67 6E 1C 1A 64 45 1B 74 18 90 67 1C 61 00 00
  can1  206  [16]  C7 66 7B 1C F2 63 4B 1B 82 18 68 67 6D 61 00 00"
2025-08-08T20:21:02.669791,39.228,"can1  206  [16]  90 67 8E 1C 1A 64 5C 1B 86 18 B9 67 6D 61 00 00
  can1  206  [16]  EF 66 8E 1C 42 64 62 1B 9E 18 B9 67 BD 61 00 00"
2025-08-08T20:21:02.671807,39.230,"can1  206  [16]  68 67 43 1C A1 63 68 1B 5D 18 E1 67 F4 60 00 00
  can1  206  [16]  D5 65 7B 1C 93 64 5C 1B 66 18 B9 67 F4 60 00 00"
2025-08-08T20:21:02.671807,39.230,"can1  206  [16]  E3 64 7B 1C E3 64 62 1B 6F 18 31 68 45 61 00 00
  can1  206  [16]  4E 66 87 1C BB 64 68 1B 8B 18 31 68 95 61 00 00"
2025-08-08T20:21:02.674642,39.233,"can1  206  [16]  93 64 8E 1C D5 65 68 1B 99 18 31 68 BD 61 00 00
  can1  206  [16]  E3 64 43 1C BB 64 6D 1B 5D 18 09 68 CC 60 00 00"
2025-08-08T20:21:02.675659,39.234,"can1  206  [16]  93 64 68 1C 93 64 68 1B 74 18 90 67 F4 60 00 00
  can1  206  [16]  E3 64 7B 1C 93 64 73 1B 7D 18 B9 67 1C 61 00 00"
2025-08-08T20:21:03.177065,39.735,"can1  206  [16]  BB 64 94 1C BB 64 79 1B 9E 18 E1 67 6D 61 00 00
  can1  206  [16]  6A 64 94 1C D5 65 79 1B 8B 18 09 68 E6 61 00 00"
2025-08-08T20:21:03.179524,39.738,"can1  206  [16]  1A 64 3D 1C BB 64 73 1B 4F 18 B9 67 F4 60 00 00
  can1  206  [16]  1A 64 68 1C 6A 64 73 1B 61 18 B9 67 1C 61 00 00"
2025-08-08T20:21:03.179524,39.738,"can1  206  [16]  A1 63 81 1C BB 64 73 1B 78 18 90 67 6D 61 00 00
  can1  206  [16]  50 63 87 1C E3 64 73 1B 8B 18 09 68 6D 61 00 00"
2025-08-08T20:21:03.179524,39.738,"can1  206  [16]  C9 63 8E 1C E3 64 79 1B 94 18 5A 68 E6 61 00 00
  can1  206  [16]  26 66 37 1C 93 64 79 1B 4A 18 B9 67 CC 60 00 00"
2025-08-08T20:21:03.179524,39.738,"can1  206  [16]  E3 64 68 1C 6A 64 62 1B 54 18 90 67 F4 60 00 00
  can1  206  [16]  BB 64 7B 1C BB 64 68 1B 54 18 B9 67 45 61 00 00"
2025-08-08T20:21:03.691338,40.250,"can1  206  [16]  93 64 87 1C BB 64 68 1B 6B 18 09 68 6D 61 00 00
  can1  206  [16]  BB 64 94 1C 0C 65 5C 1B 74 18 82 68 95 61 00 00"
2025-08-08T20:21:03.692564,40.251,"can1  206  [16]  93 64 94 1C FD 65 62 1B 7D 18 82 68 E6 61 00 00
  can1  206  [16]  D5 65 56 1C 93 64 62 1B 46 18 B9 67 1C 61 00 00"
2025-08-08T20:21:03.692564,40.251,"can1  206  [16]  0C 65 75 1C 93 64 6D 1B 4F 18 B9 67 45 61 00 00
  can1  206  [16]  0C 65 87 1C BB 64 73 1B 54 18 09 68 6D 61 00 00"
2025-08-08T20:21:03.694283,40.253,"can1  206  [16]  D5 65 94 1C 0C 65 68 1B 6F 18 09 68 BD 61 00 00
  can1  206  [16]  C9 63 43 1C BB 64 5C 1B 22 18 E1 67 A3 60 00 00"
2025-08-08T20:21:03.695494,40.254,"can1  206  [16]  28 63 5C 1C C9 63 68 1B 4A 18 68 67 F4 60 00 00
  can1  206  [16]  A1 63 75 1C 79 63 68 1B 4A 18 09 68 45 61 00 00"
2025-08-08T20:21:04.197554,40.756,"can1  206  [16]  C9 63 87 1C C9 63 73 1B 58 18 5A 68 95 61 00 00
  can1  206  [16]  50 63 94 1C F2 63 6D 1B 5D 18 31 68 95 61 00 00"
2025-08-08T20:21:04.197554,40.756,"can1  206  [16]  C9 63 8E 1C D5 65 6D 1B 61 18 AA 68 BD 61 00 00
  can1  206  [16]  1A 64 43 1C 93 64 68 1B 1D 18 09 68 7B 60 00 00"
2025-08-08T20:21:04.197554,40.756,"can1  206  [16]  C9 63 75 1C 93 64 68 1B 41 18 E1 67 F4 60 00 00
  can1  206  [16]  A1 63 7B 1C BB 64 68 1B 54 18 09 68 45 61 00 00"
2025-08-08T20:21:04.197554,40.756,"can1  206  [16]  79 63 94 1C BB 64 68 1B 6F 18 D3 68 E6 61 00 00
  can1  206  [16]  42 64 31 1C 6A 64 79 1B 1D 18 82 68 7B 60 00 00"
2025-08-08T20:21:04.197554,40.756,"can1  206  [16]  C9 63 56 1C 6A 64 73 1B 41 18 82 68 CC 60 00 00
  can1  206  [16]  A1 63 68 1C 6A 64 68 1B 4F 18 82 68 1C 61 00 00"
2025-08-08T20:21:04.691534,41.250,"can1  206  [16]  50 63 75 1C 93 64 62 1B 5D 18 FB 68 45 61 00 00
  can1  206  [16]  93 64 81 1C BB 64 68 1B 66 18 FB 68 BD 61 00 00"
2025-08-08T20:21:04.691534,41.250,"can1  206  [16]  FD 65 1F 1C 93 64 73 1B 46 18 5A 68 A3 60 00 00
  can1  206  [16]  0C 65 50 1C 42 64 73 1B 54 18 09 68 CC 60 00 00
  can1  206  [16]  42 64 68 1C 93 64 6D 1B 5D 18 09 68 1C 61 00 00"
2025-08-08T20:21:04.691534,41.250,"can1  206  [16]  A1 63 75 1C 6A 64 68 1B 74 18 09 68 45 61 00 00
  can1  206  [16]  79 63 87 1C 93 64 6D 1B 82 18 AA 68 0E 62 00 00"
2025-08-08T20:21:04.691534,41.250,"can1  206  [16]  F2 63 2B 1C 6A 64 84 1B 4A 18 31 68 CC 60 00 00
  can1  206  [16]  C9 63 50 1C 6A 64 84 1B 58 18 82 68 1C 61 00 00"
2025-08-08T20:21:04.691534,41.250,"can1  206  [16]  1A 64 62 1C 1A 64 68 1B 61 18 31 68 45 61 00 00
  can1  206  [16]  A1 63 6E 1C 6A 64 6D 1B 74 18 5A 68 45 61 00 00"
2025-08-08T20:21:05.201801,41.760,"can1  206  [16]  28 63 7B 1C E3 64 62 1B 7D 18 82 68 95 61 00 00
  can1  206  [16]  28 63 87 1C D5 65 73 1B 94 18 AA 68 E6 61 00 00"
2025-08-08T20:21:05.201801,41.760,"can1  206  [16]  C9 63 43 1C 93 64 73 1B 4F 18 82 68 CC 60 00 00
  can1  206  [16]  A1 63 56 1C 93 64 73 1B 61 18 82 68 F4 60 00 00"
2025-08-08T20:21:05.201801,41.760,"can1  206  [16]  A1 63 68 1C BB 64 73 1B 78 18 82 68 6D 61 00 00
  can1  206  [16]  A1 63 8E 1C BB 64 79 1B 82 18 AA 68 BD 61 00 00"
2025-08-08T20:21:05.201801,41.760,"can1  206  [16]  42 64 25 1C 93 64 84 1B 54 18 31 68 53 60 00 00
  can1  206  [16]  C9 63 50 1C 6A 64 73 1B 58 18 09 68 A3 60 00 00"
2025-08-08T20:21:05.201801,41.760,"can1  206  [16]  A1 63 5C 1C 93 64 73 1B 61 18 31 68 CC 60 00 00
  can1  206  [16]  A1 63 75 1C 93 64 6D 1B 6F 18 AA 68 6D 61 00 00"
2025-08-08T20:21:05.711757,42.270,"can1  206  [16]  50 63 87 1C E3 64 6D 1B 82 18 D3 68 6D 61 00 00
  can1  206  [16]  BB 64 87 1C FD 65 62 1B 94 18 D3 68 BD 61 00 00"
2025-08-08T20:21:05.711757,42.270,"can1  206  [16]  D5 65 31 1C E3 64 79 1B 54 18 09 68 CC 60 00 00
  can1  206  [16]  FD 65 5C 1C BB 64 7F 1B 61 18 5A 68 F4 60 00 00"
2025-08-08T20:21:05.713773,42.272,"can1  206  [16]  D5 65 6E 1C BB 64 8A 1B 78 18 31 68 1C 61 00 00
  can1  206  [16]  BB 64 7B 1C BB 64 79 1B 82 18 AA 68 6D 61 00 00"
2025-08-08T20:21:05.715789,42.274,"can1  206  [16]  BB 64 81 1C 0C 65 79 1B 9E 18 FB 68 E6 61 00 00
  can1  206  [16]  26 66 2B 1C E3 64 7F 1B 4A 18 AA 68 CC 60 00 00"
2025-08-08T20:21:05.715789,42.274,"can1  206  [16]  EF 66 50 1C 93 64 79 1B 5D 18 5A 68 F4 60 00 00
  can1  206  [16]  FD 65 68 1C C9 63 7F 1B 66 18 AA 68 F4 60 00 00"
2025-08-08T20:21:06.206533,42.765,"can1  206  [16]  FD 65 7B 1C A1 63 7F 1B 78 18 FB 68 1C 61 00 00
  can1  206  [16]  D5 65 87 1C F2 63 7F 1B 86 18 FB 68 E6 61 00 00"
2025-08-08T20:21:06.206533,42.765,"can1  206  [16]  EF 66 31 1C 79 63 7F 1B 4A 18 AA 68 CC 60 00 00
  can1  206  [16]  C7 66 56 1C 79 63 73 1B 5D 18 AA 68 1C 61 00 00"
2025-08-08T20:21:06.208549,42.767,"can1  206  [16]  C7 66 6E 1C F2 63 68 1B 6B 18 D3 68 6D 61 00 00
  can1  206  [16]  FD 65 87 1C C9 63 56 1B 74 18 FB 68 E6 61 00 00"
2025-08-08T20:21:06.208549,42.769,"can1  206  [16]  C7 66 13 1C C9 63 68 1B 46 18 AA 68 CC 60 00 00
  can1  206  [16]  9F 66 43 1C A1 63 62 1B 4F 18 82 68 A3 60 00 00"
2025-08-08T20:21:06.210564,42.769,"can1  206  [16]  0C 65 5C 1C 79 63 56 1B 54 18 D3 68 F4 60 00 00
  can1  206  [16]  FD 65 68 1C C9 63 56 1B 66 18 D3 68 45 61 00 00"
2025-08-08T20:21:06.715143,43.274,"can1  206  [16]  EF 66 7B 1C A1 63 56 1B 78 18 74 69 0E 62 00 00
  can1  206  [16]  68 67 1F 1C A1 63 6D 1B 46 18 D3 68 6D 61 00 00"
2025-08-08T20:21:06.715143,43.274,"can1  206  [16]  C7 66 49 1C 79 63 62 1B 54 18 AA 68 F4 60 00 00
  can1  206  [16]  D5 65 62 1C 79 63 5C 1B 54 18 E1 67 1C 61 00 00"
2025-08-08T20:21:06.715143,43.274,"can1  206  [16]  9F 66 7B 1C C9 63 56 1B 61 18 31 68 6D 61 00 00
  can1  206  [16]  E3 64 8E 1C A1 63 56 1B 74 18 31 68 0E 62 00 00"
2025-08-08T20:21:06.715143,43.274,"can1  206  [16]  4E 66 1F 1C 28 63 68 1B 41 18 09 68 53 60 00 00
  can1  206  [16]  93 64 50 1C 28 63 68 1B 54 18 09 68 A3 60 00 00"
2025-08-08T20:21:06.715143,43.274,"can1  206  [16]  BB 64 6E 1C A1 63 56 1B 54 18 5A 68 F4 60 00 00
  can1  206  [16]  C9 63 7B 1C 79 63 56 1B 61 18 31 68 6D 61 00 00"
2025-08-08T20:21:07.227333,43.786,"can1  206  [16]  79 63 81 1C A1 63 56 1B 74 18 AA 68 6D 61 00 00
  can1  206  [16]  93 64 94 1C C9 63 5C 1B 7D 18 AA 68 0E 62 00 00"
2025-08-08T20:21:07.227333,43.786,"can1  206  [16]  D5 65 3D 1C A1 63 73 1B 46 18 AA 68 A3 60 00 00
  can1  206  [16]  6A 64 62 1C A1 63 62 1B 54 18 82 68 F4 60 00 00"
2025-08-08T20:21:07.229348,43.788,"can1  206  [16]  93 64 75 1C A1 63 5C 1B 66 18 E1 67 F4 60 00 00
  can1  206  [16]  6A 64 87 1C 1A 64 5C 1B 74 18 68 67 6D 61 00 00"
2025-08-08T20:21:07.229348,43.788,"can1  206  [16]  F2 63 9A 1C 1A 64 4B 1B 78 18 E1 67 95 61 00 00
  can1  206  [16]  1A 64 9A 1C 6A 64 56 1B 8B 18 31 68 0E 62 00 00"
2025-08-08T20:21:07.231362,43.790,"can1  206  [16]  6A 64 49 1C C9 63 56 1B 4A 18 B9 67 CC 60 00 00
  can1  206  [16]  1A 64 75 1C A1 63 51 1B 58 18 68 67 45 61 00 00"
2025-08-08T20:21:07.722739,44.281,"can1  206  [16]  0C 65 7B 1C A1 63 4B 1B 66 18 B9 67 95 61 00 00
  can1  206  [16]  1A 64 8E 1C F2 63 51 1B 7D 18 E1 67 E6 61 00 00"
2025-08-08T20:21:07.722739,44.281,"can1  206  [16]  D5 65 31 1C C9 63 68 1B 4F 18 68 67 7B 60 00 00
  can1  206  [16]  4E 66 50 1C 79 63 62 1B 58 18 68 67 CC 60 00 00"
2025-08-08T20:21:07.724757,44.283,"can1  206  [16]  D5 65 62 1C 79 63 73 1B 61 18 B9 67 45 61 00 00
  can1  206  [16]  6A 64 7B 1C 79 63 79 1B 6F 18 68 67 95 61 00 00"
2025-08-08T20:21:07.726773,44.285,"can1  206  [16]  C9 63 87 1C 79 63 7F 1B 7D 18 68 67 95 61 00 00
  can1  206  [16]  6A 64 87 1C C9 63 7F 1B 8B 18 68 67 0E 62 00 00"
2025-08-08T20:21:07.726773,44.285,"can1  206  [16]  0C 65 31 1C 79 63 6D 1B 4F 18 40 67 F4 60 00 00
  can1  206  [16]  0C 65 50 1C 50 63 56 1B 61 18 40 67 45 61 00 00"
2025-08-08T20:21:08.217469,44.776,"can1  206  [16]  A1 63 75 1C 79 63 56 1B 6F 18 B9 67 6D 61 00 00
  can1  206  [16]  C9 63 7B 1C 79 63 51 1B 82 18 B9 67 BD 61 00 00"
2025-08-08T20:21:08.217469,44.776,"can1  206  [16]  1A 64 19 1C 50 63 73 1B 4A 18 17 67 A3 60 00 00
  can1  206  [16]  A1 63 37 1C 00 63 68 1B 5D 18 40 67 F4 60 00 00"
2025-08-08T20:21:08.219486,44.778,"can1  206  [16]  F2 63 56 1C 28 63 73 1B 58 18 17 67 1C 61 00 00
  can1  206  [16]  42 64 6E 1C 50 63 79 1B 6B 18 B9 67 6D 61 00 00"
2025-08-08T20:21:08.221502,44.780,"can1  206  [16]  C9 63 6E 1C F2 63 79 1B 74 18 E1 67 BD 61 00 00
  can1  206  [16]  6A 64 1F 1C 28 63 96 1B 46 18 90 67 7B 60 00 00"
2025-08-08T20:21:08.221502,44.780,"can1  206  [16]  93 64 43 1C 50 63 8A 1B 4A 18 C7 66 7B 60 00 00
  can1  206  [16]  42 64 56 1C A1 63 79 1B 58 18 17 67 F4 60 00 00"
2025-08-08T20:21:08.739686,45.298,"can1  206  [16]  93 64 62 1C 79 63 73 1B 66 18 17 67 45 61 00 00
  can1  206  [16]  1A 64 6E 1C A1 63 51 1B 74 18 90 67 BD 61 00 00"
2025-08-08T20:21:08.741698,45.300,"can1  206  [16]  FD 65 06 1C 28 63 68 1B 46 18 C7 66 7B 60 00 00
  can1  206  [16]  E3 64 31 1C 00 63 5C 1B 54 18 C7 66 CC 60 00 00"
2025-08-08T20:21:08.743711,45.302,"can1  206  [16]  1A 64 49 1C 28 63 4B 1B 5D 18 EF 66 45 61 00 00
  can1  206  [16]  42 64 62 1C 50 63 45 1B 66 18 17 67 45 61 00 00"
2025-08-08T20:21:08.745721,45.304,"can1  206  [16]  C9 63 68 1C A1 63 3A 1B 78 18 17 67 0E 62 00 00
  can1  206  [16]  E3 64 00 1C 28 63 73 1B 4A 18 4E 66 7B 60 00 00"
2025-08-08T20:21:08.745721,45.304,"can1  206  [16]  4E 66 25 1C 00 63 68 1B 58 18 76 66 A3 60 00 00
  can1  206  [16]  26 66 37 1C 50 63 5C 1B 5D 18 EF 66 A3 60 00 00"
2025-08-08T20:21:09.233829,45.792,"can1  206  [16]  6A 64 5C 1C 79 63 5C 1B 66 18 EF 66 45 61 00 00
  can1  206  [16]  A1 63 5C 1C C9 63 5C 1B 6F 18 68 67 BD 61 00 00"
2025-08-08T20:21:09.250310,45.809,"can1  206  [16]  6A 64 06 1C 50 63 7F 1B 41 18 9F 66 53 60 00 00
  can1  206  [16]  42 64 25 1C 50 63 68 1B 4A 18 4E 66 53 60 00 00"
2025-08-08T20:21:09.250310,45.809,"can1  206  [16]  93 64 3D 1C 50 63 62 1B 54 18 EF 66 CC 60 00 00
  can1  206  [16]  BB 64 49 1C A1 63 68 1B 58 18 EF 66 1C 61 00 00"
2025-08-08T20:21:09.252322,45.811,"can1  206  [16]  C9 63 62 1C 79 63 56 1B 5D 18 EF 66 45 61 00 00
  can1  206  [16]  F2 63 7B 1C C9 63 4B 1B 6F 18 40 67 95 61 00 00"
2025-08-08T20:21:09.252322,45.811,"can1  206  [16]  A1 63 87 1C F2 63 56 1B 78 18 40 67 BD 61 00 00
  can1  206  [16]  6A 64 2B 1C 28 63 56 1B 46 18 40 67 F4 60 00 00"
2025-08-08T20:21:09.747354,46.306,"can1  206  [16]  1A 64 50 1C 00 63 51 1B 4F 18 40 67 45 61 00 00
  can1  206  [16]  A1 63 68 1C 50 63 51 1B 61 18 90 67 BD 61 00 00"
2025-08-08T20:21:09.749372,46.308,"can1  206  [16]  D5 65 FA 1B 00 63 79 1B 41 18 76 66 53 60 00 00
  can1  206  [16]  6A 64 1F 1C 00 63 68 1B 4F 18 76 66 2B 60 00 00"
2025-08-08T20:21:09.749372,46.308,"can1  206  [16]  6A 64 3D 1C D8 62 56 1B 58 18 EF 66 7B 60 00 00
  can1  206  [16]  BB 64 50 1C 00 63 45 1B 58 18 68 67 CC 60 00 00"
2025-08-08T20:21:09.751389,46.310,"can1  206  [16]  93 64 56 1C 28 63 3A 1B 61 18 90 67 45 61 00 00
  can1  206  [16]  BB 64 6E 1C 50 63 3A 1B 74 18 68 67 95 61 00 00"
2025-08-08T20:21:09.751389,46.310,"can1  206  [16]  93 64 81 1C A1 63 4B 1B 7D 18 B9 67 95 61 00 00
  can1  206  [16]  0C 65 7B 1C F2 63 4B 1B 90 18 E1 67 0E 62 00 00"
2025-08-08T20:21:10.242016,46.800,"can1  206  [16]  AD 65 43 1C 50 63 4B 1B 4F 18 B9 67 F4 60 00 00
  can1  206  [16]  0C 65 5C 1C 50 63 45 1B 5D 18 40 67 45 61 00 00"
2025-08-08T20:21:10.244032,46.802,"can1  206  [16]  0C 65 6E 1C 79 63 56 1B 6F 18 68 67 A3 60 00 00
  can1  206  [16]  26 66 7B 1C C9 63 5C 1B 7D 18 E1 67 95 61 00 00
  can1  206  [16]  D5 65 81 1C F2 63 5C 1B 86 18 B9 67 BD 61 00 00"
2025-08-08T20:21:10.244032,46.802,can1  206  [16]  0C 65 31 1C 79 63 68 1B 4A 18 90 67 F4 60 00 00
2025-08-08T20:21:10.246046,46.804,"can1  206  [16]  FD 65 5C 1C 79 63 68 1B 5D 18 68 67 45 61 00 00
  can1  206  [16]  C7 66 68 1C 79 63 4B 1B 74 18 40 67 95 61 00 00"
2025-08-08T20:21:10.246046,46.804,"can1  206  [16]  FD 65 7B 1C 79 63 4B 1B 7D 18 68 67 BD 61 00 00
  can1  206  [16]  76 66 1F 1C 00 63 5C 1B 4A 18 40 67 7B 60 00 00"
2025-08-08T20:21:10.733211,47.292,"can1  206  [16]  D5 65 3D 1C 28 63 45 1B 58 18 40 67 A3 60 00 00
  can1  206  [16]  26 66 5C 1C 50 63 45 1B 5D 18 68 67 CC 60 00 00
  can1  206  [16]  D5 65 6E 1C 79 63 56 1B 6F 18 68 67 F4 60 00 00"
2025-08-08T20:21:10.737050,47.295,"can1  206  [16]  BB 64 7B 1C A1 63 73 1B 7D 18 68 67 F4 60 00 00
  can1  206  [16]  E3 64 8E 1C C9 63 7F 1B 8B 18 B9 67 45 61 00 00"
2025-08-08T20:21:10.737050,47.295,"can1  206  [16]  E3 64 87 1C 42 64 79 1B 90 18 B9 67 E6 61 00 00
  can1  206  [16]  0C 65 49 1C 79 63 68 1B 54 18 68 67 CC 60 00 00"
2025-08-08T20:21:10.737050,47.295,"can1  206  [16]  4E 66 68 1C 50 63 7F 1B 6F 18 90 67 CC 60 00 00
  can1  206  [16]  BB 64 75 1C 79 63 7F 1B 7D 18 68 67 1C 61 00 00"
2025-08-08T20:21:10.737050,47.295,"can1  206  [16]  BB 64 7B 1C 79 63 84 1B 86 18 90 67 45 61 00 00
  can1  206  [16]  93 64 87 1C F2 63 84 1B 8B 18 E1 67 1C 61 00 00"
2025-08-08T20:21:11.244906,47.803,can1  206  [16]  42 64 8E 1C 6A 64 90 1B 94 18 09 68 45 61 00 00
2025-08-08T20:21:11.244906,47.803,"can1  206  [16]  C9 63 8E 1C 6A 64 84 1B 99 18 E1 67 6D 61 00 00
  can1  206  [16]  A1 63 87 1C BB 64 84 1B 9E 18 AA 68 0E 62 00 00
  can1  206  [16]  6A 64 7B 1C 50 63 51 1B 78 18 40 67 36 62 00 00"
2025-08-08T20:21:11.246922,47.805,"can1  206  [16]  6A 64 31 1C 50 63 56 1B 46 18 9F 66 CC 60 00 00
  can1  206  [16]  E3 64 56 1C 28 63 40 1B 4A 18 40 67 1C 61 00 00"
2025-08-08T20:21:11.248939,47.807,"can1  206  [16]  BB 64 68 1C 50 63 3A 1B 5D 18 B9 67 45 61 00 00
  can1  206  [16]  AD 65 75 1C 28 63 45 1B 78 18 B9 67 45 61 00 00"
2025-08-08T20:21:11.248939,47.807,"can1  206  [16]  E3 64 81 1C A1 63 56 1B 78 18 E1 67 BD 61 00 00
  can1  206  [16]  76 66 2B 1C 28 63 62 1B 46 18 90 67 A3 60 00 00"
2025-08-08T20:21:11.738767,48.297,"can1  206  [16]  0C 65 50 1C 28 63 62 1B 54 18 90 67 7B 60 00 00
  can1  206  [16]  0C 65 68 1C 50 63 56 1B 61 18 E1 67 53 60 00 00"
2025-08-08T20:21:11.738767,48.297,"can1  206  [16]  0C 65 75 1C 28 63 5C 1B 74 18 B9 67 6D 61 00 00
  can1  206  [16]  E3 64 7B 1C A1 63 40 1B 7D 18 E1 67 95 61 00 00"
2025-08-08T20:21:11.738767,48.297,"can1  206  [16]  BB 64 81 1C 1A 64 45 1B 82 18 31 68 36 62 00 00
  can1  206  [16]  FD 65 3D 1C 79 63 45 1B 41 18 B9 67 1C 61 00 00"
2025-08-08T20:21:11.738767,48.297,"can1  206  [16]  D5 65 62 1C 28 63 4B 1B 54 18 B9 67 45 61 00 00
  can1  206  [16]  BB 64 68 1C A1 63 40 1B 66 18 90 67 95 61 00 00"
2025-08-08T20:21:11.738767,48.297,"can1  206  [16]  93 64 7B 1C A1 63 45 1B 74 18 40 67 E6 61 00 00
  can1  206  [16]  4E 66 25 1C 50 63 4B 1B 41 18 40 67 CC 60 00 00"
2025-08-08T20:21:12.234607,48.793,"can1  206  [16]  E3 64 50 1C 00 63 4B 1B 78 18 68 67 6D 61 00 00
  can1  206  [16]  E3 64 68 1C 00 63 56 1B 66 18 68 67 6D 61 00 00"
2025-08-08T20:21:12.236623,48.795,"can1  206  [16]  26 66 68 1C 79 63 5C 1B 61 18 E1 67 95 61 00 00
  can1  206  [16]  BB 64 7B 1C A1 63 62 1B 78 18 E1 67 95 61 00 00"
2025-08-08T20:21:12.236623,48.795,"can1  206  [16]  0C 65 7B 1C 1A 64 62 1B 7D 18 B9 67 E6 61 00 00
  can1  206  [16]  C7 66 37 1C 28 63 5C 1B 3D 18 EF 66 6D 61 00 00"
2025-08-08T20:21:12.236623,48.795,"can1  206  [16]  68 67 62 1C A1 63 5C 1B 4F 18 EF 66 95 61 00 00
  can1  206  [16]  6A 64 75 1C A1 63 56 1B 61 18 C7 66 95 61 00 00"
2025-08-08T20:21:12.236623,48.795,"can1  206  [16]  42 64 7B 1C F2 63 51 1B 6F 18 EF 66 E6 61 00 00
  can1  206  [16]  26 66 25 1C A1 63 68 1B 41 18 C7 66 7B 60 00 00"
2025-08-08T20:21:12.744524,49.303,"can1  206  [16]  1A 64 49 1C C9 63 68 1B 4F 18 EF 66 CC 60 00 00
  can1  206  [16]  BB 64 62 1C 28 63 5C 1B 4A 18 90 67 45 61 00 00"
2025-08-08T20:21:12.746541,49.305,"can1  206  [16]  BB 64 75 1C 50 63 51 1B 61 18 E1 67 E6 61 00 00
  can1  206  [16]  C7 66 0C 1C 00 63 62 1B 2B 18 68 67 CC 60 00 00"
2025-08-08T20:21:12.746541,49.305,"can1  206  [16]  76 66 3D 1C 00 63 56 1B 46 18 EF 66 CC 60 00 00
  can1  206  [16]  E3 64 49 1C 28 63 56 1B 4A 18 68 67 1C 61 00 00"
2025-08-08T20:21:12.746541,49.305,"can1  206  [16]  F2 63 62 1C 28 63 51 1B 54 18 90 67 F4 60 00 00
  can1  206  [16]  C9 63 62 1C 50 63 4B 1B 61 18 68 67 6D 61 00 00"
2025-08-08T20:21:12.746541,49.305,"can1  206  [16]  A1 63 87 1C 50 63 51 1B 6B 18 B9 67 BD 61 00 00
  can1  206  [16]  6A 64 25 1C 00 63 5C 1B 34 18 40 67 A3 60 00 00"
2025-08-08T20:21:13.237734,49.796,"can1  206  [16]  1A 64 43 1C 87 62 6D 1B 46 18 17 67 F4 60 00 00
  can1  206  [16]  6A 64 5C 1C 00 63 68 1B 4A 18 68 67 F4 60 00 00"
2025-08-08T20:21:13.239751,49.798,"can1  206  [16]  93 64 68 1C 28 63 62 1B 54 18 E1 67 6D 61 00 00
  can1  206  [16]  C9 63 7B 1C A1 63 62 1B 66 18 E1 67 BD 61 00 00"
2025-08-08T20:21:13.241768,49.800,"can1  206  [16]  93 64 1F 1C 00 63 79 1B 38 18 68 67 7B 60 00 00
  can1  206  [16]  6A 64 3D 1C 00 63 73 1B 46 18 40 67 A3 60 00 00"
2025-08-08T20:21:13.243284,49.802,"can1  206  [16]  F2 63 56 1C 00 63 73 1B 4F 18 90 67 F4 60 00 00
  can1  206  [16]  F2 63 68 1C 28 63 68 1B 5D 18 90 67 45 61 00 00
  can1  206  [16]  F2 63 81 1C 28 63 56 1B 6F 18 B9 67 95 61 00 00"
2025-08-08T20:21:13.745824,50.304,"can1  206  [16]  A1 63 81 1C 28 63 56 1B 74 18 B9 67 BD 61 00 00
  can1  206  [16]  1A 64 2B 1C 28 63 68 1B 46 18 40 67 A3 60 00 00"
2025-08-08T20:21:13.747840,50.306,"can1  206  [16]  F2 63 50 1C 00 63 62 1B 54 18 EF 66 F4 60 00 00
  can1  206  [16]  A1 63 68 1C 00 63 62 1B 6B 18 EF 66 CC 60 00 00"
2025-08-08T20:21:13.747840,50.306,can1  206  [16]  79 63 75 1C 28 63 62 1B 86 18 EF 66 CC 60 00 00
2025-08-08T20:21:13.747840,50.306,"can1  206  [16]  79 63 8E 1C 79 63 62 1B 94 18 B9 67 F4 60 00 00
  can1  206  [16]  50 63 81 1C F2 63 6D 1B 9E 18 E1 67 45 61 00 00
  can1  206  [16]  28 63 7B 1C 42 64 73 1B A7 18 09 68 E6 61 00 00"
2025-08-08T20:21:13.747840,50.306,"can1  206  [16]  1A 64 56 1C 79 63 62 1B 6F 18 B9 67 45 61 00 00
  can1  206  [16]  A1 63 6E 1C 28 63 6D 1B 78 18 90 67 45 61 00 00"
2025-08-08T20:21:13.747840,50.306,"can1  206  [16]  A1 63 8E 1C 79 63 73 1B 82 18 90 67 6D 61 00 00
  can1  206  [16]  93 64 8E 1C F2 63 73 1B 99 18 B9 67 6D 61 00 00"
2025-08-08T20:21:14.241906,50.800,"can1  206  [16]  BB 64 87 1C 6A 64 7F 1B 99 18 B9 67 95 61 00 00
  can1  206  [16]  A1 63 87 1C BB 64 79 1B A7 18 E1 67 95 61 00 00"
2025-08-08T20:21:14.243919,50.802,"can1  206  [16]  50 63 7B 1C D5 65 90 1B B0 18 31 68 E6 61 00 00
  can1  206  [16]  E3 64 68 1C F2 63 68 1B 78 18 E1 67 6D 61 00 00"
2025-08-08T20:21:14.243919,50.802,"can1  206  [16]  BB 64 7B 1C 42 64 73 1B 8B 18 E1 67 BD 61 00 00
  can1  206  [16]  D5 65 37 1C C9 63 6D 1B 54 18 90 67 02 60 00 00"
2025-08-08T20:21:14.245932,50.804,"can1  206  [16]  0C 65 62 1C A1 63 68 1B 61 18 90 67 A3 60 00 00
  can1  206  [16]  C7 66 6E 1C C9 63 62 1B 74 18 B9 67 A3 60 00 00"
2025-08-08T20:21:14.748249,51.307,can1  206  [16]  17 67 81 1C A1 63 73 1B 90 18 E1 67 F4 60 00 00
2025-08-08T20:21:14.750267,51.309,"can1  206  [16]  26 66 87 1C F2 63 73 1B 94 18 09 68 F4 60 00 00
  can1  206  [16]  26 66 94 1C 6A 64 79 1B A2 18 E1 67 45 61 00 00
  can1  206  [16]  BB 64 87 1C 6A 64 79 1B B0 18 31 68 6D 61 00 00"
2025-08-08T20:21:14.750267,51.309,"can1  206  [16]  28 63 87 1C E3 64 73 1B AC 18 82 68 6D 61 00 00
  can1  206  [16]  79 63 7B 1C D5 65 8A 1B B0 18 AA 68 95 61 00 00"
2025-08-08T20:21:14.752282,51.311,"can1  206  [16]  00 63 62 1C FD 65 A7 1B B5 18 FB 68 45 61 00 00
  can1  206  [16]  E6 61 62 1C 26 66 B3 1B B5 18 74 69 45 61 00 00"
2025-08-08T20:21:14.752282,51.311,"can1  206  [16]  AF 62 5C 1C 4E 66 BF 1B CD 18 66 6A CC 60 00 00
  can1  206  [16]  D8 62 43 1C 76 66 B9 1B B5 18 8E 6A F4 60 00 00"
2025-08-08T20:21:15.253096,51.812,"can1  206  [16]  E6 61 49 1C FD 65 C5 1B A2 18 DE 6A F4 60 00 00
  can1  206  [16]  D8 62 3D 1C FD 65 C5 1B A2 18 B6 6A A3 60 00 00"
2025-08-08T20:21:15.256701,51.815,"can1  206  [16]  36 62 3D 1C FD 65 C5 1B 99 18 B6 6A A3 60 00 00
  can1  206  [16]  36 62 31 1C D5 65 CB 1B 94 18 8E 6A 53 60 00 00"
2025-08-08T20:21:15.256701,51.815,"can1  206  [16]  36 62 31 1C E3 64 D1 1B 8B 18 B6 6A 2B 60 00 00
  can1  206  [16]  00 63 1F 1C BB 64 CB 1B 90 18 8E 6A 7B 60 00 00"
2025-08-08T20:21:15.256701,51.815,"can1  206  [16]  D8 62 1F 1C BB 64 E8 1B 86 18 66 6A 2B 60 00 00
  can1  206  [16]  5F 62 0C 1C BB 64 06 1C 7D 18 15 6A 2B 60 00 00"
2025-08-08T20:21:15.256701,51.815,"can1  206  [16]  28 63 EE 1B 6A 64 13 1C 7D 18 9C 69 B2 5F 00 00
  can1  206  [16]  42 64 D1 1B 6A 64 25 1C 7D 18 74 69 E8 5E 00 00"
2025-08-08T20:21:15.256701,51.815,"can1  206  [16]  D8 62 CB 1B 93 64 1F 1C 66 18 4C 69 C0 5E 00 00
  can1  206  [16]  A1 63 BF 1B 1A 64 1F 1C 58 18 23 69 E8 5E 00 00"
2025-08-08T20:21:15.750545,52.309,"can1  206  [16]  50 63 AD 1B F2 63 25 1C 4A 18 D3 68 C0 5E 00 00
  can1  206  [16]  C9 63 B9 1B 79 63 2B 1C 41 18 23 69 6F 5E 00 00"
2025-08-08T20:21:15.750545,52.309,"can1  206  [16]  F2 63 AD 1B 00 63 19 1C 38 18 23 69 1F 5E 00 00
  can1  206  [16]  1A 64 A7 1B A1 63 06 1C 2B 18 AA 68 47 5E 00 00"
2025-08-08T20:21:15.752559,52.311,"can1  206  [16]  D5 65 BF 1B 79 63 FA 1B 22 18 E1 67 47 5E 00 00
  can1  206  [16]  E3 64 C5 1B 00 63 EE 1B 22 18 B9 67 C0 5E 00 00"
2025-08-08T20:21:15.754575,52.313,"can1  206  [16]  9F 66 C5 1B D8 62 E8 1B 1D 18 40 67 98 5E 00 00
  can1  206  [16]  4E 66 DD 1B AF 62 C5 1B 22 18 FD 65 C0 5E 00 00"
2025-08-08T20:21:16.253343,52.812,"can1  206  [16]  C7 66 F4 1B 87 62 C5 1B 41 18 FD 65 10 5F 00 00
  can1  206  [16]  26 66 EE 1B AF 62 CB 1B 46 18 0C 65 39 5F 00 00"
2025-08-08T20:21:16.253343,52.812,"can1  206  [16]  EF 66 06 1C D8 62 CB 1B 4A 18 FD 65 98 5E 00 00
  can1  206  [16]  40 67 FA 1B D8 62 BF 1B 4A 18 FD 65 47 5E 00 00"
2025-08-08T20:21:16.253343,52.812,"can1  206  [16]  FD 65 00 1C 28 63 BF 1B 5D 18 0C 65 C0 5E 00 00
  can1  206  [16]  26 66 13 1C 28 63 B9 1B 58 18 D5 65 E8 5E 00 00"
2025-08-08T20:21:16.253343,52.812,"can1  206  [16]  76 66 0C 1C A1 63 A7 1B 4A 18 FD 65 10 5F 00 00
  can1  206  [16]  93 64 0C 1C F2 63 9C 1B 4F 18 4E 66 39 5F 00 00"
2025-08-08T20:21:16.253343,52.812,"can1  206  [16]  E3 64 1F 1C 1A 64 79 1B 5D 18 C7 66 61 5F 00 00
  can1  206  [16]  1A 64 31 1C 1A 64 62 1B 5D 18 40 67 B2 5F 00 00"
2025-08-08T20:21:16.748062,53.306,"can1  206  [16]  6A 64 56 1C 1A 64 51 1B 61 18 E1 67 2B 60 00 00
  can1  206  [16]  C9 63 5C 1C 6A 64 45 1B 61 18 90 67 7B 60 00 00"
2025-08-08T20:21:16.748062,53.306,"can1  206  [16]  42 64 6E 1C 6A 64 5C 1B 74 18 90 67 CC 60 00 00
  can1  206  [16]  79 63 87 1C 6A 64 51 1B 8B 18 B9 67 F4 60 00 00"
2025-08-08T20:21:16.748062,53.306,"can1  206  [16]  79 63 8E 1C BB 64 5C 1B A2 18 09 68 45 61 00 00
  can1  206  [16]  C9 63 9A 1C D5 65 62 1B A7 18 31 68 45 61 00 00"
2025-08-08T20:21:16.748062,53.306,"can1  206  [16]  28 63 87 1C 4E 66 6D 1B B0 18 5A 68 45 61 00 00
  can1  206  [16]  D8 62 8E 1C C7 66 7F 1B D2 18 AA 68 45 61 00 00"
2025-08-08T20:21:16.748062,53.306,"can1  206  [16]  D8 62 75 1C EF 66 7F 1B C8 18 FB 68 45 61 00 00
  can1  206  [16]  5F 62 62 1C 17 67 79 1B BA 18 74 69 1C 61 00 00"
2025-08-08T20:21:17.256963,53.815,"can1  206  [16]  36 62 62 1C 40 67 73 1B B0 18 4C 69 1C 61 00 00
  can1  206  [16]  87 62 62 1C 68 67 79 1B AC 18 66 6A CC 60 00 00"
2025-08-08T20:21:17.256963,53.815,"can1  206  [16]  5F 62 50 1C B9 67 8A 1B AC 18 8E 6A 7B 60 00 00
  can1  206  [16]  AF 62 43 1C 68 67 90 1B A2 18 8E 6A 53 60 00 00"
2025-08-08T20:21:17.258981,53.817,"can1  206  [16]  79 63 3D 1C 40 67 A7 1B 99 18 DE 6A 2B 60 00 00
  can1  206  [16]  0E 62 37 1C 40 67 AD 1B 90 18 2F 6B 2B 60 00 00"
2025-08-08T20:21:17.260997,53.819,"can1  206  [16]  00 63 37 1C EF 66 B3 1B 86 18 07 6B 02 60 00 00
  can1  206  [16]  0E 62 2B 1C EF 66 BF 1B 82 18 B6 6A 89 5F 00 00"
2025-08-08T20:21:17.260997,53.819,"can1  206  [16]  36 62 2B 1C 9F 66 D1 1B 86 18 8E 6A 39 5F 00 00
  can1  206  [16]  AF 62 19 1C 76 66 E3 1B 99 18 9C 69 53 60 00 00"
2025-08-08T20:21:17.769922,54.328,"can1  206  [16]  5F 62 06 1C 76 66 E8 1B 74 18 4C 69 A3 60 00 00
  can1  206  [16]  D8 62 EE 1B 4E 66 FA 1B 6B 18 23 69 53 60 00 00"
2025-08-08T20:21:17.771376,54.330,"can1  206  [16]  F2 63 DD 1B FD 65 13 1C 61 18 23 69 DA 5F 00 00
  can1  206  [16]  D8 62 CB 1B D5 65 19 1C 4F 18 74 69 39 5F 00 00"
2025-08-08T20:21:17.771376,54.330,"can1  206  [16]  D8 62 BF 1B E3 64 06 1C 46 18 4C 69 39 5F 00 00
  can1  206  [16]  28 63 A7 1B 93 64 06 1C 3D 18 D3 68 E8 5E 00 00"
2025-08-08T20:21:17.771376,54.330,"can1  206  [16]  50 63 AD 1B 6A 64 13 1C 38 18 AA 68 47 5E 00 00
  can1  206  [16]  50 63 AD 1B 1A 64 13 1C 22 18 5A 68 47 5E 00 00"
2025-08-08T20:21:17.771376,54.330,"can1  206  [16]  79 63 AD 1B A1 63 06 1C 1D 18 82 68 1F 5E 00 00
  can1  206  [16]  1A 64 C5 1B 79 63 EE 1B 1D 18 E1 67 1F 5E 00 00"
2025-08-08T20:21:18.279794,54.838,"can1  206  [16]  6A 64 CB 1B 28 63 E3 1B 1D 18 68 67 47 5E 00 00
  can1  206  [16]  93 64 C5 1B 00 63 EE 1B 1D 18 17 67 6F 5E 00 00"
2025-08-08T20:21:18.281809,54.840,"can1  206  [16]  E3 64 D1 1B 00 63 FA 1B 22 18 17 67 6F 5E 00 00
  can1  206  [16]  FD 65 DD 1B D8 62 FA 1B 22 18 76 66 10 5F 00 00"
2025-08-08T20:21:18.281809,54.840,"can1  206  [16]  D5 65 EE 1B D8 62 FA 1B 3D 18 26 66 39 5F 00 00
  can1  206  [16]  E3 64 FA 1B D8 62 E8 1B 41 18 D5 65 39 5F 00 00"
2025-08-08T20:21:18.283820,54.842,"can1  206  [16]  BB 64 F4 1B 00 63 DD 1B 4A 18 FD 65 89 5F 00 00
  can1  206  [16]  BB 64 F4 1B 00 63 C5 1B 4A 18 D5 65 B2 5F 00 00"
2025-08-08T20:21:18.283820,54.842,"can1  206  [16]  BB 64 00 1C 50 63 C5 1B 4A 18 26 66 DA 5F 00 00
  can1  206  [16]  6A 64 0C 1C 79 63 B9 1B 41 18 26 66 2B 60 00 00"
2025-08-08T20:21:18.787206,55.346,"can1  206  [16]  4E 66 13 1C C9 63 A2 1B 4A 18 4E 66 A3 60 00 00
  can1  206  [16]  4E 66 25 1C F2 63 9C 1B 5D 18 C7 66 2B 60 00 00"
2025-08-08T20:21:18.789222,55.348,"can1  206  [16]  0C 65 3D 1C 1A 64 7F 1B 46 18 17 67 7B 60 00 00
  can1  206  [16]  0C 65 49 1C 1A 64 73 1B 46 18 40 67 CC 60 00 00"
2025-08-08T20:21:18.790237,55.349,"can1  206  [16]  FD 65 62 1C 1A 64 73 1B 54 18 68 67 6D 61 00 00
  can1  206  [16]  E3 64 6E 1C 42 64 73 1B 61 18 90 67 45 61 00 00"
2025-08-08T20:21:18.792277,55.351,"can1  206  [16]  0C 65 87 1C 6A 64 73 1B 74 18 40 67 95 61 00 00
  can1  206  [16]  93 64 8E 1C D5 65 79 1B 7D 18 B9 67 E6 61 00 00"
2025-08-08T20:21:18.792277,55.351,"can1  206  [16]  0C 65 43 1C 6A 64 79 1B 46 18 68 67 F4 60 00 00
  can1  206  [16]  D5 65 62 1C 93 64 6D 1B 58 18 68 67 1C 61 00 00"
2025-08-08T20:21:19.291995,55.850,"can1  206  [16]  E3 64 6E 1C 42 64 68 1B 66 18 90 67 6D 61 00 00
  can1  206  [16]  E3 64 7B 1C 79 63 68 1B 74 18 90 67 6D 61 00 00"
2025-08-08T20:21:19.296096,55.855,"can1  206  [16]  E3 64 81 1C A1 63 68 1B 7D 18 B9 67 E6 61 00 00
  can1  206  [16]  AD 65 2B 1C 28 63 68 1B 46 18 68 67 7B 60 00 00"
2025-08-08T20:21:19.298104,55.857,"can1  206  [16]  D5 65 5C 1C 28 63 68 1B 66 18 68 67 CC 60 00 00
  can1  206  [16]  D5 65 68 1C 28 63 68 1B 5D 18 90 67 1C 61 00 00"
2025-08-08T20:21:19.298104,55.857,"can1  206  [16]  D5 65 75 1C 79 63 6D 1B 74 18 B9 67 45 61 00 00
  can1  206  [16]  93 64 87 1C C9 63 6D 1B 82 18 09 68 E6 61 00 00"
2025-08-08T20:21:19.298104,55.857,"can1  206  [16]  D5 65 2B 1C C9 63 79 1B 4A 18 17 67 7B 60 00 00
  can1  206  [16]  1A 64 50 1C 79 63 6D 1B 58 18 40 67 1C 61 00 00"
2025-08-08T20:21:19.788060,56.346,"can1  206  [16]  F2 63 62 1C 79 63 68 1B 6B 18 40 67 45 61 00 00
  can1  206  [16]  A1 63 6E 1C A1 63 6D 1B 78 18 68 67 95 61 00 00"
2025-08-08T20:21:19.790080,56.348,"can1  206  [16]  A1 63 7B 1C F2 63 6D 1B 7D 18 E1 67 E6 61 00 00
  can1  206  [16]  1A 64 31 1C A1 63 7F 1B 46 18 90 67 7B 60 00 00"
2025-08-08T20:21:19.790080,56.348,"can1  206  [16]  C9 63 5C 1C 50 63 79 1B 4A 18 B9 67 1C 61 00 00
  can1  206  [16]  1A 64 68 1C 79 63 73 1B 58 18 09 68 45 61 00 00"
2025-08-08T20:21:19.792097,56.351,"can1  206  [16]  1A 64 6E 1C A1 63 73 1B 6B 18 B9 67 45 61 00 00
  can1  206  [16]  A1 63 7B 1C A1 63 73 1B 74 18 B9 67 6D 61 00 00"
2025-08-08T20:21:19.792097,56.351,"can1  206  [16]  50 63 87 1C 42 64 79 1B 86 18 09 68 E6 61 00 00
  can1  206  [16]  C9 63 43 1C 79 63 73 1B 46 18 40 67 45 61 00 00"
2025-08-08T20:21:20.284256,56.843,"can1  206  [16]  A1 63 68 1C A1 63 68 1B 54 18 C7 66 45 61 00 00
  can1  206  [16]  F2 63 7B 1C C9 63 6D 1B 6B 18 EF 66 6D 61 00 00"
2025-08-08T20:21:20.286275,56.845,"can1  206  [16]  1A 64 87 1C C9 63 6D 1B 74 18 17 67 87 62 00 00
  can1  206  [16]  4E 66 2B 1C 79 63 84 1B 46 18 EF 66 7B 60 00 00"
2025-08-08T20:21:20.286275,56.845,"can1  206  [16]  D5 65 56 1C 28 63 96 1B 4A 18 17 67 A3 60 00 00
  can1  206  [16]  E3 64 68 1C 79 63 73 1B 58 18 40 67 F4 60 00 00"
2025-08-08T20:21:20.288292,56.847,"can1  206  [16]  FD 65 6E 1C C9 63 84 1B 6B 18 B9 67 45 61 00 00
  can1  206  [16]  FD 65 81 1C F2 63 84 1B 78 18 09 68 BD 61 00 00"
2025-08-08T20:21:20.288292,56.847,"can1  206  [16]  4E 66 25 1C 50 63 90 1B 46 18 68 67 F4 60 00 00
  can1  206  [16]  76 66 49 1C 50 63 84 1B 54 18 68 67 F4 60 00 00"
2025-08-08T20:21:20.793546,57.352,"can1  206  [16]  C7 66 5C 1C A1 63 7F 1B 58 18 90 67 1C 61 00 00
  can1  206  [16]  76 66 6E 1C 50 63 6D 1B 78 18 90 67 6D 61 00 00"
2025-08-08T20:21:20.794556,57.353,"can1  206  [16]  26 66 81 1C 28 63 73 1B 90 18 E1 67 6D 61 00 00
  can1  206  [16]  E3 64 8E 1C 50 63 79 1B 99 18 68 67 BD 61 00 00"
2025-08-08T20:21:20.794556,57.353,"can1  206  [16]  FD 65 37 1C 00 63 7F 1B 58 18 40 67 7B 60 00 00
  can1  206  [16]  26 66 62 1C 00 63 7F 1B 66 18 68 67 F4 60 00 00"
2025-08-08T20:21:20.794556,57.353,"can1  206  [16]  0C 65 68 1C 79 63 90 1B 78 18 40 67 45 61 00 00
  can1  206  [16]  E3 64 75 1C 28 63 8A 1B 82 18 68 67 95 61 00 00
  can1  206  [16]  E3 64 8E 1C A1 63 84 1B 94 18 90 67 45 61 00 00"
2025-08-08T20:21:20.794556,57.353,"can1  206  [16]  E3 64 8E 1C 93 64 79 1B 99 18 90 67 45 61 00 00
  can1  206  [16]  6A 64 8E 1C BB 64 6D 1B A2 18 90 67 45 61 00 00"
2025-08-08T20:21:21.288226,57.847,"can1  206  [16]  6A 64 7B 1C D5 65 73 1B A7 18 09 68 45 61 00 00
  can1  206  [16]  A1 63 7B 1C 0C 65 73 1B AC 18 AA 68 95 61 00 00"
2025-08-08T20:21:21.288226,57.847,"can1  206  [16]  79 63 75 1C D5 65 79 1B B0 18 FB 68 45 61 00 00
  can1  206  [16]  79 63 68 1C 4E 66 6D 1B AC 18 9C 69 7B 60 00 00"
2025-08-08T20:21:21.288226,57.847,"can1  206  [16]  28 63 56 1C 4E 66 79 1B AC 18 15 6A 7B 60 00 00
  can1  206  [16]  D8 62 50 1C 4E 66 79 1B A7 18 ED 69 53 60 00 00"
2025-08-08T20:21:21.288226,57.847,"can1  206  [16]  5F 62 43 1C 76 66 8A 1B A7 18 66 6A 53 60 00 00
  can1  206  [16]  AF 62 3D 1C 76 66 8A 1B 99 18 B6 6A 2B 60 00 00"
2025-08-08T20:21:21.288226,57.847,"can1  206  [16]  D8 62 37 1C 4E 66 BF 1B 90 18 8E 6A 02 60 00 00
  can1  206  [16]  00 63 43 1C FD 65 BF 1B 90 18 15 6A 02 60 00 00"
2025-08-08T20:21:21.781000,58.339,"can1  206  [16]  D8 62 2B 1C D5 65 AD 1B A7 18 8E 6A 02 60 00 00
  can1  206  [16]  28 63 31 1C 0C 65 AD 1B AC 18 8E 6A 7B 60 00 00"
2025-08-08T20:21:21.781000,58.339,"can1  206  [16]  00 63 1F 1C BB 64 BF 1B AC 18 66 6A 7B 60 00 00
  can1  206  [16]  A1 63 1F 1C 93 64 E8 1B A7 18 ED 69 53 60 00 00"
2025-08-08T20:21:21.781000,58.339,"can1  206  [16]  C9 63 06 1C 6A 64 00 1C A7 18 C4 69 2B 60 00 00
  can1  206  [16]  F2 63 F4 1B 6A 64 1F 1C A2 18 9C 69 02 60 00 00"
2025-08-08T20:21:21.781000,58.339,"can1  206  [16]  C9 63 DD 1B 6A 64 31 1C 99 18 23 69 61 5F 00 00
  can1  206  [16]  93 64 CB 1B 1A 64 31 1C 6F 18 FB 68 10 5F 00 00"
2025-08-08T20:21:21.781000,58.339,"can1  206  [16]  9F 66 BF 1B 42 64 3D 1C 58 18 82 68 C0 5E 00 00
  can1  206  [16]  26 66 AD 1B C9 63 43 1C 4A 18 AA 68 98 5E 00 00"
2025-08-08T20:21:22.293787,58.852,"can1  206  [16]  FD 65 A7 1B 50 63 3D 1C 18 18 AA 68 47 5E 00 00
  can1  206  [16]  EF 66 BF 1B 28 63 31 1C 0F 18 AA 68 CE 5D 00 00"
2025-08-08T20:21:22.296824,58.855,"can1  206  [16]  4E 66 BF 1B D8 62 2B 1C 06 18 AA 68 A6 5D 00 00
  can1  206  [16]  17 67 BF 1B 50 63 06 1C 06 18 E1 67 CE 5D 00 00"
2025-08-08T20:21:22.296824,58.855,"can1  206  [16]  40 67 CB 1B 28 63 DD 1B 06 18 68 67 F6 5D 00 00
  can1  206  [16]  68 67 D7 1B D8 62 DD 1B 06 18 C7 66 47 5E 00 00"
2025-08-08T20:21:22.298840,58.857,"can1  206  [16]  82 68 E3 1B D8 62 DD 1B 06 18 C7 66 98 5E 00 00
  can1  206  [16]  E1 67 E8 1B D8 62 BF 1B 0F 18 76 66 98 5E 00 00"
2025-08-08T20:21:22.298840,58.857,"can1  206  [16]  D3 68 EE 1B 5F 62 BF 1B 14 18 FD 65 C0 5E 00 00
  can1  206  [16]  68 67 EE 1B D8 62 C5 1B 1D 18 FD 65 C0 5E 00 00"
2025-08-08T20:21:22.802330,59.361,"can1  206  [16]  76 66 FA 1B 00 63 C5 1B 26 18 26 66 10 5F 00 00
  can1  206  [16]  76 66 00 1C 28 63 CB 1B 22 18 26 66 61 5F 00 00"
2025-08-08T20:21:22.807099,59.366,"can1  206  [16]  40 67 06 1C A1 63 E3 1B 38 18 D5 65 61 5F 00 00
  can1  206  [16]  40 67 0C 1C A1 63 CB 1B 41 18 FD 65 DA 5F 00 00"
2025-08-08T20:21:22.808176,59.367,"can1  206  [16]  68 67 0C 1C F2 63 BF 1B 3D 18 4E 66 02 60 00 00
  can1  206  [16]  40 67 19 1C 42 64 B9 1B 4A 18 9F 66 B2 5F 00 00"
2025-08-08T20:21:22.810190,59.369,"can1  206  [16]  90 67 37 1C 50 63 9C 1B 46 18 40 67 7B 60 00 00
  can1  206  [16]  17 67 43 1C 28 63 7F 1B 78 18 90 67 A3 60 00 00"
2025-08-08T20:21:22.810190,59.369,"can1  206  [16]  B9 67 5C 1C A1 63 56 1B 82 18 90 67 F4 60 00 00
  can1  206  [16]  E1 67 6E 1C C9 63 45 1B 8B 18 E1 67 F4 60 00 00"
2025-08-08T20:21:23.298202,59.857,"can1  206  [16]  AD 65 81 1C C9 63 40 1B 7D 18 E1 67 1C 61 00 00
  can1  206  [16]  4E 66 8E 1C F2 63 4B 1B 86 18 B9 67 CC 60 00 00"
2025-08-08T20:21:23.300220,59.859,"can1  206  [16]  4E 66 87 1C 1A 64 56 1B 99 18 68 67 1C 61 00 00
  can1  206  [16]  E3 64 87 1C 93 64 62 1B AC 18 E1 67 45 61 00 00"
2025-08-08T20:21:23.300220,59.859,"can1  206  [16]  D5 65 8E 1C D5 65 5C 1B B5 18 82 68 45 61 00 00
  can1  206  [16]  FD 65 8E 1C D5 65 62 1B BA 18 82 68 1C 61 00 00"
2025-08-08T20:21:23.302237,59.861,"can1  206  [16]  4E 66 7B 1C FD 65 79 1B BF 18 FB 68 BD 61 00 00
  can1  206  [16]  EF 66 7B 1C 6A 64 5C 1B 99 18 31 68 0E 62 00 00"
2025-08-08T20:21:23.302237,59.861,"can1  206  [16]  68 67 3D 1C A1 63 68 1B 7D 18 40 67 CC 60 00 00
  can1  206  [16]  26 66 6E 1C 50 63 68 1B 9E 18 17 67 F4 60 00 00"
2025-08-08T20:21:23.806613,60.365,"can1  206  [16]  FD 65 81 1C A1 63 62 1B AC 18 90 67 1C 61 00 00
  can1  206  [16]  4E 66 87 1C C9 63 45 1B BF 18 E1 67 45 61 00 00"
2025-08-08T20:21:23.806613,60.365,"can1  206  [16]  BB 64 87 1C F2 63 40 1B C8 18 31 68 95 61 00 00
  can1  206  [16]  4E 66 94 1C 1A 64 45 1B D6 18 31 68 BD 61 00 00"
2025-08-08T20:21:23.806613,60.365,"can1  206  [16]  EF 66 5C 1C C9 63 3A 1B 6B 18 B9 67 F4 60 00 00
  can1  206  [16]  FD 65 6E 1C 79 63 40 1B 86 18 68 67 1C 61 00 00"
2025-08-08T20:21:23.806613,60.365,"can1  206  [16]  D5 65 8E 1C C9 63 40 1B 90 18 B9 67 45 61 00 00
  can1  206  [16]  17 67 87 1C 42 64 34 1B 99 18 B9 67 6D 61 00 00"
2025-08-08T20:21:23.806613,60.365,"can1  206  [16]  0C 65 8E 1C 6A 64 3A 1B B0 18 E1 67 0E 62 00 00
  can1  206  [16]  26 66 43 1C A1 63 3A 1B 8B 18 68 67 1C 61 00 00"
2025-08-08T20:21:24.304467,60.863,"can1  206  [16]  76 66 6E 1C A1 63 3A 1B A7 18 40 67 1C 61 00 00
  can1  206  [16]  FD 65 6E 1C C9 63 40 1B BA 18 90 67 95 61 00 00"
2025-08-08T20:21:24.304467,60.863,"can1  206  [16]  D5 65 81 1C C9 63 45 1B 9E 18 E1 67 6D 61 00 00
  can1  206  [16]  6A 64 87 1C 6A 64 4B 1B A7 18 5A 68 36 62 00 00"
2025-08-08T20:21:24.306475,60.865,"can1  206  [16]  D5 65 31 1C A1 63 45 1B 66 18 90 67 45 61 00 00
  can1  206  [16]  FD 65 62 1C A1 63 40 1B 78 18 B9 67 45 61 00 00"
2025-08-08T20:21:24.306475,60.865,"can1  206  [16]  D5 65 6E 1C 79 63 4B 1B 82 18 B9 67 6D 61 00 00
  can1  206  [16]  0C 65 8E 1C 1A 64 73 1B 90 18 E1 67 45 61 00 00"
2025-08-08T20:21:24.306475,60.865,"can1  206  [16]  FD 65 94 1C 93 64 7F 1B A2 18 31 68 BD 61 00 00
  can1  206  [16]  76 66 43 1C C9 63 6D 1B 61 18 B9 67 CC 60 00 00"
2025-08-08T20:21:24.798326,61.357,"can1  206  [16]  C7 66 5C 1C 50 63 62 1B 74 18 90 67 45 61 00 00
  can1  206  [16]  76 66 75 1C 50 63 56 1B 86 18 E1 67 1C 61 00 00"
2025-08-08T20:21:24.801167,61.360,"can1  206  [16]  26 66 81 1C 79 63 56 1B 94 18 E1 67 6D 61 00 00
  can1  206  [16]  FD 65 87 1C C9 63 73 1B A2 18 E1 67 F4 60 00 00"
2025-08-08T20:21:24.801167,61.360,"can1  206  [16]  D5 65 87 1C 1A 64 7F 1B B0 18 31 68 1C 61 00 00
  can1  206  [16]  D5 65 8E 1C 6A 64 8A 1B B5 18 31 68 1C 61 00 00"
2025-08-08T20:21:24.803872,61.362,"can1  206  [16]  BB 64 8E 1C E3 64 9C 1B C3 18 5A 68 7B 60 00 00
  can1  206  [16]  1A 64 7B 1C FD 65 A2 1B BF 18 D3 68 53 60 00 00"
2025-08-08T20:21:24.803872,61.362,"can1  206  [16]  D8 62 7B 1C FD 65 96 1B BA 18 4C 69 45 61 00 00
  can1  206  [16]  28 63 68 1C 4E 66 84 1B BF 18 C4 69 1C 61 00 00"
2025-08-08T20:21:25.306662,61.865,"can1  206  [16]  AF 62 5C 1C 76 66 84 1B B0 18 ED 69 1C 61 00 00
  can1  206  [16]  87 62 5C 1C 76 66 84 1B AC 18 3D 6A F4 60 00 00"
2025-08-08T20:21:25.306662,61.865,"can1  206  [16]  AF 62 50 1C 76 66 84 1B A7 18 8E 6A A3 60 00 00
  can1  206  [16]  5F 62 43 1C 26 66 90 1B 90 18 B6 6A 7B 60 00 00"
2025-08-08T20:21:25.306662,61.865,"can1  206  [16]  5F 62 43 1C D5 65 96 1B 9E 18 DE 6A 7B 60 00 00
  can1  206  [16]  5F 62 31 1C 0C 65 9C 1B 94 18 DE 6A 7B 60 00 00"
2025-08-08T20:21:25.306662,61.865,"can1  206  [16]  87 62 2B 1C BB 64 A2 1B 82 18 B6 6A 7B 60 00 00
  can1  206  [16]  D8 62 25 1C 6A 64 B9 1B 86 18 8E 6A 53 60 00 00"
2025-08-08T20:21:25.306662,61.865,"can1  206  [16]  00 63 25 1C 93 64 C5 1B 7D 18 3D 6A 02 60 00 00
  can1  206  [16]  A1 63 13 1C 6A 64 D1 1B 7D 18 9C 69 53 60 00 00"
2025-08-08T20:21:25.801844,62.360,"can1  206  [16]  A1 63 F4 1B 6A 64 DD 1B 78 18 23 69 2B 60 00 00
  can1  206  [16]  A1 63 E8 1B 42 64 EE 1B 78 18 74 69 89 5F 00 00"
2025-08-08T20:21:25.803898,62.362,"can1  206  [16]  E3 64 D7 1B 42 64 00 1C 74 18 23 69 10 5F 00 00
  can1  206  [16]  34 65 C5 1B 1A 64 00 1C 61 18 4C 69 39 5F 00 00"
2025-08-08T20:21:25.804945,62.363,"can1  206  [16]  EF 66 B9 1B F2 63 0C 1C 54 18 82 68 89 5F 00 00
  can1  206  [16]  FD 65 AD 1B A1 63 06 1C 46 18 31 68 39 5F 00 00"
2025-08-08T20:21:25.805977,62.364,"can1  206  [16]  50 63 B9 1B 50 63 00 1C 3D 18 31 68 61 5F 00 00
  can1  206  [16]  00 63 A7 1B D8 62 06 1C 22 18 B9 67 47 5E 00 00"
2025-08-08T20:21:25.807015,62.365,"can1  206  [16]  50 63 B9 1B 5F 62 0C 1C 1D 18 90 67 F6 5D 00 00
  can1  206  [16]  50 63 BF 1B 5F 62 06 1C 14 18 68 67 47 5E 00 00"
2025-08-08T20:21:26.296812,62.855,"can1  206  [16]  A1 63 CB 1B 0E 62 00 1C 14 18 EF 66 98 5E 00 00
  can1  206  [16]  F2 63 D7 1B BD 61 00 1C 1D 18 17 67 47 5E 00 00"
2025-08-08T20:21:26.298832,62.857,"can1  206  [16]  42 64 E8 1B 6D 61 E8 1B 66 18 D5 65 C0 5E 00 00
  can1  206  [16]  79 63 3D 1C AF 62 B3 1B 66 18 C7 66 E8 5E 00 00"
2025-08-08T20:21:26.298832,62.857,"can1  206  [16]  F2 63 3D 1C 00 63 9C 1B 61 18 EF 66 39 5F 00 00
  can1  206  [16]  1A 64 5C 1C 28 63 8A 1B 6B 18 68 67 89 5F 00 00"
2025-08-08T20:21:26.300849,62.859,"can1  206  [16]  6A 64 62 1C A1 63 79 1B 78 18 B9 67 7B 60 00 00
  can1  206  [16]  79 63 6E 1C A1 63 73 1B 82 18 B9 67 F4 60 00 00"
2025-08-08T20:21:26.300849,62.859,"can1  206  [16]  A1 63 7B 1C C9 63 79 1B 99 18 E1 67 45 61 00 00
  can1  206  [16]  28 63 87 1C 1A 64 79 1B C8 18 09 68 6D 61 00 00"
2025-08-08T20:21:26.823455,63.382,"can1  206  [16]  00 63 87 1C 42 64 79 1B D6 18 82 68 BD 61 00 00
  can1  206  [16]  79 63 56 1C A1 63 79 1B 74 18 68 67 A3 60 00 00"
2025-08-08T20:21:26.823455,63.382,"can1  206  [16]  79 63 68 1C 79 63 73 1B 86 18 EF 66 7B 60 00 00
  can1  206  [16]  50 63 75 1C A1 63 73 1B 94 18 17 67 1C 61 00 00"
2025-08-08T20:21:26.823455,63.382,"can1  206  [16]  28 63 87 1C F2 63 73 1B A2 18 17 67 1C 61 00 00
  can1  206  [16]  79 63 87 1C 93 64 73 1B AC 18 68 67 6D 61 00 00"
2025-08-08T20:21:26.823455,63.382,"can1  206  [16]  50 63 81 1C BB 64 79 1B B5 18 09 68 6D 61 00 00
  can1  206  [16]  AF 62 87 1C 26 66 79 1B CD 18 82 68 6D 61 00 00"
