Timestamp,Elapsed_Time_s,CAN_Message
2025-08-09T23:48:47.596614,3.071,can1  206  [16]  CB 0C C5 09 B3 0C FA E4 10 0A D7 0C C3 0C 00 00
2025-08-09T23:48:47.596614,3.071,can1  206  [16]  DF 0C C0 09 BB 0C FA E4 0D 0A DB 0C AF 0C 00 00
2025-08-09T23:48:47.596614,3.071,can1  206  [16]  CB 0C C5 09 B7 0C FA E4 12 0A DF 0C C3 0C 00 00
2025-08-09T23:48:48.190343,3.665,can1  206  [16]  C3 0C C5 09 B7 0C 2E E6 0B 0A D7 0C C7 0C 00 00
2025-08-09T23:48:48.190343,3.665,can1  206  [16]  CB 0C C5 09 B7 0C D0 E5 0B 0A DF 0C C3 0C 00 00
2025-08-09T23:48:48.204369,3.679,"can1  204  [04]  D0 5C 01 00
  can1  206  [16]  BF 0C C5 09 BB 0C FA E4 0D 0A E4 0C CB 0C 00 00"
2025-08-09T23:48:48.204369,3.679,"can1  206  [16]  E4 0C C7 09 B7 0C FA E4 10 0A D7 0C AB 0C 00 00
  can1  206  [16]  CB 0C C2 09 BB 0C 69 E5 0D 0A E4 0C BF 0C 00 00"
2025-08-09T23:48:48.475317,3.950,can1  206  [16]  C7 0C C5 09 B7 0C F4 E3 10 0A DB 0C C7 0C 00 00
2025-08-09T23:48:48.475317,3.950,can1  206  [16]  C7 0C C5 09 CB 0C 7E E4 0D 0A CF 0C C3 0C 00 00
2025-08-09T23:48:48.809210,4.284,can1  206  [16]  C3 0C C2 09 AB 0C FA E4 14 0A F0 0C C7 0C 00 00
2025-08-09T23:48:48.809210,4.284,can1  206  [16]  CF 0C C7 09 B3 0C 7E E4 12 0A DF 0C C3 0C 00 00
2025-08-09T23:48:49.159675,4.634,"can1  206  [16]  C7 0C C5 09 B7 0C 7E E4 0D 0A DF 0C C7 0C 00 00
  can1  204  [04]  D0 5C 01 00"
2025-08-09T23:48:49.459090,4.934,"can1  206  [16]  BF 0C C5 09 BF 0C FA E4 10 0A 10 0D CB 0C 00 00
  can1  206  [16]  C7 0C C7 09 BB 0C FA E4 0D 0A CF 0C C7 0C 00 00"
2025-08-09T23:48:49.459090,4.934,can1  206  [16]  BF 0C C7 09 BF 0C F4 E3 10 0A DF 0C C7 0C 00 00
2025-08-09T23:48:49.792736,5.267,can1  206  [16]  CB 0C C5 09 B7 0C FA E4 10 0A DB 0C C3 0C 00 00
2025-08-09T23:48:49.792736,5.267,can1  206  [16]  C7 0C CB 09 CB 0C C5 E1 10 0A CB 0C C7 0C 00 00
2025-08-09T23:48:49.792736,5.267,can1  206  [16]  CB 0C C7 09 B7 0C F4 E3 09 0A EC 0C C3 0C 00 00
2025-08-09T23:48:50.128120,5.603,"can1  206  [16]  C7 0C C5 09 BB 0C 7E E4 0B 0A E4 0C C3 0C 00 00
  can1  204  [04]  D0 5C 01 00"
2025-08-09T23:48:50.128120,5.603,can1  206  [16]  CB 0C C2 09 B3 0C F4 E3 0B 0A DF 0C C3 0C 00 00
2025-08-09T23:48:50.135731,5.610,can1  206  [16]  D3 0C C2 09 B3 0C F4 E3 10 0A DF 0C BF 0C 00 00
2025-08-09T23:48:50.444123,5.919,can1  206  [16]  34 0D C7 09 BB 0C FA E4 0D 0A E3 0C 5B 0C 00 00
2025-08-09T23:48:50.449698,5.924,can1  206  [16]  CB 0C C5 09 BB 0C 7E E4 10 0A DF 0C BF 0C 00 00
2025-08-09T23:48:50.779061,6.254,can1  206  [16]  C7 0C C7 09 BB 0C FA E4 10 0A DF 0C C3 0C 00 00
2025-08-09T23:48:50.779061,6.254,can1  206  [16]  C3 0C C5 09 B7 0C 69 E5 12 0A DB 0C CB 0C 00 00
2025-08-09T23:48:51.110511,6.585,can1  206  [16]  CF 0C C5 09 AB 0C 7E E4 09 0A DF 0C C7 0C 00 00
2025-08-09T23:48:51.114012,6.589,can1  204  [04]  D0 5C 01 00
2025-08-09T23:48:51.114012,6.589,can1  206  [16]  C7 0C C5 09 BB 0C FA E4 0D 0A DF 0C C3 0C 00 00
2025-08-09T23:48:51.114012,6.589,can1  206  [16]  C3 0C C5 09 B7 0C 7E E4 10 0A DB 0C CB 0C 00 00
2025-08-09T23:48:51.427551,6.902,can1  206  [16]  CB 0C C2 09 B7 0C FA E4 12 0A E8 0C BF 0C 00 00
2025-08-09T23:48:51.443295,6.918,can1  206  [16]  CB 0C C7 09 B3 0C 7E E4 10 0A DB 0C C7 0C 00 00
2025-08-09T23:48:51.760958,7.236,can1  206  [16]  DF 0C C7 09 A7 0C D0 E5 10 0A DF 0C BF 0C 00 00
2025-08-09T23:48:51.760958,7.236,can1  206  [16]  CF 0C C7 09 B7 0C 69 E5 12 0A DB 0C BF 0C 00 00
2025-08-09T23:48:52.096782,7.571,can1  206  [16]  CB 0C C5 09 B7 0C 7E E4 10 0A DB 0C BF 0C 00 00
2025-08-09T23:48:52.098792,7.573,"can1  206  [16]  C7 0C C5 09 BB 0C FA E4 0D 0A DF 0C C3 0C 00 00
  can1  204  [04]  D0 5C 01 00"
2025-08-09T23:48:52.427202,7.902,can1  206  [16]  C7 0C C5 09 B3 0C FA E4 0D 0A E8 0C C7 0C 00 00
2025-08-09T23:48:52.427202,7.902,can1  206  [16]  CB 0C C5 09 B7 0C FA E4 0D 0A DF 0C C3 0C 00 00
2025-08-09T23:48:52.427202,7.902,can1  206  [16]  C7 0C C5 09 B7 0C F4 E3 0D 0A DB 0C C7 0C 00 00
2025-08-09T23:48:52.433372,7.908,can1  206  [16]  CB 0C C7 09 B7 0C 2E E6 0D 0A E8 0C C3 0C 00 00
2025-08-09T23:48:52.761221,8.236,can1  206  [16]  C7 0C C7 09 BB 0C 69 E5 10 0A C7 0C C3 0C 00 00
2025-08-09T23:48:52.761221,8.236,can1  206  [16]  C7 0C C2 09 B3 0C FA E4 10 0A E4 0C C3 0C 00 00
2025-08-09T23:48:53.096937,8.572,"can1  206  [16]  C7 0C B1 09 B7 0C FA E4 10 0A D7 0C CB 0C 00 00
  can1  204  [04]  D0 5C 01 00"
2025-08-09T23:48:53.096937,8.572,can1  206  [16]  CB 0C C5 09 CB 0C 57 E3 10 0A BF 0C C3 0C 00 00
2025-08-09T23:48:53.412929,8.888,can1  206  [16]  C7 0C C5 09 BF 0C FA E4 14 0A F8 0C C3 0C 00 00
2025-08-09T23:48:53.412929,8.888,can1  206  [16]  D3 0C C7 09 B7 0C FA E4 10 0A DF 0C BF 0C 00 00
2025-08-09T23:48:53.743739,9.218,can1  206  [16]  CF 0C C5 09 C7 0C F4 E3 12 0A CB 0C BF 0C 00 00
2025-08-09T23:48:53.743739,9.218,can1  206  [16]  BF 0C C5 09 B7 0C 57 E3 10 0A EC 0C CB 0C 00 00
2025-08-09T23:48:53.743739,9.218,can1  206  [16]  BF 0C C2 09 CF 0C F4 E3 10 0A CF 0C CB 0C 00 00
2025-08-09T23:48:54.075252,9.550,can1  206  [16]  CB 0C C5 09 BB 0C 57 E3 0D 0A DB 0C BF 0C 00 00
2025-08-09T23:48:54.075252,9.550,"can1  204  [04]  D0 5C 01 00
  can1  206  [16]  CB 0C C5 09 B7 0C FA E4 0D 0A DF 0C C3 0C 00 00"
2025-08-09T23:48:54.411246,9.886,can1  206  [16]  C7 0C C5 09 B7 0C F4 E3 0D 0A DB 0C C7 0C 00 00
2025-08-09T23:48:54.411246,9.886,can1  206  [16]  D3 0C C0 09 B3 0C FA E4 0D 0A D7 0C BF 0C 00 00
2025-08-09T23:48:54.411246,9.886,can1  206  [16]  CF 0C C5 09 AF 0C 7E E4 10 0A E8 0C C3 0C 00 00
2025-08-09T23:48:54.744155,10.219,can1  206  [16]  C3 0C D0 09 B7 0C F4 E3 0D 0A DF 0C CB 0C 00 00
2025-08-09T23:48:54.747152,10.222,can1  206  [16]  CB 0C C7 09 B7 0C 7E E4 10 0A DB 0C C3 0C 00 00
2025-08-09T23:48:55.079566,10.554,can1  206  [16]  C7 0C C5 09 B7 0C 7E E4 0B 0A DB 0C C7 0C 00 00
2025-08-09T23:48:55.080580,10.555,"can1  204  [04]  D0 5C 01 00
  can1  206  [16]  CF 0C C2 09 B3 0C 7E E4 0D 0A DF 0C BF 0C 00 00"
2025-08-09T23:48:55.398555,10.873,can1  206  [16]  CB 0C C5 09 B7 0C FA E4 10 0A DB 0C C3 0C 00 00
2025-08-09T23:48:55.398555,10.873,can1  206  [16]  C7 0C C5 09 B7 0C 7E E4 0B 0A DF 0C C7 0C 00 00
2025-08-09T23:48:55.398555,10.873,can1  206  [16]  BB 0C C2 09 BB 0C 7E E4 0D 0A DB 0C CF 0C 00 00
2025-08-09T23:48:55.728200,11.203,can1  206  [16]  CB 0C C7 09 B7 0C 7E E4 12 0A E3 0C BF 0C 00 00
2025-08-09T23:48:55.732875,11.208,can1  206  [16]  C7 0C C5 09 BF 0C F4 E3 10 0A CF 0C C3 0C 00 00
2025-08-09T23:48:56.061973,11.537,can1  206  [16]  C3 0C C2 09 BB 0C 7E E4 0D 0A DF 0C C7 0C 00 00
2025-08-09T23:48:56.066964,11.542,can1  206  [16]  C7 0C D0 09 AF 0C FA E4 0D 0A E4 0C C7 0C 00 00
2025-08-09T23:48:56.066964,11.542,can1  204  [04]  D0 5C 01 00
2025-08-09T23:48:56.066964,11.542,can1  206  [16]  D3 0C C0 09 BB 0C D7 E6 10 0A DB 0C BB 0C 00 00
2025-08-09T23:48:56.380981,11.856,can1  206  [16]  CB 0C C7 09 B3 0C F4 E3 10 0A DF 0C C3 0C 00 00
2025-08-09T23:48:56.380981,11.856,can1  206  [16]  CF 0C C5 09 AB 0C FA E4 12 0A E4 0C C3 0C 00 00
2025-08-09T23:48:56.709812,12.184,can1  206  [16]  C7 0C C5 09 BF 0C 69 E5 10 0A DB 0C C3 0C 00 00
2025-08-09T23:48:56.709812,12.184,can1  206  [16]  C3 0C C0 09 B7 0C 69 E5 0D 0A E8 0C CB 0C 00 00
2025-08-09T23:48:57.050086,12.525,can1  206  [16]  CF 0C C2 09 AF 0C FA E4 0D 0A E3 0C C3 0C 00 00
2025-08-09T23:48:57.050086,12.525,can1  206  [16]  CF 0C C5 09 B3 0C 7E E4 0D 0A E3 0C BF 0C 00 00
2025-08-09T23:48:57.050086,12.525,"can1  204  [04]  D0 5C 01 00
  can1  206  [16]  CB 0C C2 09 B7 0C FA E4 0B 0A DB 0C BF 0C 00 00"
2025-08-09T23:48:57.362273,12.837,can1  206  [16]  BB 0C C5 09 B3 0C 57 E3 12 0A E8 0C D3 0C 00 00
2025-08-09T23:48:57.362273,12.837,can1  206  [16]  C7 0C C7 09 D7 0C FA E4 0D 0A BF 0C C3 0C 00 00
2025-08-09T23:48:57.362273,12.837,can1  206  [16]  C3 0C C5 09 CB 0C F4 E3 00 0A CB 0C CB 0C 00 00
2025-08-09T23:48:57.695396,13.170,can1  206  [16]  C3 0C AA 09 BB 0C 7E E4 12 0A DB 0C C7 0C 00 00
2025-08-09T23:48:57.695396,13.170,can1  206  [16]  C7 0C C5 09 B7 0C F4 E3 0D 0A DB 0C C7 0C 00 00
2025-08-09T23:48:58.029093,13.504,can1  206  [16]  CB 0C C5 09 B3 0C D0 E5 10 0A E8 0C C3 0C 00 00
2025-08-09T23:48:58.029093,13.504,"can1  204  [04]  D0 5C 01 00
  can1  206  [16]  D7 0C C5 09 9B 0C A0 E2 0D 0A EC 0C C7 0C 00 00"
2025-08-09T23:48:58.349046,13.824,can1  206  [16]  CB 0C C7 09 B3 0C 69 E5 0D 0A DF 0C C3 0C 00 00
2025-08-09T23:48:58.349046,13.824,can1  206  [16]  C7 0C C5 09 CB 0C 69 E5 0D 0A CF 0C C3 0C 00 00
2025-08-09T23:48:58.349046,13.824,can1  206  [16]  CB 0C C7 09 B7 0C 69 E5 0D 0A E4 0C C3 0C 00 00
2025-08-09T23:48:58.677685,14.152,can1  206  [16]  CB 0C C0 09 CB 0C 69 E5 1D 0A C7 0C C3 0C 00 00
2025-08-09T23:48:58.677685,14.152,can1  206  [16]  C7 0C C5 09 B7 0C F4 E3 0D 0A D3 0C C7 0C 00 00
2025-08-09T23:48:59.011864,14.487,can1  206  [16]  C7 0C C2 09 B7 0C F4 E3 10 0A DB 0C C7 0C 00 00
2025-08-09T23:48:59.012883,14.488,"can1  204  [04]  D0 5C 01 00
  can1  206  [16]  C7 0C C9 09 B7 0C FA E4 0B 0A DB 0C C7 0C 00 00"
2025-08-09T23:48:59.340243,14.815,can1  206  [16]  D3 0C C5 09 B7 0C FA E4 0D 0A E4 0C BB 0C 00 00
2025-08-09T23:48:59.340243,14.815,can1  206  [16]  C7 0C C5 09 BB 0C FA E4 10 0A DF 0C C3 0C 00 00
2025-08-09T23:48:59.340243,14.815,can1  206  [16]  C3 0C C5 09 B7 0C FA E4 0D 0A D7 0C CB 0C 00 00
2025-08-09T23:48:59.671985,15.147,can1  206  [16]  C3 0C BE 09 BB 0C FA E4 10 0A DB 0C C3 0C 00 00
2025-08-09T23:48:59.671985,15.147,can1  206  [16]  CF 0C C5 09 B3 0C FA E4 0B 0A E4 0C C3 0C 00 00
2025-08-09T23:48:59.986347,15.461,can1  206  [16]  CF 0C C5 09 B7 0C FA E4 0D 0A E8 0C BF 0C 00 00
2025-08-09T23:48:59.986347,15.461,can1  206  [16]  C3 0C C2 09 B7 0C F4 E3 10 0A DF 0C CB 0C 00 00
2025-08-09T23:48:59.986347,15.461,can1  204  [04]  D0 5C 01 00
2025-08-09T23:49:00.649618,16.124,"can1  206  [16]  CB 0C C5 09 BB 0C FA E4 10 0A E3 0C BB 0C 00 00
  can1  206  [16]  CB 0C C5 09 B3 0C 7E E4 10 0A DB 0C C7 0C 00 00
  can1  206  [16]  CF 0C C5 09 B3 0C 7E E4 0D 0A D7 0C BF 0C 00 00
  can1  206  [16]  CB 0C C7 09 B3 0C 7E E4 0D 0A E8 0C C3 0C 00 00"
2025-08-09T23:49:00.649618,16.124,can1  206  [16]  C3 0C C5 09 BF 0C 69 E5 12 0A D7 0C C7 0C 00 00
2025-08-09T23:49:00.981674,16.456,can1  206  [16]  CF 0C C5 09 B7 0C 69 E5 0D 0A DB 0C BF 0C 00 00
2025-08-09T23:49:00.981674,16.456,can1  206  [16]  C7 0C C9 09 BB 0C 69 E5 10 0A D3 0C C3 0C 00 00
2025-08-09T23:49:00.981674,16.456,"can1  204  [04]  D0 5C 01 00
  can1  206  [16]  C7 0C C7 09 BB 0C 69 E5 10 0A DF 0C C3 0C 00 00"
2025-08-09T23:49:01.315528,16.790,can1  206  [16]  C7 0C C7 09 B7 0C FA E4 10 0A D7 0C C7 0C 00 00
2025-08-09T23:49:01.315528,16.790,can1  206  [16]  BB 0C C5 09 BF 0C D0 E5 0D 0A DB 0C CF 0C 00 00
2025-08-09T23:49:01.646499,17.121,can1  206  [16]  CB 0C C5 09 B7 0C 7E E4 0D 0A DB 0C C3 0C 00 00
2025-08-09T23:49:01.662217,17.137,can1  206  [16]  CB 0C C7 09 B7 0C 69 E5 0D 0A DB 0C C3 0C 00 00
2025-08-09T23:49:01.662217,17.137,can1  206  [16]  C7 0C C2 09 B3 0C 69 E5 10 0A DF 0C C7 0C 00 00
2025-08-09T23:49:01.978836,17.453,can1  206  [16]  C7 0C C2 09 BB 0C 7E E4 10 0A D7 0C C3 0C 00 00
2025-08-09T23:49:01.978836,17.453,"can1  204  [04]  D0 5C 01 00
  can1  206  [16]  C3 0C C5 09 BB 0C FA E4 1B 0A D7 0C C7 0C 00 00"
2025-08-09T23:49:02.310581,17.785,can1  206  [16]  D3 0C C5 09 B7 0C F4 E3 18 0A E8 0C B7 0C 00 00
2025-08-09T23:49:02.310581,17.785,can1  206  [16]  CB 0C C5 09 B7 0C FA E4 0D 0A E8 0C BF 0C 00 00
2025-08-09T23:49:02.632086,18.107,can1  206  [16]  C3 0C C5 09 B7 0C FA E4 10 0A D7 0C C7 0C 00 00
2025-08-09T23:49:02.632086,18.107,can1  206  [16]  CB 0C C2 09 BF 0C 69 E5 10 0A D7 0C BB 0C 00 00
2025-08-09T23:49:02.632086,18.107,can1  206  [16]  CB 0C C5 09 B7 0C 7E E4 0B 0A E4 0C C3 0C 00 00
2025-08-09T23:49:02.958184,18.433,can1  206  [16]  C7 0C C2 09 B7 0C FA E4 12 0A E3 0C C3 0C 00 00
2025-08-09T23:49:02.958184,18.433,"can1  206  [16]  C3 0C C5 09 CB 0C 69 E5 10 0A C7 0C C7 0C 00 00
  can1  204  [04]  D0 5C 01 00"
2025-08-09T23:49:03.289686,18.764,can1  206  [16]  C3 0C C5 09 B7 0C 69 E5 10 0A D7 0C C7 0C 00 00
2025-08-09T23:49:03.289686,18.764,can1  206  [16]  CB 0C C2 09 BB 0C 7E E4 10 0A DB 0C BF 0C 00 00
2025-08-09T23:49:03.620387,19.095,can1  206  [16]  CB 0C C2 09 B3 0C 69 E5 12 0A D7 0C C7 0C 00 00
2025-08-09T23:49:03.620387,19.095,can1  206  [16]  CF 0C C7 09 BB 0C F4 E3 10 0A D7 0C BB 0C 00 00
2025-08-09T23:49:03.620387,19.095,can1  206  [16]  CB 0C C5 09 B7 0C 69 E5 10 0A E4 0C C3 0C 00 00
2025-08-09T23:49:03.953813,19.428,can1  206  [16]  CB 0C C5 09 CB 0C 69 E5 10 0A D3 0C C3 0C 00 00
2025-08-09T23:49:03.953813,19.428,"can1  206  [16]  C3 0C D6 09 BB 0C 7E E4 0B 0A D3 0C C7 0C 00 00
  can1  204  [04]  D0 5C 01 00"
2025-08-09T23:49:03.953813,19.428,can1  206  [16]  C7 0C C5 09 B7 0C F4 E3 10 0A DB 0C C7 0C 00 00
2025-08-09T23:49:04.288653,19.763,can1  206  [16]  C7 0C C7 09 BB 0C F4 E3 09 0A DB 0C C3 0C 00 00
2025-08-09T23:49:04.288653,19.763,can1  206  [16]  C7 0C C5 09 B7 0C F4 E3 18 0A DF 0C C7 0C 00 00
2025-08-09T23:49:04.621433,20.096,can1  206  [16]  CB 0C C2 09 A7 0C 57 E3 12 0A 8B 0C CB 0C 00 00
2025-08-09T23:49:04.621433,20.096,can1  206  [16]  CB 0C C2 09 B3 0C 69 E5 0B 0A E3 0C C3 0C 00 00
2025-08-09T23:49:04.951562,20.426,can1  206  [16]  D3 0C C5 09 B3 0C FA E4 0B 0A D7 0C C3 0C 00 00
2025-08-09T23:49:04.951562,20.426,can1  206  [16]  C3 0C C0 09 BB 0C FA E4 0D 0A DB 0C C7 0C 00 00
2025-08-09T23:49:04.951562,20.426,can1  204  [04]  D0 5C 01 00
2025-08-09T23:49:04.951562,20.426,can1  206  [16]  CB 0C C5 09 B7 0C 7E E4 10 0A DB 0C C3 0C 00 00
2025-08-09T23:49:05.268922,20.744,can1  206  [16]  D7 0C C7 09 B3 0C 7E E4 0B 0A E3 0C B7 0C 00 00
2025-08-09T23:49:05.268922,20.744,can1  206  [16]  C7 0C C0 09 BF 0C FA E4 14 0A DF 0C C3 0C 00 00
2025-08-09T23:49:05.604702,21.079,can1  206  [16]  CB 0C C5 09 AB 0C 7E E4 0B 0A E8 0C BF 0C 00 00
2025-08-09T23:49:05.608726,21.083,can1  206  [16]  C7 0C C5 09 BB 0C FA E4 0D 0A DB 0C C3 0C 00 00
2025-08-09T23:49:05.935455,21.410,can1  206  [16]  C7 0C C5 09 BB 0C FA E4 0B 0A DF 0C C3 0C 00 00
2025-08-09T23:49:05.935455,21.410,can1  206  [16]  C3 0C C5 09 BB 0C FA E4 0D 0A E4 0C C7 0C 00 00
2025-08-09T23:49:05.935455,21.410,"can1  204  [04]  D0 5C 01 00
  can1  206  [16]  DF 0C CB 09 B3 0C 69 E5 10 0A E8 0C AF 0C 00 00"
2025-08-09T23:49:06.254375,21.730,can1  206  [16]  C3 0C C2 09 BF 0C FA E4 0D 0A D3 0C C7 0C 00 00
2025-08-09T23:49:06.255839,21.730,can1  206  [16]  C7 0C C5 09 B7 0C FA E4 0D 0A DB 0C C7 0C 00 00
2025-08-09T23:49:06.584671,22.059,can1  206  [16]  CB 0C C5 09 C7 0C FA E4 12 0A CF 0C C3 0C 00 00
2025-08-09T23:49:06.584671,22.059,can1  206  [16]  C7 0C C5 09 B7 0C FA E4 10 0A DF 0C C7 0C 00 00
2025-08-09T23:49:06.584671,22.059,can1  206  [16]  C7 0C C7 09 BB 0C 7E E4 10 0A DB 0C C3 0C 00 00
2025-08-09T23:49:07.241869,22.717,"can1  206  [16]  CB 0C C2 09 B7 0C FA E4 0D 0A DF 0C C3 0C 00 00
  can1  206  [16]  C7 0C C2 09 B3 0C 69 E5 12 0A E4 0C C3 0C 00 00
  can1  204  [04]  D0 5C 01 00
  can1  206  [16]  CB 0C B5 09 B7 0C FA E4 10 0A DF 0C C3 0C 00 00"
2025-08-09T23:49:07.243534,22.718,can1  206  [16]  D3 0C C5 09 AF 0C 7E E4 0D 0A E3 0C BF 0C 00 00
2025-08-09T23:49:07.567261,23.042,can1  206  [16]  C7 0C C5 09 BB 0C FA E4 0D 0A E8 0C BF 0C 00 00
2025-08-09T23:49:07.569267,23.044,can1  206  [16]  C7 0C C5 09 BB 0C FA E4 0D 0A DF 0C C3 0C 00 00
2025-08-09T23:49:07.569857,23.044,can1  206  [16]  C7 0C C2 09 EC 0C D7 E6 0B 0A AB 0C C7 0C 00 00
2025-08-09T23:49:07.898862,23.374,can1  206  [16]  CB 0C C5 09 BB 0C 69 E5 18 0A DB 0C BF 0C 00 00
2025-08-09T23:49:07.931486,23.406,can1  206  [16]  C7 0C C5 09 B7 0C FA E4 0D 0A E4 0C C7 0C 00 00
2025-08-09T23:49:07.932490,23.407,can1  204  [04]  D0 5C 01 00
2025-08-09T23:49:08.224122,23.699,can1  206  [16]  DB 0C C2 09 AB 0C 69 E5 0D 0A DF 0C BF 0C 00 00
2025-08-09T23:49:08.224122,23.699,can1  206  [16]  C3 0C C5 09 B7 0C FA E4 0D 0A DB 0C CB 0C 00 00
2025-08-09T23:49:08.550177,24.025,can1  206  [16]  CB 0C C5 09 CB 0C 85 E6 10 0A CF 0C C3 0C 00 00
2025-08-09T23:49:08.550177,24.025,can1  206  [16]  BF 0C C7 09 BB 0C FA E4 18 0A DF 0C CB 0C 00 00
2025-08-09T23:49:08.550177,24.025,can1  206  [16]  C3 0C C2 09 BB 0C FA E4 0B 0A E3 0C C3 0C 00 00
2025-08-09T23:49:08.885610,24.360,can1  206  [16]  CF 0C C5 09 B3 0C FA E4 10 0A DB 0C C3 0C 00 00
2025-08-09T23:49:08.885610,24.360,can1  206  [16]  CB 0C C7 09 B3 0C 69 E5 10 0A DF 0C C7 0C 00 00
2025-08-09T23:49:08.885610,24.360,"can1  204  [04]  D0 5C 01 00
  can1  206  [16]  CF 0C C5 09 B3 0C FA E4 0B 0A DB 0C BF 0C 00 00"
2025-08-09T23:49:09.207999,24.683,can1  206  [16]  C3 0C C0 09 B7 0C D0 E5 0D 0A DF 0C C7 0C 00 00
2025-08-09T23:49:09.209004,24.684,can1  206  [16]  D3 0C C2 09 B7 0C FA E4 10 0A DF 0C BB 0C 00 00
2025-08-09T23:49:09.542098,25.017,can1  206  [16]  C7 0C C2 09 B3 0C 69 E5 0D 0A E4 0C C3 0C 00 00
2025-08-09T23:49:09.542702,25.017,can1  206  [16]  CB 0C C2 09 AF 0C 7E E4 0D 0A E8 0C C7 0C 00 00
2025-08-09T23:49:09.867602,25.342,can1  206  [16]  C3 0C C5 09 BB 0C 7E E4 12 0A DF 0C C3 0C 00 00
2025-08-09T23:49:09.867602,25.342,can1  206  [16]  CB 0C C5 09 B3 0C FA E4 0D 0A E3 0C C3 0C 00 00
2025-08-09T23:49:10.191519,25.666,"can1  204  [04]  D0 5C 01 00
  can1  206  [16]  C7 0C C0 09 B7 0C FA E4 10 0A DB 0C C7 0C 00 00"
2025-08-09T23:49:10.193460,25.668,can1  206  [16]  CB 0C B7 09 B7 0C FA E4 0D 0A D7 0C C3 0C 00 00
2025-08-09T23:49:10.195474,25.670,can1  206  [16]  C7 0C C5 09 D3 0C 69 E5 09 0A CB 0C BF 0C 00 00
2025-08-09T23:49:10.529618,26.004,"can1  001  [05]  C0 D4 01 00 80
  can1  206  [16]  D7 0C C2 09 B3 0C FA E4 0D 0A E8 0C B7 0C 00 00"
2025-08-09T23:49:10.529618,26.004,can1  206  [16]  BF 0C C2 09 A7 0C 69 E5 10 0A CB 0C B3 0C 00 00
2025-08-09T23:49:10.847937,26.323,can1  206  [16]  CB 0C C0 09 A3 0C 7E E4 0D 0A CB 0C AF 0C 00 00
2025-08-09T23:49:10.848949,26.324,can1  206  [16]  D3 0C C7 09 AB 0C FA E4 10 0A C3 0C A7 0C 00 00
2025-08-09T23:49:10.850103,26.325,can1  206  [16]  AF 0C C2 09 AF 0C 69 E5 10 0A CB 0C C3 0C 00 00
2025-08-09T23:49:11.182184,26.657,can1  204  [04]  85 80 01 00
2025-08-09T23:49:11.182184,26.657,can1  206  [16]  C7 0C C5 09 A7 0C 69 E5 0B 0A CF 0C B3 0C 00 00
2025-08-09T23:49:11.182184,26.657,can1  206  [16]  C7 0C C7 09 AB 0C F4 E3 10 0A CB 0C B7 0C 00 00
2025-08-09T23:49:11.517540,26.992,can1  206  [16]  BF 0C C2 09 AB 0C 7E E4 10 0A C3 0C BB 0C 00 00
2025-08-09T23:49:11.522326,26.997,can1  206  [16]  BB 0C C2 09 B7 0C 7E E4 0D 0A D7 0C BB 0C 00 00
2025-08-09T23:49:11.522326,26.997,can1  206  [16]  CF 0C C0 09 AB 0C 7E E4 14 0A D3 0C B3 0C 00 00
2025-08-09T23:49:11.846230,27.321,can1  206  [16]  BF 0C C7 09 B3 0C F4 E3 10 0A D3 0C BB 0C 00 00
2025-08-09T23:49:11.846230,27.321,can1  206  [16]  C7 0C CB 09 AF 0C 69 E5 0D 0A DF 0C BF 0C 00 00
2025-08-09T23:49:12.178481,27.653,can1  204  [04]  F2 BC 01 00
2025-08-09T23:49:12.178481,27.653,can1  206  [16]  CB 0C C7 09 AB 0C 69 E5 12 0A D3 0C C3 0C 00 00
2025-08-09T23:49:12.178481,27.653,can1  206  [16]  C3 0C C5 09 B3 0C 69 E5 0B 0A D7 0C C7 0C 00 00
2025-08-09T23:49:12.509940,27.985,can1  206  [16]  CB 0C C5 09 B7 0C FA E4 10 0A DB 0C BB 0C 00 00
2025-08-09T23:49:12.509940,27.985,can1  206  [16]  CB 0C C5 09 B3 0C A0 E2 02 0A CF 0C C3 0C 00 00
2025-08-09T23:49:12.509940,27.985,can1  206  [16]  C7 0C C7 09 B3 0C 69 E5 12 0A D3 0C C3 0C 00 00
2025-08-09T23:49:12.844603,28.319,can1  206  [16]  BF 0C C0 09 B7 0C FA E4 0D 0A DB 0C C7 0C 00 00
2025-08-09T23:49:12.844603,28.319,can1  206  [16]  CF 0C C5 09 B3 0C FA E4 0D 0A E4 0C BB 0C 00 00
2025-08-09T23:49:13.162285,28.637,"can1  204  [04]  2C D0 01 00
  can1  206  [16]  C7 0C C7 09 B3 0C 69 E5 16 0A C3 0C C3 0C 00 00"
2025-08-09T23:49:13.163523,28.638,can1  206  [16]  CB 0C C7 09 B7 0C FA E4 09 0A DF 0C C3 0C 00 00
2025-08-09T23:49:13.491633,28.966,can1  206  [16]  CF 0C CD 09 B7 0C FA E4 10 0A D3 0C BF 0C 00 00
2025-08-09T23:49:13.491633,28.966,can1  206  [16]  CF 0C C7 09 B7 0C FA E4 10 0A DB 0C BB 0C 00 00
2025-08-09T23:49:13.491633,28.966,can1  206  [16]  C3 0C C7 09 B3 0C FA E4 10 0A E8 0C C7 0C 00 00
2025-08-09T23:49:13.824779,29.299,can1  206  [16]  BB 0C C5 09 B3 0C FA E4 0D 0A DF 0C D3 0C 00 00
2025-08-09T23:49:13.824779,29.299,can1  206  [16]  D7 0C C7 09 AB 0C 7E E4 0D 0A D7 0C BF 0C 00 00
2025-08-09T23:49:13.824779,29.299,can1  206  [16]  CF 0C C7 09 BB 0C C5 E1 12 0A D7 0C BB 0C 00 00
2025-08-09T23:49:14.157201,29.632,can1  204  [04]  8B D1 01 00
2025-08-09T23:49:14.157201,29.632,"can1  206  [16]  CB 0C C9 09 B7 0C 7E E4 FC 09 DF 0C BF 0C 00 00
  can1  206  [16]  CB 0C C9 09 BB 0C 7E E4 0D 0A D3 0C C3 0C 00 00"
2025-08-09T23:49:14.481699,29.956,can1  206  [16]  CF 0C C2 09 B7 0C FA E4 0D 0A E8 0C BB 0C 00 00
2025-08-09T23:49:14.481699,29.956,can1  206  [16]  C7 0C C7 09 B7 0C 69 E5 12 0A DF 0C C7 0C 00 00
2025-08-09T23:49:14.801553,30.276,can1  206  [16]  CB 0C C7 09 B7 0C FA E4 18 0A DF 0C BF 0C 00 00
2025-08-09T23:49:14.801553,30.276,can1  206  [16]  C3 0C C2 09 B7 0C 69 E5 0B 0A DF 0C C7 0C 00 00
2025-08-09T23:49:15.132218,30.607,"can1  206  [16]  CB 0C C5 09 B7 0C FA E4 10 0A DB 0C C3 0C 00 00
  can1  204  [04]  8B D1 01 00"
2025-08-09T23:49:15.132218,30.607,can1  206  [16]  C7 0C C0 09 B7 0C FA E4 10 0A DF 0C C3 0C 00 00
2025-08-09T23:49:15.132218,30.607,can1  206  [16]  C7 0C C2 09 A7 0C 7E E4 0D 0A F4 0C C3 0C 00 00
2025-08-09T23:49:15.467322,30.942,can1  206  [16]  D3 0C C7 09 B7 0C FA E4 10 0A DF 0C B7 0C 00 00
2025-08-09T23:49:15.467322,30.942,can1  206  [16]  CF 0C C5 09 B7 0C D0 E5 0D 0A DF 0C BB 0C 00 00
2025-08-09T23:49:15.801045,31.276,can1  206  [16]  CF 0C C5 09 CF 0C FA E4 16 0A C7 0C BB 0C 00 00
2025-08-09T23:49:15.801045,31.276,can1  206  [16]  C7 0C C2 09 B7 0C FA E4 0D 0A DB 0C C3 0C 00 00
2025-08-09T23:49:16.134667,31.609,"can1  206  [16]  CF 0C C5 09 B7 0C F4 E3 0D 0A E3 0C BB 0C 00 00
  can1  204  [04]  8B D1 01 00"
2025-08-09T23:49:16.134667,31.609,can1  206  [16]  CB 0C C7 09 B7 0C FA E4 10 0A DB 0C BF 0C 00 00
2025-08-09T23:49:16.134667,31.609,can1  206  [16]  C7 0C C5 09 B7 0C FA E4 14 0A E3 0C C3 0C 00 00
2025-08-09T23:49:16.467647,31.942,can1  206  [16]  CF 0C C5 09 BB 0C FA E4 07 0A DB 0C BB 0C 00 00
2025-08-09T23:49:16.485675,31.960,can1  206  [16]  C3 0C C5 09 BB 0C 7E E4 0D 0A DF 0C C7 0C 00 00
2025-08-09T23:49:16.485675,31.960,can1  206  [16]  CB 0C C5 09 B7 0C F4 E3 10 0A DF 0C BF 0C 00 00
2025-08-09T23:49:16.787413,32.262,can1  206  [16]  CF 0C C7 09 B7 0C 7E E4 0D 0A D7 0C BF 0C 00 00
2025-08-09T23:49:16.787413,32.262,can1  206  [16]  CF 0C C5 09 AF 0C 69 E5 0B 0A E3 0C C3 0C 00 00
2025-08-09T23:49:17.117331,32.592,"can1  204  [04]  8B D1 01 00
  can1  206  [16]  C3 0C C5 09 BF 0C 7E E4 0D 0A E8 0C C3 0C 00 00"
2025-08-09T23:49:17.117331,32.592,can1  206  [16]  C7 0C C5 09 AF 0C 7E E4 10 0A E8 0C C7 0C 00 00
2025-08-09T23:49:17.117331,32.592,can1  206  [16]  D3 0C C5 09 B7 0C FA E4 0D 0A D7 0C BB 0C 00 00
2025-08-09T23:49:17.453369,32.928,can1  206  [16]  C7 0C C2 09 B7 0C 7E E4 0D 0A E3 0C C3 0C 00 00
2025-08-09T23:49:17.483794,32.958,can1  206  [16]  CF 0C C2 09 BB 0C 7E E4 0D 0A DB 0C BB 0C 00 00
2025-08-09T23:49:17.787454,33.262,can1  206  [16]  CF 0C C5 09 B7 0C 7E E4 0D 0A D7 0C BF 0C 00 00
2025-08-09T23:49:17.787454,33.262,can1  206  [16]  C7 0C CB 09 BB 0C F4 E3 0D 0A D3 0C C7 0C 00 00
2025-08-09T23:49:18.120785,33.595,"can1  206  [16]  CB 0C C2 09 B3 0C FA E4 10 0A DF 0C C3 0C 00 00
  can1  204  [04]  8B D1 01 00"
2025-08-09T23:49:18.120785,33.595,can1  206  [16]  DB 0C C7 09 CF 0C 7E E4 12 0A CF 0C AF 0C 00 00
2025-08-09T23:49:18.452661,33.927,can1  206  [16]  CB 0C C7 09 BB 0C F4 E3 10 0A DB 0C BF 0C 00 00
2025-08-09T23:49:18.452661,33.927,can1  206  [16]  CB 0C C7 09 B7 0C 69 E5 0D 0A DF 0C C3 0C 00 00
2025-08-09T23:49:18.452661,33.927,can1  206  [16]  CB 0C C5 09 AB 0C A0 E2 10 0A E8 0C BF 0C 00 00
2025-08-09T23:49:18.769606,34.244,can1  206  [16]  C7 0C C2 09 B7 0C 7E E4 10 0A D7 0C C7 0C 00 00
2025-08-09T23:49:18.769606,34.244,can1  206  [16]  C3 0C C5 09 BB 0C 7E E4 10 0A D7 0C C3 0C 00 00
2025-08-09T23:49:19.105699,34.580,"can1  206  [16]  BF 0C C2 09 B7 0C 69 E5 0D 0A DB 0C CB 0C 00 00
  can1  204  [04]  8B D1 01 00"
2025-08-09T23:49:19.108883,34.584,can1  206  [16]  C7 0C C7 09 B3 0C FA E4 12 0A E3 0C C7 0C 00 00
2025-08-09T23:49:19.108883,34.584,can1  206  [16]  D3 0C C7 09 B7 0C F4 E3 10 0A E8 0C BB 0C 00 00
2025-08-09T23:49:19.437426,34.912,can1  206  [16]  C7 0C C7 09 BB 0C D0 E5 0D 0A D7 0C C3 0C 00 00
2025-08-09T23:49:19.443299,34.918,can1  206  [16]  BF 0C C7 09 CB 0C 69 E5 10 0A CB 0C CB 0C 00 00
2025-08-09T23:49:19.443299,34.918,can1  206  [16]  C3 0C C5 09 BB 0C FA E4 14 0A DF 0C C7 0C 00 00
2025-08-09T23:49:19.755482,35.230,can1  206  [16]  CB 0C C5 09 B7 0C 69 E5 10 0A DB 0C C3 0C 00 00
2025-08-09T23:49:19.763626,35.238,can1  206  [16]  C3 0C C0 09 B7 0C FA E4 12 0A DF 0C C7 0C 00 00
2025-08-09T23:49:20.087233,35.562,"can1  204  [04]  8B D1 01 00
  can1  206  [16]  CF 0C C7 09 B7 0C F4 E3 10 0A DB 0C BF 0C 00 00"
2025-08-09T23:49:20.423070,35.898,"can1  206  [16]  CB 0C C5 09 B7 0C FA E4 0D 0A DB 0C C3 0C 00 00
  can1  206  [16]  CB 0C C7 09 B7 0C F4 E3 10 0A E8 0C BF 0C 00 00"
2025-08-09T23:49:20.423070,35.898,can1  206  [16]  CB 0C C2 09 B3 0C 57 E3 14 0A D7 0C C3 0C 00 00
2025-08-09T23:49:20.753097,36.228,can1  206  [16]  B3 0C C5 09 BF 0C F4 E3 0D 0A DF 0C D3 0C 00 00
2025-08-09T23:49:20.753097,36.228,can1  206  [16]  D3 0C C5 09 B3 0C 69 E5 0D 0A DF 0C BF 0C 00 00
2025-08-09T23:49:20.753097,36.228,can1  206  [16]  C7 0C C2 09 B3 0C 69 E5 0D 0A DB 0C C7 0C 00 00
2025-08-09T23:49:21.086116,36.561,"can1  204  [04]  8B D1 01 00
  can1  206  [16]  C3 0C C5 09 B7 0C FA E4 10 0A E8 0C CB 0C 00 00"
2025-08-09T23:49:21.086116,36.561,can1  206  [16]  D3 0C C7 09 B7 0C FA E4 0D 0A DF 0C B7 0C 00 00
2025-08-09T23:49:21.418986,36.894,can1  206  [16]  CB 0C DB 09 AF 0C 7E E4 0D 0A DF 0C C3 0C 00 00
2025-08-09T23:49:21.418986,36.894,can1  206  [16]  D7 0C C5 09 B3 0C 7E E4 10 0A DF 0C BF 0C 00 00
2025-08-09T23:49:21.418986,36.894,can1  206  [16]  C3 0C C7 09 B3 0C FA E4 10 0A E8 0C CB 0C 00 00
2025-08-09T23:49:21.751850,37.226,can1  206  [16]  CB 0C C5 09 B7 0C 7E E4 0B 0A DF 0C C3 0C 00 00
2025-08-09T23:49:21.756201,37.231,can1  206  [16]  C7 0C C5 09 BF 0C F4 E3 07 0A DB 0C BF 0C 00 00
2025-08-09T23:49:22.087744,37.562,"can1  206  [16]  C7 0C C5 09 BF 0C 7E E4 10 0A DF 0C BF 0C 00 00
  can1  204  [04]  8B D1 01 00"
2025-08-09T23:49:22.087744,37.562,can1  206  [16]  D7 0C C7 09 BF 0C 69 E5 10 0A DF 0C B3 0C 00 00
2025-08-09T23:49:22.087744,37.562,can1  206  [16]  CF 0C C7 09 AF 0C 7E E4 0D 0A DB 0C BF 0C 00 00
2025-08-09T23:49:22.420555,37.895,can1  206  [16]  C7 0C C5 09 BB 0C 7E E4 0D 0A DF 0C C3 0C 00 00
2025-08-09T23:49:22.420555,37.895,can1  206  [16]  CB 0C C5 09 BB 0C 7E E4 12 0A DF 0C C3 0C 00 00
2025-08-09T23:49:22.751292,38.226,can1  206  [16]  D3 0C C0 09 B3 0C FA E4 0D 0A DF 0C BB 0C 00 00
2025-08-09T23:49:22.751292,38.226,can1  206  [16]  CF 0C C9 09 B7 0C F4 E3 0B 0A CF 0C BF 0C 00 00
2025-08-09T23:49:22.751292,38.226,can1  206  [16]  C7 0C C5 09 B7 0C FA E4 10 0A DB 0C C3 0C 00 00
2025-08-09T23:49:23.070496,38.545,"can1  204  [04]  8B D1 01 00
  can1  206  [16]  DB 0C C5 09 BB 0C FA E4 10 0A DF 0C AF 0C 00 00"
2025-08-09T23:49:23.070496,38.545,can1  206  [16]  CB 0C C2 09 B7 0C F4 E3 F3 09 E8 0C BF 0C 00 00
2025-08-09T23:49:23.403571,38.878,can1  206  [16]  CF 0C C2 09 B3 0C 69 E5 10 0A E3 0C BF 0C 00 00
2025-08-09T23:49:23.403571,38.878,can1  206  [16]  CF 0C C5 09 B7 0C FA E4 0B 0A D7 0C BF 0C 00 00
2025-08-09T23:49:23.721835,39.196,can1  206  [16]  CF 0C C5 09 B3 0C FA E4 10 0A DB 0C C3 0C 00 00
2025-08-09T23:49:23.721835,39.196,can1  206  [16]  B7 0C C5 09 C7 0C F4 E3 0D 0A D7 0C CB 0C 00 00
2025-08-09T23:49:24.053049,39.528,can1  206  [16]  CF 0C C9 09 AF 0C FA E4 10 0A E8 0C BF 0C 00 00
2025-08-09T23:49:24.056523,39.531,"can1  204  [04]  8B D1 01 00
  can1  206  [16]  C3 0C C2 09 B3 0C 7E E4 09 0A E8 0C C7 0C 00 00"
2025-08-09T23:49:24.388315,39.863,can1  206  [16]  CB 0C C9 09 B7 0C FA E4 12 0A DF 0C C3 0C 00 00
2025-08-09T23:49:24.388315,39.863,can1  206  [16]  C3 0C C7 09 B7 0C FA E4 0D 0A E3 0C C7 0C 00 00
2025-08-09T23:49:24.391046,39.866,can1  206  [16]  CB 0C C7 09 B7 0C FA E4 10 0A DF 0C BF 0C 00 00
2025-08-09T23:49:24.391046,39.866,can1  206  [16]  CB 0C C7 09 BB 0C F4 E3 0B 0A DB 0C BF 0C 00 00
2025-08-09T23:49:24.719153,40.194,can1  206  [16]  D3 0C C0 09 B3 0C 85 E6 10 0A DB 0C BB 0C 00 00
2025-08-09T23:49:24.719153,40.194,can1  206  [16]  CF 0C C5 09 B3 0C F4 E3 0D 0A DF 0C C3 0C 00 00
2025-08-09T23:49:25.056326,40.531,"can1  206  [16]  CB 0C C5 09 B3 0C F4 E3 0D 0A E8 0C C3 0C 00 00
  can1  204  [04]  8B D1 01 00"
2025-08-09T23:49:25.059058,40.534,can1  206  [16]  BF 0C C5 09 B7 0C 7E E4 10 0A DF 0C CB 0C 00 00
2025-08-09T23:49:25.386096,40.861,can1  206  [16]  A3 0C C7 09 B3 0C 57 E3 0B 0A DB 0C EC 0C 00 00
2025-08-09T23:49:25.386096,40.861,can1  206  [16]  C7 0C C2 09 BB 0C FA E4 0D 0A DB 0C C3 0C 00 00
2025-08-09T23:49:25.386096,40.861,can1  206  [16]  E4 0C C5 09 AF 0C 7E E4 10 0A DB 0C AF 0C 00 00
2025-08-09T23:49:25.720540,41.195,can1  206  [16]  C7 0C CB 09 B3 0C FA E4 10 0A E3 0C C7 0C 00 00
2025-08-09T23:49:25.721582,41.196,can1  206  [16]  C3 0C C5 09 B7 0C FA E4 10 0A DF 0C C7 0C 00 00
2025-08-09T23:49:26.035355,41.510,can1  206  [16]  C3 0C C5 09 B7 0C 69 E5 10 0A E3 0C C7 0C 00 00
2025-08-09T23:49:26.035355,41.510,"can1  204  [04]  8B D1 01 00
  can1  206  [16]  C7 0C C5 09 BB 0C 7E E4 10 0A DF 0C C3 0C 00 00"
2025-08-09T23:49:26.371020,41.846,can1  206  [16]  D7 0C C5 09 AF 0C 7E E4 10 0A DF 0C B7 0C 00 00
2025-08-09T23:49:26.371020,41.846,can1  206  [16]  CB 0C C5 09 B7 0C 7E E4 0B 0A E3 0C BF 0C 00 00
2025-08-09T23:49:26.373031,41.848,can1  206  [16]  CF 0C C0 09 CF 0C F4 E3 12 0A C7 0C BF 0C 00 00
2025-08-09T23:49:26.699344,42.174,can1  206  [16]  C7 0C C7 09 B7 0C 57 E3 12 0A DF 0C C3 0C 00 00
2025-08-09T23:49:26.699344,42.174,can1  206  [16]  CF 0C C7 09 B7 0C F4 E3 0B 0A DB 0C BB 0C 00 00
2025-08-09T23:49:27.031258,42.506,can1  206  [16]  C3 0C C9 09 BB 0C FA E4 10 0A DB 0C C7 0C 00 00
2025-08-09T23:49:27.031258,42.506,"can1  204  [04]  8B D1 01 00
  can1  206  [16]  C7 0C C5 09 B3 0C FA E4 0D 0A E8 0C C3 0C 00 00"
2025-08-09T23:49:27.351307,42.826,can1  206  [16]  CB 0C C5 09 B3 0C 57 E3 0D 0A E3 0C C3 0C 00 00
2025-08-09T23:49:27.353322,42.828,can1  206  [16]  CF 0C C7 09 AB 0C 7E E4 0D 0A E8 0C BF 0C 00 00
2025-08-09T23:49:27.353322,42.828,can1  206  [16]  CF 0C C5 09 BB 0C 7E E4 0B 0A E4 0C BB 0C 00 00
2025-08-09T23:49:27.685103,43.160,can1  206  [16]  D3 0C C2 09 AF 0C 69 E5 10 0A DF 0C BF 0C 00 00
2025-08-09T23:49:27.685103,43.160,can1  206  [16]  C7 0C C2 09 BB 0C 7E E4 10 0A DF 0C C3 0C 00 00
2025-08-09T23:49:27.685103,43.160,can1  206  [16]  C3 0C C2 09 BF 0C 7E E4 0D 0A DF 0C C3 0C 00 00
2025-08-09T23:49:28.015354,43.490,can1  204  [04]  8B D1 01 00
2025-08-09T23:49:28.015354,43.490,can1  206  [16]  CB 0C C2 09 B7 0C 7E E4 12 0A E3 0C BF 0C 00 00
2025-08-09T23:49:28.019612,43.494,can1  206  [16]  C7 0C C5 09 B7 0C 7E E4 0D 0A DB 0C C7 0C 00 00
2025-08-09T23:49:28.331338,43.806,can1  206  [16]  C3 0C C5 09 B3 0C FA E4 10 0A E3 0C CB 0C 00 00
2025-08-09T23:49:28.331338,43.806,can1  206  [16]  C7 0C C7 09 BB 0C FA E4 10 0A DF 0C C3 0C 00 00
2025-08-09T23:49:28.664066,44.139,can1  206  [16]  BF 0C C5 09 B7 0C FA E4 0B 0A E3 0C CB 0C 00 00
2025-08-09T23:49:28.664066,44.139,can1  206  [16]  C7 0C C5 09 B7 0C F4 E3 12 0A DF 0C C3 0C 00 00
2025-08-09T23:49:28.997104,44.472,can1  206  [16]  C7 0C C5 09 B7 0C 69 E5 0D 0A DB 0C C7 0C 00 00
2025-08-09T23:49:28.997104,44.472,"can1  206  [16]  CF 0C C7 09 B3 0C FA E4 12 0A CB 0C BF 0C 00 00
  can1  204  [04]  8B D1 01 00"
2025-08-09T23:49:29.331258,44.806,"can1  206  [16]  CB 0C C5 09 B7 0C FA E4 04 0A F0 0C BF 0C 00 00
  can1  206  [16]  CF 0C C2 09 B7 0C FA E4 10 0A DF 0C BF 0C 00 00"
2025-08-09T23:49:29.331258,44.806,can1  206  [16]  BB 0C C5 09 B3 0C FA E4 10 0A DF 0C CF 0C 00 00
2025-08-09T23:49:29.331258,44.806,can1  206  [16]  CF 0C C7 09 B7 0C FA E4 14 0A DF 0C BF 0C 00 00
2025-08-09T23:49:29.662574,45.137,can1  206  [16]  D3 0C C2 09 AF 0C F4 E3 10 0A EC 0C BF 0C 00 00
2025-08-09T23:49:29.662574,45.137,can1  206  [16]  CF 0C C5 09 B3 0C F4 E3 0D 0A DF 0C BF 0C 00 00
2025-08-09T23:49:29.994449,45.469,can1  206  [16]  CB 0C C5 09 CB 0C 57 E3 0B 0A C7 0C C3 0C 00 00
2025-08-09T23:49:29.994449,45.469,can1  204  [04]  8B D1 01 00
2025-08-09T23:49:29.994449,45.469,can1  206  [16]  C7 0C C2 09 B7 0C FA E4 10 0A DF 0C C7 0C 00 00
2025-08-09T23:49:30.325997,45.801,can1  206  [16]  C7 0C C7 09 B3 0C F4 E3 1B 0A E8 0C C3 0C 00 00
2025-08-09T23:49:30.325997,45.801,can1  206  [16]  CB 0C C2 09 BB 0C FA E4 10 0A DF 0C BF 0C 00 00
2025-08-09T23:49:30.657734,46.132,can1  206  [16]  C7 0C C5 09 B7 0C 69 E5 0D 0A E8 0C C3 0C 00 00
2025-08-09T23:49:30.657734,46.132,can1  206  [16]  CF 0C C2 09 B3 0C F4 E3 10 0A DB 0C BF 0C 00 00
2025-08-09T23:49:30.657734,46.132,can1  206  [16]  DB 0C C5 09 BB 0C FA E4 10 0A E8 0C AB 0C 00 00
2025-08-09T23:49:30.992600,46.467,can1  206  [16]  C7 0C C5 09 B3 0C 7E E4 0D 0A DB 0C CB 0C 00 00
2025-08-09T23:49:30.992600,46.467,"can1  204  [04]  8B D1 01 00
  can1  206  [16]  CB 0C D0 09 BB 0C F4 E3 0D 0A DB 0C BF 0C 00 00"
2025-08-09T23:49:31.323475,46.798,can1  206  [16]  C3 0C C2 09 B7 0C 7E E4 0B 0A E3 0C C7 0C 00 00
2025-08-09T23:49:31.323475,46.798,can1  206  [16]  C7 0C C5 09 B7 0C F4 E3 10 0A DF 0C C3 0C 00 00
2025-08-09T23:49:31.323475,46.798,can1  206  [16]  CF 0C C2 09 AF 0C C5 E1 0B 0A DF 0C C3 0C 00 00
2025-08-09T23:49:31.658006,47.133,can1  206  [16]  D3 0C C5 09 C7 0C F4 E3 0D 0A CF 0C BB 0C 00 00
2025-08-09T23:49:31.658006,47.133,can1  206  [16]  CB 0C C5 09 BB 0C F4 E3 0D 0A DF 0C BF 0C 00 00
2025-08-09T23:49:31.971527,47.446,can1  206  [16]  C7 0C C7 09 B7 0C FA E4 10 0A D3 0C C7 0C 00 00
2025-08-09T23:49:31.971527,47.446,can1  206  [16]  AF 0C C2 09 B7 0C F4 E3 12 0A DF 0C DB 0C 00 00
2025-08-09T23:49:31.971527,47.446,can1  204  [04]  8B D1 01 00
2025-08-09T23:49:31.971527,47.446,can1  206  [16]  C3 0C C5 09 BF 0C FA E4 10 0A E4 0C C3 0C 00 00
2025-08-09T23:49:32.303806,47.778,can1  206  [16]  CB 0C C5 09 B7 0C F4 E3 12 0A E3 0C BF 0C 00 00
2025-08-09T23:49:32.303806,47.778,can1  206  [16]  C7 0C C5 09 B7 0C F4 E3 12 0A DF 0C C7 0C 00 00
2025-08-09T23:49:32.635543,48.110,can1  206  [16]  C3 0C CB 09 B7 0C 7E E4 12 0A DB 0C CB 0C 00 00
2025-08-09T23:49:32.635543,48.110,can1  206  [16]  CB 0C C7 09 BB 0C FA E4 0B 0A C3 0C BF 0C 00 00
2025-08-09T23:49:32.973765,48.448,can1  206  [16]  CB 0C C5 09 BB 0C A0 E2 12 0A DB 0C BF 0C 00 00
2025-08-09T23:49:32.973765,48.448,"can1  206  [16]  D3 0C C5 09 AF 0C 69 E5 16 0A DB 0C C3 0C 00 00
  can1  204  [04]  8B D1 01 00"
2025-08-09T23:49:32.973765,48.448,can1  206  [16]  C3 0C C5 09 B7 0C F4 E3 0B 0A D7 0C CB 0C 00 00
2025-08-09T23:49:33.288428,48.763,can1  206  [16]  C7 0C C2 09 B3 0C FA E4 12 0A E3 0C C7 0C 00 00
2025-08-09T23:49:33.288428,48.763,can1  206  [16]  CB 0C D0 09 77 0C 69 E5 12 0A 20 0D C3 0C 00 00
2025-08-09T23:49:33.288428,48.763,can1  206  [16]  CB 0C C5 09 B3 0C 7E E4 10 0A DB 0C C3 0C 00 00
2025-08-09T23:49:33.622698,49.097,can1  206  [16]  CB 0C CB 09 B3 0C F4 E3 10 0A DF 0C C7 0C 00 00
2025-08-09T23:49:33.622698,49.097,can1  206  [16]  C7 0C C5 09 B7 0C D0 E5 10 0A DF 0C C3 0C 00 00
2025-08-09T23:49:33.941369,49.416,"can1  206  [16]  B7 0C C7 09 B7 0C 7E E4 0D 0A DB 0C D3 0C 00 00
  can1  204  [04]  8B D1 01 00"
2025-08-09T23:49:33.942673,49.417,can1  206  [16]  CB 0C C2 09 B3 0C 7E E4 0D 0A E3 0C C3 0C 00 00
2025-08-09T23:49:34.274487,49.749,can1  206  [16]  CB 0C C7 09 B7 0C A0 E2 10 0A EC 0C C3 0C 00 00
2025-08-09T23:49:34.277023,49.752,can1  206  [16]  C7 0C CD 09 B3 0C FA E4 0D 0A E8 0C C3 0C 00 00
2025-08-09T23:49:34.278027,49.753,can1  206  [16]  CB 0C C2 09 AF 0C 7E E4 0D 0A E3 0C C7 0C 00 00
2025-08-09T23:49:34.606085,50.081,can1  206  [16]  CB 0C C5 09 BB 0C F4 E3 0D 0A DB 0C C3 0C 00 00
2025-08-09T23:49:34.606085,50.081,can1  206  [16]  CF 0C C7 09 B7 0C 69 E5 10 0A D7 0C BF 0C 00 00
2025-08-09T23:49:34.941979,50.417,can1  206  [16]  CB 0C C7 09 B7 0C 7E E4 0D 0A DB 0C C3 0C 00 00
2025-08-09T23:49:34.942493,50.417,"can1  204  [04]  8B D1 01 00
  can1  206  [16]  F8 0C C5 09 B3 0C F4 E3 0D 0A D7 0C 97 0C 00 00"
2025-08-09T23:49:35.258616,50.733,"can1  206  [16]  CF 0C C5 09 B3 0C 7E E4 0B 0A E4 0C C3 0C 00 00
  can1  206  [16]  CB 0C C7 09 B7 0C F4 E3 0D 0A DF 0C C3 0C 00 00"
2025-08-09T23:49:35.592427,51.067,can1  206  [16]  CB 0C C2 09 B7 0C F4 E3 10 0A E3 0C BF 0C 00 00
2025-08-09T23:49:35.592427,51.067,can1  206  [16]  C7 0C C7 09 B3 0C FA E4 0B 0A D7 0C C7 0C 00 00
2025-08-09T23:49:35.592427,51.067,can1  206  [16]  CB 0C C7 09 B3 0C F4 E3 09 0A DF 0C C3 0C 00 00
2025-08-09T23:49:35.923459,51.398,can1  206  [16]  BB 0C C5 09 C3 0C FA E4 10 0A DB 0C C3 0C 00 00
2025-08-09T23:49:35.923459,51.398,"can1  206  [16]  CF 0C C7 09 AF 0C 7E E4 10 0A DF 0C C3 0C 00 00
  can1  204  [04]  8B D1 01 00"
2025-08-09T23:49:36.256772,51.731,can1  206  [16]  CB 0C C5 09 B7 0C FA E4 0B 0A DB 0C C3 0C 00 00
2025-08-09T23:49:36.256772,51.731,can1  206  [16]  CB 0C C5 09 AF 0C 57 E3 10 0A E4 0C C3 0C 00 00
2025-08-09T23:49:36.256772,51.731,can1  206  [16]  C7 0C C5 09 BF 0C FA E4 0D 0A DF 0C C3 0C 00 00
2025-08-09T23:49:36.594764,52.069,can1  206  [16]  CB 0C C7 09 AF 0C D0 E5 10 0A DB 0C C3 0C 00 00
2025-08-09T23:49:36.595716,52.070,can1  206  [16]  B7 0C C5 09 C7 0C FA E4 0B 0A DB 0C C7 0C 00 00
2025-08-09T23:49:36.595716,52.070,can1  206  [16]  C3 0C C5 09 B7 0C F4 E3 10 0A DF 0C C7 0C 00 00
2025-08-09T23:49:36.908743,52.383,"can1  206  [16]  C7 0C C7 09 B7 0C D0 E5 0D 0A DB 0C C7 0C 00 00
  can1  204  [04]  8B D1 01 00"
2025-08-09T23:49:36.908743,52.383,can1  206  [16]  CB 0C C2 09 B7 0C 57 E3 0B 0A D7 0C C3 0C 00 00
2025-08-09T23:49:37.243864,52.719,can1  206  [16]  CF 0C B7 09 BB 0C FA E4 10 0A E4 0C BB 0C 00 00
2025-08-09T23:49:37.243864,52.719,can1  206  [16]  C3 0C C5 09 B3 0C 57 E3 12 0A E8 0C CB 0C 00 00
2025-08-09T23:49:37.579375,53.054,can1  206  [16]  CB 0C C5 09 BB 0C FA E4 10 0A DF 0C BF 0C 00 00
2025-08-09T23:49:37.580008,53.055,can1  206  [16]  C7 0C C5 09 AF 0C FA E4 0D 0A E4 0C C7 0C 00 00
2025-08-09T23:49:37.895922,53.371,can1  206  [16]  C3 0C C7 09 C3 0C FA E4 10 0A D7 0C BF 0C 00 00
2025-08-09T23:49:37.925032,53.400,can1  206  [16]  CB 0C C2 09 AF 0C 7E E4 0B 0A F4 0C C7 0C 00 00
2025-08-09T23:49:37.925032,53.400,"can1  204  [04]  8B D1 01 00
  can1  206  [16]  C3 0C C7 09 BB 0C F4 E3 12 0A D7 0C C7 0C 00 00"
2025-08-09T23:49:38.226824,53.701,can1  206  [16]  CB 0C C5 09 AF 0C 7E E4 10 0A DF 0C C3 0C 00 00
2025-08-09T23:49:38.226824,53.701,can1  206  [16]  C3 0C C7 09 BB 0C 69 E5 12 0A DB 0C C7 0C 00 00
2025-08-09T23:49:38.561413,54.036,can1  206  [16]  C7 0C C7 09 B3 0C FA E4 0B 0A EC 0C C7 0C 00 00
2025-08-09T23:49:38.561413,54.036,can1  206  [16]  C3 0C C5 09 B7 0C 7E E4 0B 0A DF 0C C7 0C 00 00
2025-08-09T23:49:38.561413,54.036,can1  206  [16]  D3 0C C7 09 BB 0C FA E4 07 0A DB 0C BB 0C 00 00
2025-08-09T23:49:38.880093,54.355,can1  206  [16]  D3 0C C2 09 B7 0C FA E4 0B 0A DB 0C BB 0C 00 00
2025-08-09T23:49:38.880093,54.355,"can1  206  [16]  CB 0C C2 09 B3 0C F4 E3 10 0A E3 0C C3 0C 00 00
  can1  204  [04]  8B D1 01 00"
2025-08-09T23:49:39.215353,54.690,can1  206  [16]  C7 0C C7 09 B7 0C 7E E4 0B 0A DF 0C C7 0C 00 00
2025-08-09T23:49:39.217365,54.692,can1  206  [16]  D3 0C C2 09 B3 0C A0 E2 0D 0A E8 0C BB 0C 00 00
2025-08-09T23:49:39.217365,54.692,can1  206  [16]  C7 0C C5 09 B7 0C 57 E3 0D 0A DB 0C C7 0C 00 00
2025-08-09T23:49:39.547277,55.022,can1  206  [16]  C7 0C C5 09 BB 0C F4 E3 0D 0A DF 0C C3 0C 00 00
2025-08-09T23:49:39.547277,55.022,can1  206  [16]  CB 0C CB 09 BB 0C 7E E4 0D 0A E3 0C BB 0C 00 00
2025-08-09T23:49:39.864561,55.339,can1  206  [16]  C7 0C C5 09 D3 0C 69 E5 10 0A BF 0C C7 0C 00 00
2025-08-09T23:49:39.864561,55.339,"can1  206  [16]  CB 0C C0 09 B3 0C FA E4 0D 0A DF 0C C3 0C 00 00
  can1  204  [04]  8B D1 01 00"
2025-08-09T23:49:40.195429,55.670,can1  206  [16]  CF 0C C5 09 B3 0C FA E4 10 0A E3 0C BF 0C 00 00
2025-08-09T23:49:40.211547,55.686,can1  206  [16]  CB 0C C0 09 B7 0C 7E E4 12 0A DF 0C BF 0C 00 00
2025-08-09T23:49:40.531380,56.006,can1  206  [16]  DB 0C C2 09 B3 0C FA E4 14 0A DF 0C B3 0C 00 00
2025-08-09T23:49:40.531380,56.006,can1  206  [16]  CF 0C C7 09 B7 0C FA E4 10 0A DB 0C BF 0C 00 00
2025-08-09T23:49:40.531380,56.006,can1  206  [16]  C7 0C C2 09 B3 0C FA E4 0D 0A E3 0C C7 0C 00 00
2025-08-09T23:49:40.847193,56.322,can1  206  [16]  C3 0C C7 09 B7 0C 69 E5 12 0A DB 0C C7 0C 00 00
2025-08-09T23:49:40.847193,56.322,can1  206  [16]  B7 0C C7 09 BB 0C F4 E3 0D 0A D7 0C D3 0C 00 00
2025-08-09T23:49:40.847193,56.322,"can1  204  [04]  8B D1 01 00
  can1  206  [16]  C7 0C C5 09 C7 0C 69 E5 12 0A CF 0C C7 0C 00 00"
2025-08-09T23:49:41.179276,56.654,can1  206  [16]  C7 0C C5 09 B7 0C F4 E3 10 0A DB 0C C7 0C 00 00
2025-08-09T23:49:41.179276,56.654,can1  206  [16]  CB 0C C5 09 B7 0C FA E4 12 0A DF 0C C3 0C 00 00
2025-08-09T23:49:41.516714,56.991,can1  206  [16]  C7 0C C5 09 CF 0C 57 E3 0D 0A C3 0C C7 0C 00 00
2025-08-09T23:49:41.516714,56.991,can1  206  [16]  C7 0C C2 09 D3 0C 7E E4 10 0A C3 0C C7 0C 00 00
2025-08-09T23:49:41.830186,57.305,can1  206  [16]  DF 0C C2 09 AF 0C 69 E5 09 0A DF 0C AF 0C 00 00
2025-08-09T23:49:41.830186,57.305,can1  206  [16]  D7 0C C5 09 B3 0C FA E4 0D 0A E3 0C B7 0C 00 00
2025-08-09T23:49:41.830186,57.305,"can1  204  [04]  8B D1 01 00
  can1  206  [16]  CB 0C C0 09 B7 0C FA E4 10 0A DF 0C BF 0C 00 00"
2025-08-09T23:49:42.163936,57.639,can1  206  [16]  C7 0C C5 09 B3 0C 69 E5 0B 0A DF 0C C7 0C 00 00
2025-08-09T23:49:42.165952,57.641,can1  206  [16]  C3 0C C5 09 BF 0C 7E E4 0B 0A DF 0C C3 0C 00 00
2025-08-09T23:49:42.496177,57.971,can1  206  [16]  CB 0C C7 09 B3 0C 69 E5 0D 0A D3 0C C3 0C 00 00
2025-08-09T23:49:42.498190,57.973,can1  206  [16]  CF 0C C7 09 AF 0C F4 E3 09 0A D7 0C C3 0C 00 00
2025-08-09T23:49:42.830776,58.305,can1  206  [16]  CB 0C C2 09 B3 0C FA E4 0B 0A D7 0C C3 0C 00 00
2025-08-09T23:49:42.830776,58.305,can1  206  [16]  C7 0C C5 09 B7 0C FA E4 0D 0A DB 0C C3 0C 00 00
2025-08-09T23:49:42.844481,58.319,can1  206  [16]  C3 0C C7 09 B7 0C 7E E4 0D 0A E3 0C C7 0C 00 00
2025-08-09T23:49:42.844481,58.319,can1  204  [04]  8B D1 01 00
2025-08-09T23:49:43.161494,58.636,can1  206  [16]  CF 0C C2 09 B7 0C FA E4 0D 0A DF 0C BF 0C 00 00
2025-08-09T23:49:43.161494,58.636,can1  206  [16]  C7 0C C5 09 BB 0C FA E4 10 0A DF 0C C3 0C 00 00
2025-08-09T23:49:43.497109,58.972,can1  206  [16]  B7 0C C5 09 AF 0C FA E4 0D 0A E8 0C D3 0C 00 00
2025-08-09T23:49:43.497109,58.972,can1  206  [16]  C7 0C C5 09 B7 0C FA E4 0D 0A DF 0C C3 0C 00 00
2025-08-09T23:49:43.497109,58.972,can1  206  [16]  C3 0C BE 09 B7 0C FA E4 10 0A E3 0C C7 0C 00 00
2025-08-09T23:49:43.827783,59.302,can1  206  [16]  CB 0C C2 09 B7 0C 7E E4 12 0A D7 0C C3 0C 00 00
2025-08-09T23:49:43.827783,59.302,can1  206  [16]  B3 0C CB 09 AB 0C FA E4 10 0A F4 0C D3 0C 00 00
2025-08-09T23:49:44.146318,59.621,"can1  204  [04]  8B D1 01 00
  can1  206  [16]  CB 0C C5 09 CB 0C FA E4 0D 0A CB 0C C3 0C 00 00"
2025-08-09T23:49:44.146318,59.621,can1  206  [16]  CF 0C C7 09 AF 0C FA E4 10 0A E8 0C BF 0C 00 00
2025-08-09T23:49:44.146318,59.621,can1  206  [16]  CB 0C C5 09 B3 0C 57 E3 14 0A DF 0C C3 0C 00 00
2025-08-09T23:49:44.486302,59.961,can1  206  [16]  C7 0C C2 09 B7 0C 69 E5 10 0A DF 0C C3 0C 00 00
2025-08-09T23:49:44.488229,59.963,can1  206  [16]  C7 0C C2 09 B7 0C 57 E3 0B 0A DB 0C C3 0C 00 00
2025-08-09T23:49:44.810834,60.285,can1  206  [16]  CB 0C C2 09 B7 0C 57 E3 10 0A DF 0C BF 0C 00 00
2025-08-09T23:49:44.810834,60.285,can1  206  [16]  CF 0C C7 09 B3 0C 69 E5 0B 0A DF 0C BF 0C 00 00
2025-08-09T23:49:45.135177,60.610,"can1  204  [04]  8B D1 01 00
  can1  206  [16]  CF 0C C7 09 B7 0C 57 E3 12 0A D7 0C BF 0C 00 00"
2025-08-09T23:49:45.135745,60.610,can1  206  [16]  C7 0C C7 09 B7 0C 7E E4 0D 0A DB 0C C7 0C 00 00
2025-08-09T23:49:45.461925,60.937,can1  206  [16]  CF 0C C5 09 B7 0C FA E4 0D 0A DB 0C BF 0C 00 00
2025-08-09T23:49:45.461925,60.937,can1  206  [16]  B7 0C C2 09 B3 0C B1 E0 0D 0A E8 0C D3 0C 00 00
2025-08-09T23:49:45.461925,60.937,can1  206  [16]  B7 0C C5 09 BB 0C 69 E5 0D 0A DF 0C D3 0C 00 00
2025-08-09T23:49:45.797882,61.273,can1  206  [16]  C3 0C C5 09 AF 0C FA E4 0D 0A E4 0C CB 0C 00 00
2025-08-09T23:49:45.797882,61.273,can1  206  [16]  CB 0C C7 09 B3 0C FA E4 10 0A DF 0C C3 0C 00 00
2025-08-09T23:49:45.797882,61.273,"can1  204  [04]  8B D1 01 00
  can1  206  [16]  C7 0C C5 09 BB 0C F4 E3 10 0A D7 0C C3 0C 00 00"
2025-08-09T23:49:46.131501,61.606,can1  206  [16]  CB 0C D2 09 BB 0C F4 E3 0B 0A D3 0C BF 0C 00 00
2025-08-09T23:49:46.131501,61.606,can1  206  [16]  C7 0C BE 09 B3 0C FA E4 0B 0A DF 0C C7 0C 00 00
2025-08-09T23:49:46.463948,61.939,can1  206  [16]  CB 0C C5 09 B3 0C F4 E3 10 0A E3 0C C3 0C 00 00
2025-08-09T23:49:46.475087,61.950,can1  206  [16]  C7 0C C7 09 CB 0C 69 E5 10 0A C7 0C C7 0C 00 00
2025-08-09T23:49:46.475087,61.950,can1  206  [16]  C3 0C BA 09 BB 0C 69 E5 0B 0A E8 0C C3 0C 00 00
2025-08-09T23:49:46.792831,62.267,can1  206  [16]  D3 0C C2 09 AB 0C F4 E3 0D 0A DF 0C C3 0C 00 00
2025-08-09T23:49:46.792831,62.267,"can1  206  [16]  D3 0C C5 09 AF 0C FA E4 0D 0A D7 0C BF 0C 00 00
  can1  204  [04]  8B D1 01 00"
2025-08-09T23:49:47.125964,62.601,can1  206  [16]  C3 0C C7 09 B3 0C FA E4 10 0A E8 0C C7 0C 00 00
2025-08-09T23:49:47.125964,62.601,can1  206  [16]  CB 0C C7 09 B3 0C D0 E5 10 0A E3 0C C3 0C 00 00
2025-08-09T23:49:47.443843,62.918,can1  206  [16]  CB 0C C5 09 AB 0C 7E E4 0D 0A E3 0C CB 0C 00 00
2025-08-09T23:49:47.460104,62.935,can1  206  [16]  CF 0C C5 09 AF 0C 69 E5 10 0A E3 0C C3 0C 00 00
2025-08-09T23:49:47.776436,63.251,can1  206  [16]  C7 0C C7 09 B3 0C 7E E4 0D 0A DF 0C C7 0C 00 00
2025-08-09T23:49:47.776436,63.251,can1  206  [16]  C3 0C C5 09 B7 0C 6F EA 10 0A DB 0C C7 0C 00 00
2025-08-09T23:49:47.776436,63.251,can1  206  [16]  C7 0C C5 09 B3 0C 69 E5 12 0A DF 0C C7 0C 00 00
2025-08-09T23:49:47.776436,63.251,can1  204  [04]  8B D1 01 00
2025-08-09T23:49:48.109181,63.584,can1  206  [16]  C3 0C C7 09 B3 0C 7E E4 10 0A D7 0C CB 0C 00 00
2025-08-09T23:49:48.109181,63.584,can1  206  [16]  CB 0C C9 09 BB 0C FA E4 10 0A D7 0C C3 0C 00 00
2025-08-09T23:49:48.109181,63.584,can1  206  [16]  C7 0C C5 09 CB 0C FA E4 12 0A CF 0C C3 0C 00 00
2025-08-09T23:49:48.427822,63.902,can1  206  [16]  C3 0C C5 09 B3 0C C5 E1 0D 0A E3 0C CB 0C 00 00
2025-08-09T23:49:48.427822,63.902,can1  206  [16]  C7 0C C5 09 BF 0C FA E4 12 0A DF 0C C3 0C 00 00
2025-08-09T23:49:48.757744,64.232,can1  206  [16]  CB 0C C7 09 B3 0C 69 E5 0D 0A E3 0C C3 0C 00 00
2025-08-09T23:49:48.757744,64.232,can1  206  [16]  CB 0C CD 09 BB 0C FA E4 0D 0A E4 0C BF 0C 00 00
2025-08-09T23:49:49.093438,64.568,"can1  204  [04]  8B D1 01 00
  can1  206  [16]  C3 0C CD 09 B3 0C B1 E0 0D 0A DF 0C CB 0C 00 00"
2025-08-09T23:49:49.093438,64.568,can1  206  [16]  C7 0C C7 09 B7 0C 69 E5 10 0A D7 0C C7 0C 00 00
2025-08-09T23:49:49.426058,64.901,can1  206  [16]  CB 0C C7 09 B3 0C 69 E5 10 0A D7 0C C3 0C 00 00
2025-08-09T23:49:49.426058,64.901,can1  206  [16]  CF 0C C5 09 B7 0C 69 E5 0D 0A D7 0C BF 0C 00 00
2025-08-09T23:49:49.429864,64.905,can1  206  [16]  CF 0C C5 09 BB 0C 69 E5 12 0A DB 0C BB 0C 00 00
2025-08-09T23:49:49.758400,65.233,can1  206  [16]  C3 0C C5 09 BB 0C 69 E5 0D 0A DB 0C C7 0C 00 00
2025-08-09T23:49:49.758400,65.233,can1  206  [16]  CF 0C C5 09 B3 0C FA E4 10 0A DB 0C BF 0C 00 00
2025-08-09T23:49:50.108372,65.583,"can1  206  [16]  B7 0C C5 09 C7 0C F4 E3 10 0A E4 0C C7 0C 00 00
  can1  204  [04]  8B D1 01 00"
2025-08-09T23:49:50.108372,65.583,can1  206  [16]  CF 0C C2 09 B3 0C FA E4 0B 0A DF 0C BF 0C 00 00
2025-08-09T23:49:50.108372,65.583,can1  206  [16]  CB 0C C5 09 B7 0C FA E4 0D 0A DF 0C BF 0C 00 00
2025-08-09T23:49:50.425605,65.900,can1  206  [16]  D3 0C C5 09 AF 0C FA E4 12 0A E3 0C BF 0C 00 00
2025-08-09T23:49:50.425605,65.900,can1  206  [16]  DB 0C C7 09 C7 0C FA E4 12 0A CF 0C B3 0C 00 00
2025-08-09T23:49:50.425605,65.900,can1  206  [16]  B7 0C C5 09 BB 0C FA E4 0B 0A DF 0C D3 0C 00 00
2025-08-09T23:49:50.760109,66.235,can1  206  [16]  BF 0C C7 09 B7 0C FA E4 10 0A DB 0C CB 0C 00 00
2025-08-09T23:49:50.760109,66.235,can1  206  [16]  C3 0C C7 09 AF 0C 7E E4 0D 0A E8 0C C3 0C 00 00
2025-08-09T23:49:51.091320,66.566,can1  204  [04]  8B D1 01 00
2025-08-09T23:49:51.093084,66.568,can1  206  [16]  CB 0C CD 09 B7 0C D0 E5 10 0A F8 0C BF 0C 00 00
2025-08-09T23:49:51.093084,66.568,can1  206  [16]  C7 0C C9 09 B3 0C 57 E3 18 0A DB 0C CB 0C 00 00
2025-08-09T23:49:51.426267,66.901,"can1  206  [16]  E4 0C C5 09 B3 0C 69 E5 14 0A DB 0C AB 0C 00 00
  can1  206  [16]  A7 0C C5 09 BB 0C FA E4 10 0A DB 0C E4 0C 00 00"
2025-08-09T23:49:51.426267,66.901,can1  206  [16]  C7 0C C5 09 BB 0C FA E4 0D 0A D7 0C C7 0C 00 00
2025-08-09T23:49:51.753819,67.228,can1  206  [16]  C3 0C C7 09 B3 0C FA E4 0D 0A D7 0C CB 0C 00 00
2025-08-09T23:49:51.753819,67.228,can1  206  [16]  C3 0C C5 09 B3 0C FA E4 12 0A DF 0C CB 0C 00 00
2025-08-09T23:49:52.087417,67.562,"can1  204  [04]  8B D1 01 00
  can1  206  [16]  CB 0C C5 09 B7 0C 57 E3 10 0A DB 0C C3 0C 00 00"
2025-08-09T23:49:52.087417,67.562,can1  206  [16]  C7 0C C5 09 BB 0C F4 E3 10 0A DB 0C C3 0C 00 00
2025-08-09T23:49:52.419443,67.894,can1  206  [16]  BF 0C C5 09 B7 0C FA E4 0D 0A E8 0C CB 0C 00 00
2025-08-09T23:49:52.419443,67.894,can1  206  [16]  CF 0C C5 09 AF 0C FA E4 0D 0A E8 0C BF 0C 00 00
2025-08-09T23:49:52.419443,67.894,can1  206  [16]  C3 0C C2 09 BB 0C 57 E3 10 0A D7 0C C7 0C 00 00
2025-08-09T23:49:52.736666,68.211,can1  206  [16]  C7 0C C2 09 BB 0C 7E E4 10 0A D7 0C C3 0C 00 00
2025-08-09T23:49:52.736666,68.211,can1  206  [16]  BF 0C C2 09 D3 0C F4 E3 12 0A C7 0C CB 0C 00 00
2025-08-09T23:49:53.068571,68.543,"can1  204  [04]  8B D1 01 00
  can1  206  [16]  D3 0C C5 09 B7 0C 7E E4 12 0A DB 0C B7 0C 00 00"
2025-08-09T23:49:53.068571,68.543,can1  206  [16]  C3 0C C5 09 B3 0C F4 E3 0D 0A E8 0C CB 0C 00 00
2025-08-09T23:49:53.404316,68.879,can1  206  [16]  AF 0C C2 09 C7 0C FA E4 0D 0A DB 0C CB 0C 00 00
2025-08-09T23:49:53.404316,68.879,can1  206  [16]  BF 0C C5 09 B7 0C FA E4 12 0A DF 0C CF 0C 00 00
2025-08-09T23:49:53.404316,68.879,can1  206  [16]  BF 0C C5 09 B7 0C FA E4 0D 0A DF 0C CB 0C 00 00
2025-08-09T23:49:53.734793,69.209,can1  206  [16]  C3 0C C5 09 B3 0C A0 E2 14 0A DF 0C CB 0C 00 00
2025-08-09T23:49:53.734793,69.209,can1  206  [16]  D7 0C C5 09 B3 0C FA E4 0D 0A DB 0C BB 0C 00 00
2025-08-09T23:49:53.734793,69.209,can1  206  [16]  D3 0C C2 09 A3 0C 69 E5 0B 0A EC 0C BB 0C 00 00
2025-08-09T23:49:54.071906,69.547,can1  204  [04]  8B D1 01 00
2025-08-09T23:49:54.071906,69.547,can1  206  [16]  CF 0C C5 09 B3 0C F4 E3 0D 0A DF 0C BF 0C 00 00
2025-08-09T23:49:54.085364,69.560,can1  206  [16]  CB 0C C7 09 B7 0C 7E E4 09 0A DF 0C C3 0C 00 00
2025-08-09T23:49:54.402763,69.877,can1  206  [16]  BF 0C C2 09 B3 0C FA E4 0D 0A E4 0C CB 0C 00 00
2025-08-09T23:49:54.402763,69.877,can1  206  [16]  CB 0C C5 09 B3 0C FA E4 10 0A E3 0C C3 0C 00 00
2025-08-09T23:49:54.735642,70.210,can1  206  [16]  C7 0C C5 09 BB 0C FA E4 10 0A D3 0C C3 0C 00 00
2025-08-09T23:49:54.735642,70.210,can1  206  [16]  BB 0C C5 09 BB 0C FA E4 10 0A DB 0C CF 0C 00 00
2025-08-09T23:49:54.735642,70.210,can1  206  [16]  CB 0C C7 09 B3 0C FA E4 0D 0A E8 0C C3 0C 00 00
2025-08-09T23:49:55.056377,70.531,"can1  204  [04]  8B D1 01 00
  can1  206  [16]  BB 0C C5 09 BF 0C FA E4 0B 0A DF 0C C7 0C 00 00"
2025-08-09T23:49:55.056377,70.531,can1  206  [16]  CF 0C C5 09 B3 0C FA E4 10 0A D7 0C BF 0C 00 00
2025-08-09T23:49:55.389675,70.864,can1  206  [16]  C7 0C C2 09 BB 0C 69 E5 F1 09 DB 0C C7 0C 00 00
2025-08-09T23:49:55.389675,70.864,can1  206  [16]  C7 0C C7 09 B3 0C 69 E5 12 0A DB 0C C3 0C 00 00
2025-08-09T23:49:55.711590,71.186,can1  206  [16]  C7 0C C7 09 B7 0C 7E E4 0D 0A E3 0C C3 0C 00 00
2025-08-09T23:49:55.711590,71.186,can1  206  [16]  D3 0C C2 09 AF 0C F4 E3 10 0A 83 0C BF 0C 00 00
2025-08-09T23:49:56.041341,71.516,can1  206  [16]  C7 0C C5 09 BB 0C FA E4 18 0A E4 0C C3 0C 00 00
2025-08-09T23:49:56.041341,71.516,"can1  204  [04]  8B D1 01 00
  can1  206  [16]  C7 0C C5 09 CF 0C 2E E6 10 0A C7 0C C3 0C 00 00"
2025-08-09T23:49:56.041341,71.516,can1  206  [16]  CF 0C C5 09 B7 0C D0 E5 0D 0A DB 0C BF 0C 00 00
2025-08-09T23:49:56.372785,71.847,can1  206  [16]  D3 0C C5 09 AB 0C FA E4 14 0A E4 0C BF 0C 00 00
2025-08-09T23:49:56.372785,71.847,can1  206  [16]  CF 0C C5 09 AF 0C 7E E4 12 0A DB 0C C3 0C 00 00
2025-08-09T23:49:56.372785,71.847,can1  206  [16]  CF 0C C5 09 B3 0C 69 E5 0D 0A DF 0C C3 0C 00 00
2025-08-09T23:49:56.696955,72.172,can1  206  [16]  CB 0C C5 09 B7 0C FA E4 0B 0A DB 0C C3 0C 00 00
2025-08-09T23:49:56.698968,72.174,can1  206  [16]  C7 0C C5 09 B3 0C FA E4 1D 0A E8 0C C3 0C 00 00
2025-08-09T23:49:57.025152,72.500,"can1  206  [16]  CF 0C C7 09 B3 0C F4 E3 0D 0A DF 0C C3 0C 00 00
  can1  204  [04]  8B D1 01 00"
2025-08-09T23:49:57.357943,72.833,"can1  206  [16]  DB 0C C7 09 C7 0C FA E4 10 0A CB 0C B3 0C 00 00
  can1  206  [16]  C3 0C C2 09 B3 0C FA E4 0D 0A E4 0C C7 0C 00 00"
2025-08-09T23:49:57.363615,72.838,can1  206  [16]  CB 0C C5 09 B7 0C FA E4 0B 0A DB 0C BF 0C 00 00
2025-08-09T23:49:57.363615,72.838,can1  206  [16]  BF 0C C7 09 B7 0C FA E4 14 0A E8 0C CB 0C 00 00
2025-08-09T23:49:57.674581,73.149,can1  206  [16]  C7 0C C5 09 B3 0C FA E4 0D 0A DB 0C C7 0C 00 00
2025-08-09T23:49:57.681785,73.156,can1  206  [16]  CB 0C C7 09 B3 0C F4 E3 0D 0A DB 0C C3 0C 00 00
2025-08-09T23:49:58.007536,73.482,"can1  206  [16]  C3 0C C5 09 BB 0C D0 E5 12 0A D7 0C C7 0C 00 00
  can1  204  [04]  8B D1 01 00"
2025-08-09T23:49:58.007536,73.482,can1  206  [16]  CF 0C C7 09 B3 0C D0 E5 0B 0A D7 0C C3 0C 00 00
2025-08-09T23:49:58.341050,73.816,can1  206  [16]  CB 0C C0 09 B3 0C 69 E5 14 0A DF 0C BF 0C 00 00
2025-08-09T23:49:58.377257,73.852,can1  206  [16]  CB 0C C2 09 B3 0C 7E E4 0D 0A DF 0C C3 0C 00 00
2025-08-09T23:49:58.377257,73.852,can1  206  [16]  B7 0C BE 09 B7 0C FA E4 12 0A E3 0C D3 0C 00 00
2025-08-09T23:49:58.671171,74.146,"can1  002  [04]  D8 53 01 00
  can1  206  [16]  CF 0C C5 09 B3 0C FA E4 0D 0A DF 0C BF 0C 00 00"
2025-08-09T23:49:58.671171,74.146,can1  206  [16]  CF 0C CD 09 B7 0C 7E E4 0B 0A F4 0C BF 0C 00 00
2025-08-09T23:49:58.671171,74.146,can1  206  [16]  C3 0C C5 09 A7 0C FA E4 10 0A F0 0C CB 0C 00 00
2025-08-09T23:49:58.989112,74.464,can1  204  [04]  8B D1 01 00
2025-08-09T23:49:58.989112,74.464,can1  206  [16]  CB 0C C2 09 B7 0C 7E E4 0D 0A DF 0C BF 0C 00 00
2025-08-09T23:49:58.994334,74.469,can1  206  [16]  C7 0C C5 09 BF 0C FA E4 0D 0A D7 0C C3 0C 00 00
2025-08-09T23:49:59.318990,74.794,can1  206  [16]  CB 0C C7 09 B3 0C C5 E1 0D 0A DF 0C C3 0C 00 00
2025-08-09T23:49:59.318990,74.794,can1  206  [16]  C7 0C C5 09 AF 0C FA E4 10 0A DF 0C CB 0C 00 00
2025-08-09T23:49:59.649581,75.124,"can1  206  [16]  C7 0C C2 09 BB 0C FA E4 10 0A E3 0C BF 0C 00 00
  can1  002  [04]  20 48 01 00"
2025-08-09T23:49:59.649581,75.124,can1  206  [16]  C7 0C C5 09 B7 0C 69 E5 10 0A DF 0C C7 0C 00 00
2025-08-09T23:49:59.649581,75.124,can1  206  [16]  BF 0C C5 09 B7 0C D0 E5 0D 0A DB 0C CB 0C 00 00
2025-08-09T23:49:59.982564,75.457,"can1  204  [04]  8B D1 01 00
  can1  206  [16]  C3 0C C7 09 B3 0C 7E E4 0D 0A DF 0C CB 0C 00 00"
2025-08-09T23:49:59.982564,75.457,can1  206  [16]  CB 0C C2 09 AF 0C FA E4 0D 0A E4 0C C3 0C 00 00
2025-08-09T23:50:00.314730,75.789,can1  206  [16]  D3 0C C7 09 AF 0C 69 E5 0D 0A E3 0C BF 0C 00 00
2025-08-09T23:50:00.314730,75.789,can1  206  [16]  CB 0C C7 09 B3 0C 69 E5 0D 0A E8 0C C3 0C 00 00
2025-08-09T23:50:00.646563,76.121,can1  206  [16]  B3 0C C2 09 DB 0C FA E4 12 0A C7 0C CB 0C 00 00
2025-08-09T23:50:00.646563,76.121,can1  206  [16]  C3 0C C5 09 B7 0C FA E4 10 0A DF 0C C7 0C 00 00
2025-08-09T23:50:00.646563,76.121,can1  206  [16]  CB 0C C7 09 B3 0C 7E E4 0D 0A E3 0C C3 0C 00 00
2025-08-09T23:50:00.977872,76.453,"can1  001  [05]  08 C9 01 00 80
  can1  206  [16]  CF 0C C5 09 B3 0C 69 E5 0D 0A DF 0C BF 0C 00 00
  can1  204  [04]  8B D1 01 00"
2025-08-09T23:50:00.977872,76.453,can1  206  [16]  C3 0C C0 09 BB 0C FA E4 10 0A DB 0C C7 0C 00 00
2025-08-09T23:50:01.309002,76.784,can1  206  [16]  C7 0C C5 09 B7 0C 69 E5 10 0A E3 0C C3 0C 00 00
2025-08-09T23:50:01.309002,76.784,can1  206  [16]  BF 0C C2 09 B3 0C 69 E5 09 0A DB 0C CB 0C 00 00
2025-08-09T23:50:01.309002,76.784,can1  206  [16]  CB 0C C5 09 BB 0C 7E E4 0D 0A D3 0C BF 0C 00 00
2025-08-09T23:50:01.640417,77.115,can1  001  [05]  50 BD 01 00 80
2025-08-09T23:50:01.640417,77.115,can1  206  [16]  CB 0C C5 09 B3 0C FA E4 12 0A D7 0C BF 0C 00 00
2025-08-09T23:50:01.640417,77.115,can1  206  [16]  DB 0C C5 09 B3 0C FA E4 10 0A D3 0C AF 0C 00 00
2025-08-09T23:50:01.965932,77.441,can1  206  [16]  BF 0C C2 09 BB 0C FA E4 10 0A DB 0C BF 0C 00 00
2025-08-09T23:50:01.965932,77.441,can1  204  [04]  8B D1 01 00
2025-08-09T23:50:01.965932,77.441,can1  206  [16]  C7 0C C5 09 BF 0C FA E4 10 0A C7 0C BB 0C 00 00
2025-08-09T23:50:02.305280,77.780,"can1  206  [16]  CB 0C C7 09 AF 0C F4 E3 10 0A DB 0C BF 0C 00 00
  can1  001  [05]  98 B1 01 00 80"
2025-08-09T23:50:02.305280,77.780,can1  206  [16]  C7 0C C5 09 B7 0C FA E4 14 0A CB 0C B7 0C 00 00
2025-08-09T23:50:02.305280,77.780,can1  206  [16]  C3 0C C5 09 AF 0C 69 E5 10 0A DB 0C C3 0C 00 00
2025-08-09T23:50:02.626792,78.101,"can1  001  [05]  E0 A5 01 00 80
  can1  206  [16]  CF 0C C5 09 AF 0C 57 E3 0D 0A CB 0C BB 0C 00 00"
2025-08-09T23:50:02.626792,78.101,can1  206  [16]  C7 0C C2 09 B7 0C 7E E4 12 0A CB 0C BF 0C 00 00
2025-08-09T23:50:02.942126,78.417,"can1  001  [05]  28 9A 01 00 80
  can1  206  [16]  CB 0C C5 09 B7 0C 69 E5 0D 0A D3 0C BB 0C 00 00"
2025-08-09T23:50:02.942126,78.417,"can1  204  [04]  92 BB 01 00
  can1  206  [16]  C7 0C C5 09 B7 0C 69 E5 10 0A CB 0C B7 0C 00 00"
2025-08-09T23:50:03.280094,78.755,can1  206  [16]  CF 0C C5 09 AB 0C FA E4 10 0A CB 0C BF 0C 00 00
2025-08-09T23:50:03.280094,78.755,can1  206  [16]  C3 0C C5 09 B7 0C 69 E5 0D 0A B3 0C C3 0C 00 00
2025-08-09T23:50:03.280094,78.755,can1  206  [16]  C3 0C C5 09 B7 0C FA E4 0B 0A D3 0C C3 0C 00 00
2025-08-09T23:50:03.612295,79.087,can1  206  [16]  CB 0C C5 09 B7 0C D0 E5 12 0A CB 0C BB 0C 00 00
2025-08-09T23:50:03.612295,79.087,can1  206  [16]  CB 0C C5 09 B3 0C 69 E5 0B 0A DF 0C BB 0C 00 00
2025-08-09T23:50:03.944274,79.419,can1  206  [16]  C7 0C C5 09 BB 0C 69 E5 12 0A D3 0C BF 0C 00 00
2025-08-09T23:50:03.944274,79.419,"can1  204  [04]  3A A4 01 00
  can1  206  [16]  C7 0C C5 09 B3 0C FA E4 0D 0A DB 0C C3 0C 00 00"
2025-08-09T23:50:04.278100,79.753,"can1  206  [16]  CB 0C C5 09 B3 0C FA E4 0D 0A DB 0C BF 0C 00 00
  can1  001  [05]  70 8E 01 00 80"
2025-08-09T23:50:04.278100,79.753,can1  206  [16]  C7 0C C9 09 A3 0C 57 E3 0D 0A E4 0C C3 0C 00 00
2025-08-09T23:50:04.278100,79.753,can1  206  [16]  D7 0C C9 09 AF 0C D0 E5 10 0A D3 0C B3 0C 00 00
2025-08-09T23:50:04.596919,80.072,can1  206  [16]  C3 0C C7 09 BB 0C 7E E4 12 0A CF 0C C3 0C 00 00
2025-08-09T23:50:04.596919,80.072,can1  206  [16]  CF 0C C2 09 AF 0C F4 E3 10 0A DF 0C BF 0C 00 00
2025-08-09T23:50:04.596919,80.072,can1  206  [16]  C3 0C C5 09 B3 0C 57 E3 0D 0A D3 0C C7 0C 00 00
2025-08-09T23:50:04.929078,80.404,can1  206  [16]  CF 0C C5 09 B7 0C 7E E4 0D 0A DF 0C BB 0C 00 00
2025-08-09T23:50:04.934970,80.410,can1  204  [04]  1E 95 01 00
2025-08-09T23:50:04.937676,80.412,can1  206  [16]  C3 0C C5 09 BB 0C FA E4 10 0A DB 0C C3 0C 00 00
2025-08-09T23:50:05.260308,80.735,"can1  001  [05]  B8 82 01 00 80
  can1  206  [16]  CB 0C C5 09 B3 0C 7E E4 0D 0A E4 0C BF 0C 00 00"
2025-08-09T23:50:05.260308,80.735,can1  206  [16]  C7 0C C5 09 B3 0C 7E E4 0B 0A DB 0C C3 0C 00 00
2025-08-09T23:50:05.596862,81.072,can1  206  [16]  C7 0C C5 09 B7 0C F4 E3 10 0A D7 0C BF 0C 00 00
2025-08-09T23:50:05.596862,81.072,can1  206  [16]  CB 0C CB 09 AF 0C 7E E4 10 0A DF 0C BF 0C 00 00
2025-08-09T23:50:05.596862,81.072,can1  206  [16]  CF 0C C5 09 B7 0C 7E E4 0D 0A D7 0C BB 0C 00 00
2025-08-09T23:50:05.913413,81.388,"can1  206  [16]  C7 0C C7 09 D7 0C 69 E5 1D 0A AB 0C C3 0C 00 00
  can1  204  [04]  C2 88 01 00"
2025-08-09T23:50:05.913413,81.388,can1  206  [16]  C7 0C C0 09 9F 0C FA E4 09 0A F0 0C C3 0C 00 00
2025-08-09T23:50:06.244644,81.719,can1  206  [16]  CB 0C C0 09 A7 0C FA E4 0D 0A EC 0C BF 0C 00 00
2025-08-09T23:50:06.244644,81.719,can1  206  [16]  C7 0C C5 09 B3 0C 69 E5 0B 0A E3 0C C7 0C 00 00
2025-08-09T23:50:06.264995,81.740,can1  206  [16]  CB 0C C2 09 B7 0C F4 E3 0B 0A DF 0C BF 0C 00 00
2025-08-09T23:50:06.577416,82.052,can1  001  [05]  00 77 01 00 80
2025-08-09T23:50:06.577416,82.052,can1  206  [16]  C3 0C C5 09 B3 0C 57 E3 12 0A D7 0C CF 0C 00 00
2025-08-09T23:50:06.583909,82.059,can1  206  [16]  C7 0C C7 09 B7 0C FA E4 0D 0A D7 0C C3 0C 00 00
2025-08-09T23:50:06.907725,82.382,can1  206  [16]  C3 0C C7 09 B7 0C 69 E5 0D 0A D7 0C C7 0C 00 00
2025-08-09T23:50:06.907725,82.382,can1  204  [04]  E5 81 01 00
2025-08-09T23:50:06.914132,82.389,can1  206  [16]  CB 0C C7 09 BB 0C FA E4 10 0A D7 0C BB 0C 00 00
2025-08-09T23:50:07.225970,82.701,"can1  206  [16]  CB 0C C7 09 B7 0C FA E4 0B 0A D7 0C BF 0C 00 00
  can1  001  [05]  48 6B 01 00 80"
2025-08-09T23:50:07.225970,82.701,can1  206  [16]  CF 0C C5 09 B3 0C 57 E3 0D 0A C7 0C BB 0C 00 00
2025-08-09T23:50:07.234704,82.709,can1  206  [16]  C7 0C C2 09 B3 0C C5 E1 0D 0A DB 0C C3 0C 00 00
2025-08-09T23:50:07.565228,83.040,can1  206  [16]  D3 0C C0 09 B3 0C F4 E3 10 0A DF 0C B7 0C 00 00
2025-08-09T23:50:07.569305,83.044,can1  206  [16]  C3 0C C7 09 AB 0C FA E4 12 0A DF 0C CF 0C 00 00
2025-08-09T23:50:07.891601,83.366,can1  206  [16]  C7 0C C7 09 B3 0C FA E4 07 0A DB 0C C3 0C 00 00
2025-08-09T23:50:07.916299,83.391,"can1  204  [04]  C9 72 01 00
  can1  206  [16]  C3 0C C2 09 B3 0C F4 E3 12 0A DF 0C C3 0C 00 00"
2025-08-09T23:50:08.208914,83.684,can1  206  [16]  CB 0C C7 09 B7 0C 57 E3 0D 0A D3 0C BB 0C 00 00
2025-08-09T23:50:08.208914,83.684,can1  206  [16]  CF 0C C7 09 BB 0C FA E4 10 0A CF 0C B7 0C 00 00
2025-08-09T23:50:08.208914,83.684,can1  206  [16]  CB 0C C9 09 B3 0C FA E4 0B 0A E8 0C BF 0C 00 00
2025-08-09T23:50:08.538845,84.013,"can1  001  [05]  90 5F 01 00 80
  can1  206  [16]  CB 0C C0 09 B3 0C D0 E5 12 0A E4 0C BF 0C 00 00"
2025-08-09T23:50:08.538845,84.013,can1  206  [16]  BF 0C CB 09 B7 0C FA E4 10 0A D3 0C C3 0C 00 00
2025-08-09T23:50:08.538845,84.013,can1  206  [16]  C7 0C C5 09 BB 0C 7E E4 10 0A CF 0C BF 0C 00 00
2025-08-09T23:50:08.873838,84.348,"can1  206  [16]  C7 0C C7 09 B7 0C FA E4 10 0A D7 0C C3 0C 00 00
  can1  204  [04]  2C 69 01 00"
2025-08-09T23:50:08.875920,84.351,can1  206  [16]  C7 0C C7 09 B7 0C FA E4 0D 0A DF 0C BB 0C 00 00
2025-08-09T23:50:09.204099,84.679,can1  206  [16]  C3 0C C5 09 B3 0C 7E E4 0D 0A E4 0C C3 0C 00 00
2025-08-09T23:50:09.206359,84.681,can1  206  [16]  CB 0C C2 09 B3 0C 7E E4 0B 0A E4 0C BF 0C 00 00
2025-08-09T23:50:09.522073,84.997,can1  206  [16]  C7 0C C2 09 B3 0C FA E4 0D 0A DB 0C C3 0C 00 00
2025-08-09T23:50:09.525458,85.000,can1  206  [16]  BF 0C C2 09 B7 0C F4 E3 0D 0A D7 0C CB 0C 00 00
2025-08-09T23:50:09.853527,85.328,can1  206  [16]  CB 0C C7 09 A7 0C FA E4 12 0A E4 0C BF 0C 00 00
2025-08-09T23:50:09.853527,85.328,can1  206  [16]  BF 0C C2 09 B7 0C FA E4 0D 0A DF 0C CB 0C 00 00
2025-08-09T23:50:09.853527,85.328,can1  204  [04]  4F 62 01 00
2025-08-09T23:50:09.853527,85.328,can1  206  [16]  CB 0C C5 09 BF 0C 7E E4 0D 0A D7 0C BF 0C 00 00
2025-08-09T23:50:10.186491,85.661,can1  206  [16]  C3 0C C2 09 BB 0C 69 E5 10 0A D7 0C C7 0C 00 00
2025-08-09T23:50:10.186491,85.661,can1  206  [16]  C3 0C B7 09 BF 0C 69 E5 0D 0A D3 0C C7 0C 00 00
2025-08-09T23:50:10.518067,85.993,"can1  206  [16]  B7 0C C2 09 C3 0C 7E E4 0D 0A DF 0C C7 0C 00 00
  can1  001  [05]  D8 53 01 00 80"
2025-08-09T23:50:10.518067,85.993,can1  206  [16]  BF 0C C7 09 BB 0C A0 E2 0D 0A DB 0C CB 0C 00 00
2025-08-09T23:50:10.851526,86.326,can1  206  [16]  C7 0C C2 09 B7 0C FA E4 10 0A DB 0C BF 0C 00 00
2025-08-09T23:50:10.851526,86.326,can1  206  [16]  CB 0C D6 09 AF 0C 7E E4 10 0A E8 0C BF 0C 00 00
2025-08-09T23:50:10.851526,86.326,"can1  204  [04]  30 5E 01 00
  can1  206  [16]  CF 0C C2 09 AF 0C 7E E4 1B 0A D7 0C BF 0C 00 00"
2025-08-09T23:50:11.180403,86.655,can1  206  [16]  B3 0C C9 09 B3 0C 57 E3 12 0A E4 0C D7 0C 00 00
2025-08-09T23:50:11.180403,86.655,can1  206  [16]  C7 0C C7 09 B3 0C FA E4 10 0A DB 0C C3 0C 00 00
2025-08-09T23:50:11.180403,86.655,can1  206  [16]  E4 0C C5 09 B7 0C FA E4 0B 0A DB 0C A3 0C 00 00
2025-08-09T23:50:11.508603,86.983,can1  206  [16]  CF 0C C5 09 B3 0C 7E E4 10 0A CF 0C BF 0C 00 00
2025-08-09T23:50:11.516611,86.991,can1  206  [16]  BF 0C C5 09 B3 0C 7E E4 12 0A DB 0C CB 0C 00 00
2025-08-09T23:50:11.840051,87.315,can1  206  [16]  BF 0C C7 09 BB 0C FA E4 14 0A DB 0C CB 0C 00 00
2025-08-09T23:50:11.840051,87.315,"can1  204  [04]  52 57 01 00
  can1  206  [16]  CF 0C C5 09 B3 0C F4 E3 0D 0A E3 0C BF 0C 00 00"
2025-08-09T23:50:12.164448,87.639,can1  206  [16]  CB 0C C7 09 B7 0C 7E E4 0D 0A E3 0C BF 0C 00 00
2025-08-09T23:50:12.166447,87.641,can1  206  [16]  C3 0C CD 09 B3 0C FA E4 10 0A E4 0C C7 0C 00 00
2025-08-09T23:50:12.493104,87.968,can1  206  [16]  C3 0C C2 09 BB 0C F4 E3 12 0A DF 0C C7 0C 00 00
2025-08-09T23:50:12.493104,87.968,can1  206  [16]  CB 0C C7 09 B3 0C FA E4 0D 0A DF 0C C3 0C 00 00
2025-08-09T23:50:12.493104,87.968,can1  206  [16]  C3 0C C0 09 B7 0C F4 E3 10 0A E3 0C C7 0C 00 00
2025-08-09T23:50:12.821694,88.296,can1  206  [16]  D7 0C C2 09 AF 0C 69 E5 0B 0A DB 0C B7 0C 00 00
2025-08-09T23:50:12.821694,88.296,can1  206  [16]  DB 0C DB 09 AF 0C 69 E5 10 0A E8 0C B7 0C 00 00
2025-08-09T23:50:12.822703,88.297,can1  204  [04]  52 57 01 00
2025-08-09T23:50:13.167876,88.643,can1  206  [16]  C7 0C C5 09 CB 0C A0 E2 10 0A CF 0C C3 0C 00 00
2025-08-09T23:50:13.170696,88.645,can1  206  [16]  CF 0C C5 09 B7 0C F4 E3 0D 0A DB 0C BF 0C 00 00
2025-08-09T23:50:13.171698,88.646,can1  206  [16]  CB 0C C7 09 AF 0C FA E4 0B 0A DB 0C C3 0C 00 00
2025-08-09T23:50:13.491965,88.967,can1  206  [16]  CB 0C C5 09 BB 0C B1 E0 0D 0A DB 0C BF 0C 00 00
2025-08-09T23:50:13.491965,88.967,can1  206  [16]  D3 0C C5 09 B3 0C FA E4 0D 0A DB 0C BB 0C 00 00
2025-08-09T23:50:13.806745,89.281,can1  206  [16]  C3 0C C5 09 B3 0C FA E4 0D 0A DB 0C CB 0C 00 00
2025-08-09T23:50:13.806745,89.281,"can1  206  [16]  C3 0C C5 09 B3 0C 7E E4 10 0A E4 0C C7 0C 00 00
  can1  204  [04]  52 57 01 00"
2025-08-09T23:50:13.819756,89.294,can1  206  [16]  D7 0C C7 09 B7 0C 7E E4 10 0A E3 0C B3 0C 00 00
2025-08-09T23:50:14.142278,89.617,can1  206  [16]  C7 0C C0 09 B3 0C F4 E3 12 0A E3 0C C7 0C 00 00
2025-08-09T23:50:14.144292,89.619,can1  206  [16]  CB 0C C5 09 B7 0C 69 E5 0D 0A E3 0C BF 0C 00 00
2025-08-09T23:50:14.481707,89.956,can1  206  [16]  C7 0C C5 09 B7 0C 69 E5 0D 0A E3 0C C3 0C 00 00
2025-08-09T23:50:14.483069,89.958,can1  206  [16]  93 0C C7 09 B3 0C A0 E2 0B 0A E8 0C FC 0C 00 00
2025-08-09T23:50:14.813140,90.288,can1  206  [16]  CB 0C C7 09 B7 0C F4 E3 12 0A D7 0C C3 0C 00 00
2025-08-09T23:50:14.814301,90.289,can1  206  [16]  C3 0C C7 09 C3 0C FA E4 12 0A DF 0C BB 0C 00 00
2025-08-09T23:50:14.819311,90.294,can1  204  [04]  52 57 01 00
2025-08-09T23:50:14.819311,90.294,can1  206  [16]  CB 0C C5 09 D7 0C FA E4 0B 0A B7 0C BF 0C 00 00
2025-08-09T23:50:15.160403,90.635,can1  206  [16]  BF 0C C5 09 BF 0C 7E E4 0B 0A E3 0C C3 0C 00 00
2025-08-09T23:50:15.161412,90.636,can1  206  [16]  BF 0C C5 09 BB 0C 57 E3 0D 0A D7 0C CB 0C 00 00
2025-08-09T23:50:15.490550,90.965,can1  206  [16]  C7 0C C5 09 B3 0C 7E E4 10 0A E3 0C C7 0C 00 00
2025-08-09T23:50:15.490550,90.965,can1  206  [16]  CB 0C C7 09 B7 0C C5 E1 18 0A DF 0C BF 0C 00 00
2025-08-09T23:50:15.496395,90.971,can1  206  [16]  C7 0C C2 09 9F 0C 7E E4 0B 0A F8 0C C3 0C 00 00
2025-08-09T23:50:15.820246,91.295,can1  206  [16]  D3 0C C2 09 B3 0C FA E4 10 0A DF 0C BB 0C 00 00
2025-08-09T23:50:15.823248,91.298,"can1  206  [16]  CF 0C C5 09 B7 0C FA E4 0B 0A D3 0C BF 0C 00 00
  can1  204  [04]  52 57 01 00"
2025-08-09T23:50:16.147090,91.622,can1  206  [16]  C7 0C C2 09 B3 0C F4 E3 10 0A E4 0C C3 0C 00 00
2025-08-09T23:50:16.147090,91.622,can1  206  [16]  C3 0C C5 09 AB 0C F4 E3 10 0A EC 0C C7 0C 00 00
2025-08-09T23:50:16.152522,91.627,can1  206  [16]  B7 0C C0 09 C3 0C FA E4 0D 0A DB 0C C7 0C 00 00
2025-08-09T23:50:16.476344,91.951,can1  206  [16]  C7 0C C5 09 B7 0C FA E4 0D 0A E3 0C C3 0C 00 00
2025-08-09T23:50:16.477344,91.952,can1  206  [16]  CF 0C C5 09 AF 0C 7E E4 0D 0A E8 0C C3 0C 00 00
2025-08-09T23:50:16.809501,92.284,"can1  206  [16]  CB 0C C5 09 AF 0C F4 E3 0D 0A DB 0C C7 0C 00 00
  can1  001  [05]  58 0F 02 00 80"
2025-08-09T23:50:16.809501,92.284,"can1  206  [16]  BF 0C C5 09 AB 0C 69 E5 0D 0A C7 0C AB 0C 00 00
  can1  204  [04]  52 57 01 00"
2025-08-09T23:50:16.809501,92.284,can1  206  [16]  C3 0C C5 09 A7 0C FA E4 10 0A D3 0C B3 0C 00 00
2025-08-09T23:50:17.143772,92.618,can1  206  [16]  BF 0C C7 09 A3 0C 57 E3 12 0A D3 0C BB 0C 00 00
2025-08-09T23:50:17.145781,92.620,can1  206  [16]  B7 0C C5 09 B3 0C 69 E5 0D 0A CB 0C AF 0C 00 00
2025-08-09T23:50:17.457897,92.933,can1  206  [16]  CB 0C C5 09 9F 0C FA E4 10 0A C7 0C B3 0C 00 00
2025-08-09T23:50:17.487268,92.962,can1  206  [16]  BB 0C C7 09 46 0C FA E4 10 0A 2C 0D BB 0C 00 00
2025-08-09T23:50:17.789707,93.264,can1  206  [16]  C3 0C C7 09 A7 0C 69 E5 1D 0A C3 0C B3 0C 00 00
2025-08-09T23:50:17.789707,93.264,"can1  206  [16]  B3 0C C9 09 B3 0C FA E4 0D 0A C7 0C BF 0C 00 00
  can1  204  [04]  5F 92 01 00"
2025-08-09T23:50:18.121505,93.596,can1  206  [16]  C7 0C C7 09 97 0C FA E4 0D 0A D7 0C B7 0C 00 00
2025-08-09T23:50:18.121505,93.596,can1  206  [16]  C7 0C CB 09 9F 0C 69 E5 12 0A C3 0C B3 0C 00 00
2025-08-09T23:50:18.121505,93.596,can1  206  [16]  C3 0C C7 09 A3 0C FA E4 10 0A D7 0C B3 0C 00 00
2025-08-09T23:50:18.443520,93.918,can1  206  [16]  B7 0C C7 09 B3 0C F4 E3 10 0A BF 0C BB 0C 00 00
2025-08-09T23:50:18.443520,93.918,can1  206  [16]  C3 0C C2 09 A3 0C FA E4 0D 0A D3 0C B3 0C 00 00
2025-08-09T23:50:18.447127,93.922,can1  206  [16]  BB 0C C7 09 AF 0C 7E E4 10 0A C3 0C BB 0C 00 00
2025-08-09T23:50:18.769900,94.245,can1  206  [16]  C3 0C C7 09 A7 0C 7E E4 0D 0A CB 0C B3 0C 00 00
2025-08-09T23:50:18.770901,94.246,"can1  204  [04]  E7 DD 01 00
  can1  206  [16]  C3 0C C5 09 9B 0C 7E E4 10 0A C7 0C BB 0C 00 00"
2025-08-09T23:50:19.110978,94.586,can1  206  [16]  C7 0C C5 09 AF 0C F4 E3 10 0A CB 0C B3 0C 00 00
2025-08-09T23:50:19.110978,94.586,can1  206  [16]  C3 0C C7 09 AB 0C F4 E3 0B 0A CB 0C BF 0C 00 00
2025-08-09T23:50:19.554902,95.030,can1  206  [16]  C7 0C C2 09 AF 0C 69 E5 0D 0A B7 0C BF 0C 00 00
2025-08-09T23:50:19.562271,95.037,can1  206  [16]  AF 0C C5 09 AF 0C FA E4 0B 0A D3 0C DB 0C 00 00
2025-08-09T23:50:19.562271,95.037,can1  206  [16]  C3 0C C7 09 B3 0C 69 E5 0D 0A DB 0C C3 0C 00 00
2025-08-09T23:50:19.562271,95.037,can1  206  [16]  CB 0C C7 09 AF 0C 7E E4 0D 0A D7 0C BB 0C 00 00
2025-08-09T23:50:19.898427,95.373,"can1  206  [16]  CB 0C C2 09 AB 0C FA E4 10 0A DF 0C BF 0C 00 00
  can1  204  [04]  1A 07 02 00"
2025-08-09T23:50:20.208830,95.683,"can1  206  [16]  C3 0C C5 09 B3 0C 69 E5 10 0A DB 0C C7 0C 00 00
  can1  206  [16]  C3 0C C5 09 B7 0C FA E4 0D 0A D3 0C C3 0C 00 00"
2025-08-09T23:50:20.208830,95.683,can1  206  [16]  CF 0C C5 09 B7 0C FA E4 0B 0A DB 0C BB 0C 00 00
2025-08-09T23:50:20.536140,96.011,can1  206  [16]  C3 0C C7 09 B7 0C F4 E3 10 0A DB 0C C7 0C 00 00
2025-08-09T23:50:20.536140,96.011,can1  206  [16]  CF 0C CB 09 67 0C FA E4 10 0A 20 0D C7 0C 00 00
2025-08-09T23:50:20.865089,96.340,can1  206  [16]  BF 0C C5 09 BB 0C 69 E5 12 0A D7 0C CB 0C 00 00
2025-08-09T23:50:20.865089,96.340,can1  206  [16]  C7 0C C5 09 B7 0C 57 E3 0B 0A DF 0C C3 0C 00 00
2025-08-09T23:50:20.865089,96.340,can1  204  [04]  98 0C 02 00
2025-08-09T23:50:20.869192,96.344,can1  206  [16]  C7 0C C5 09 B3 0C 7E E4 12 0A DF 0C C7 0C 00 00
2025-08-09T23:50:21.198723,96.673,can1  206  [16]  C3 0C D2 09 B3 0C F4 E3 0D 0A DF 0C C7 0C 00 00
2025-08-09T23:50:21.198723,96.673,can1  206  [16]  CF 0C C2 09 B3 0C F4 E3 10 0A DF 0C BF 0C 00 00
2025-08-09T23:50:21.530769,97.005,can1  206  [16]  C7 0C C5 09 AF 0C 7E E4 0B 0A E8 0C C7 0C 00 00
2025-08-09T23:50:21.533700,97.008,can1  206  [16]  CB 0C C5 09 B3 0C D0 E5 10 0A DF 0C BF 0C 00 00
2025-08-09T23:50:21.534367,97.009,can1  206  [16]  C3 0C C5 09 B7 0C F4 E3 1D 0A E3 0C C7 0C 00 00
2025-08-09T23:50:21.862813,97.337,can1  206  [16]  C7 0C C5 09 B3 0C 7E E4 10 0A EC 0C C7 0C 00 00
2025-08-09T23:50:21.862813,97.337,"can1  204  [04]  98 0C 02 00
  can1  206  [16]  C7 0C C2 09 AB 0C FA E4 0D 0A E4 0C C7 0C 00 00"
2025-08-09T23:50:22.195893,97.671,can1  206  [16]  C3 0C CB 09 B7 0C 69 E5 12 0A DB 0C CB 0C 00 00
2025-08-09T23:50:22.195893,97.671,can1  206  [16]  D3 0C CB 09 B7 0C 69 E5 0D 0A E3 0C B7 0C 00 00
2025-08-09T23:50:22.195893,97.671,can1  206  [16]  C7 0C BE 09 B7 0C FA E4 0D 0A E4 0C BF 0C 00 00
2025-08-09T23:50:22.527302,98.002,can1  206  [16]  C7 0C C5 09 B7 0C 69 E5 10 0A DB 0C C3 0C 00 00
2025-08-09T23:50:22.527302,98.002,can1  206  [16]  C3 0C C7 09 B7 0C 69 E5 0D 0A DF 0C C7 0C 00 00
2025-08-09T23:50:22.847872,98.323,can1  206  [16]  CF 0C C5 09 B7 0C FA E4 0D 0A D7 0C BF 0C 00 00
2025-08-09T23:50:22.851890,98.327,"can1  206  [16]  CF 0C C5 09 B7 0C 69 E5 0D 0A E8 0C BB 0C 00 00
  can1  204  [04]  98 0C 02 00"
2025-08-09T23:50:23.185916,98.661,can1  206  [16]  C3 0C CB 09 AF 0C FA E4 12 0A E8 0C CB 0C 00 00
2025-08-09T23:50:23.185916,98.661,can1  206  [16]  C7 0C C7 09 BB 0C 7E E4 12 0A DB 0C C3 0C 00 00
2025-08-09T23:50:23.187179,98.662,can1  206  [16]  C3 0C C5 09 B7 0C 7E E4 0D 0A E4 0C C3 0C 00 00
2025-08-09T23:50:23.502936,98.978,can1  206  [16]  CB 0C C5 09 BB 0C FA E4 0B 0A CF 0C BF 0C 00 00
2025-08-09T23:50:23.502936,98.978,can1  206  [16]  CB 0C C5 09 AF 0C FA E4 0B 0A DF 0C C3 0C 00 00
2025-08-09T23:50:23.844482,99.319,can1  206  [16]  C3 0C C7 09 BB 0C 69 E5 10 0A DB 0C C3 0C 00 00
2025-08-09T23:50:23.844482,99.319,can1  206  [16]  D7 0C C5 09 B3 0C 57 E3 10 0A DB 0C BB 0C 00 00
2025-08-09T23:50:23.860754,99.335,can1  204  [04]  98 0C 02 00
2025-08-09T23:50:24.178633,99.653,can1  206  [16]  C7 0C C7 09 B3 0C FA E4 0D 0A DF 0C C7 0C 00 00
2025-08-09T23:50:24.178633,99.653,can1  206  [16]  C3 0C C5 09 B3 0C FA E4 10 0A E4 0C C7 0C 00 00
2025-08-09T23:50:24.178633,99.653,can1  206  [16]  C7 0C C5 09 B7 0C 7E E4 0D 0A DF 0C C3 0C 00 00
2025-08-09T23:50:24.517599,99.992,can1  206  [16]  CB 0C C5 09 AF 0C D7 E6 0D 0A DB 0C C7 0C 00 00
2025-08-09T23:50:24.517599,99.992,can1  206  [16]  CF 0C C5 09 AF 0C D0 E5 0D 0A E3 0C C3 0C 00 00
2025-08-09T23:50:24.517599,99.992,can1  206  [16]  C7 0C D0 09 BF 0C 69 E5 0D 0A DF 0C BF 0C 00 00
2025-08-09T23:50:24.853040,100.328,"can1  206  [16]  C3 0C C5 09 B3 0C FA E4 10 0A D7 0C CB 0C 00 00
  can1  204  [04]  98 0C 02 00"
2025-08-09T23:50:24.853040,100.328,can1  206  [16]  C7 0C C2 09 B7 0C 7E E4 10 0A DF 0C C3 0C 00 00
2025-08-09T23:50:25.185424,100.660,can1  206  [16]  C3 0C C7 09 BB 0C 69 E5 10 0A DF 0C C7 0C 00 00
2025-08-09T23:50:25.187438,100.662,can1  206  [16]  CB 0C C5 09 B3 0C 69 E5 0D 0A DB 0C C3 0C 00 00
2025-08-09T23:50:25.187438,100.662,can1  206  [16]  D3 0C C5 09 B7 0C 7E E4 0D 0A DB 0C B7 0C 00 00
2025-08-09T23:50:25.515226,100.990,can1  206  [16]  B7 0C C2 09 B7 0C FA E4 0D 0A DF 0C D3 0C 00 00
2025-08-09T23:50:25.515226,100.990,can1  206  [16]  BF 0C C0 09 B3 0C A0 E2 0D 0A DF 0C CB 0C 00 00
2025-08-09T23:50:25.853154,101.328,can1  206  [16]  C7 0C C5 09 B7 0C FA E4 10 0A D7 0C C7 0C 00 00
2025-08-09T23:50:25.853154,101.328,"can1  204  [04]  98 0C 02 00
  can1  206  [16]  CB 0C C5 09 B3 0C F4 E3 10 0A E4 0C BF 0C 00 00"
2025-08-09T23:50:26.177596,101.652,"can1  206  [16]  C7 0C C7 09 B3 0C 7E E4 10 0A DF 0C C7 0C 00 00
  can1  206  [16]  CF 0C C5 09 B3 0C 7E E4 12 0A DF 0C BF 0C 00 00"
2025-08-09T23:50:26.511460,101.986,can1  206  [16]  CF 0C C5 09 AF 0C FA E4 0D 0A DF 0C BF 0C 00 00
2025-08-09T23:50:26.513476,101.988,can1  206  [16]  C7 0C C7 09 BB 0C FA E4 10 0A D3 0C C3 0C 00 00
2025-08-09T23:50:26.513476,101.988,can1  206  [16]  CF 0C C2 09 D3 0C 7E E4 10 0A BF 0C BB 0C 00 00
2025-08-09T23:50:26.839125,102.314,can1  206  [16]  CF 0C C2 09 B3 0C 69 E5 10 0A DB 0C BF 0C 00 00
2025-08-09T23:50:26.840125,102.315,"can1  206  [16]  CB 0C C5 09 B3 0C F4 E3 0D 0A DF 0C C3 0C 00 00
  can1  204  [04]  98 0C 02 00"
2025-08-09T23:50:27.170652,102.645,can1  206  [16]  C7 0C C7 09 B7 0C 57 E3 0B 0A DF 0C C7 0C 00 00
2025-08-09T23:50:27.170652,102.645,can1  206  [16]  C3 0C D2 09 B7 0C F4 E3 12 0A DF 0C C7 0C 00 00
2025-08-09T23:50:27.171652,102.646,can1  206  [16]  CF 0C C5 09 B3 0C FA E4 12 0A DF 0C BF 0C 00 00
2025-08-09T23:50:27.495833,102.970,can1  206  [16]  CB 0C C7 09 B3 0C 69 E5 10 0A E3 0C C3 0C 00 00
2025-08-09T23:50:27.498850,102.973,can1  206  [16]  CF 0C C7 09 B3 0C 7E E4 0B 0A DF 0C BF 0C 00 00
2025-08-09T23:50:27.500336,102.975,can1  206  [16]  CB 0C C5 09 B3 0C FA E4 0D 0A DF 0C C3 0C 00 00
2025-08-09T23:50:27.823097,103.298,"can1  206  [16]  C3 0C C5 09 B7 0C 7E E4 0D 0A E3 0C C7 0C 00 00
  can1  204  [04]  98 0C 02 00"
2025-08-09T23:50:27.824449,103.299,can1  206  [16]  C7 0C C0 09 B7 0C 69 E5 0B 0A E3 0C C3 0C 00 00
2025-08-09T23:50:28.151250,103.626,can1  206  [16]  BF 0C C7 09 B7 0C FA E4 0D 0A DB 0C CB 0C 00 00
2025-08-09T23:50:28.154726,103.629,can1  206  [16]  C7 0C C7 09 BB 0C FA E4 12 0A D7 0C C7 0C 00 00
2025-08-09T23:50:28.482435,103.957,can1  206  [16]  CB 0C C2 09 B7 0C F4 E3 12 0A DB 0C C3 0C 00 00
2025-08-09T23:50:28.482435,103.957,can1  206  [16]  CB 0C C7 09 B3 0C FA E4 10 0A DB 0C C3 0C 00 00
2025-08-09T23:50:28.802227,104.277,can1  206  [16]  C7 0C C7 09 BB 0C 7E E4 0B 0A D7 0C C3 0C 00 00
2025-08-09T23:50:28.803255,104.278,can1  206  [16]  CF 0C C5 09 B7 0C 69 E5 0D 0A DB 0C BB 0C 00 00
2025-08-09T23:50:28.806226,104.281,"can1  204  [04]  98 0C 02 00
  can1  206  [16]  C3 0C C5 09 B7 0C FA E4 09 0A DF 0C C7 0C 00 00"
2025-08-09T23:50:29.146999,104.622,can1  206  [16]  C3 0C C5 09 B7 0C FA E4 10 0A DB 0C C7 0C 00 00
2025-08-09T23:50:29.146999,104.622,can1  206  [16]  C7 0C C5 09 B3 0C F4 E3 16 0A DF 0C C7 0C 00 00
2025-08-09T23:50:29.475960,104.951,can1  206  [16]  CB 0C C5 09 CF 0C FA E4 10 0A C3 0C BF 0C 00 00
2025-08-09T23:50:29.477964,104.953,can1  206  [16]  CB 0C D6 09 B7 0C 7E E4 10 0A E8 0C BF 0C 00 00
2025-08-09T23:50:29.477964,104.953,can1  206  [16]  BF 0C C7 09 BB 0C 7E E4 0D 0A D7 0C CB 0C 00 00
2025-08-09T23:50:29.807612,105.282,can1  001  [05]  C8 AF 00 00 80
2025-08-09T23:50:29.807612,105.282,can1  206  [16]  C3 0C C7 09 B3 0C 7E E4 0D 0A DF 0C C7 0C 00 00
2025-08-09T23:50:29.807612,105.282,"can1  206  [16]  C3 0C C7 09 A7 0C FA E4 0D 0A C3 0C B3 0C 00 00
  can1  204  [04]  98 0C 02 00
  can1  206  [16]  AF 0C C5 09 AF 0C 7E E4 10 0A BF 0C C7 0C 00 00"
2025-08-09T23:50:30.144397,105.619,can1  206  [16]  C7 0C C7 09 AB 0C 7E E4 12 0A C3 0C B3 0C 00 00
2025-08-09T23:50:30.144397,105.619,can1  206  [16]  BB 0C C2 09 A3 0C D0 E5 10 0A CF 0C BF 0C 00 00
2025-08-09T23:50:30.457418,105.932,can1  206  [16]  C7 0C C5 09 A7 0C 69 E5 10 0A C3 0C B3 0C 00 00
2025-08-09T23:50:30.457418,105.932,can1  206  [16]  C3 0C C2 09 A7 0C FA E4 12 0A CF 0C B7 0C 00 00
2025-08-09T23:50:30.791835,106.266,can1  206  [16]  CF 0C C0 09 A7 0C D7 E6 10 0A CB 0C AF 0C 00 00
2025-08-09T23:50:30.793405,106.268,"can1  206  [16]  BF 0C C7 09 AF 0C F4 E3 0B 0A CF 0C B3 0C 00 00
  can1  204  [04]  0D CC 01 00"
2025-08-09T23:50:31.123552,106.598,can1  206  [16]  C3 0C C5 09 AB 0C FA E4 10 0A CB 0C B3 0C 00 00
2025-08-09T23:50:31.124556,106.599,can1  206  [16]  CB 0C C7 09 A3 0C FA E4 0D 0A C7 0C AB 0C 00 00
2025-08-09T23:50:31.132565,106.607,can1  206  [16]  CB 0C C7 09 B3 0C 7E E4 18 0A BF 0C AF 0C 00 00
2025-08-09T23:50:31.446349,106.923,can1  206  [16]  C3 0C C5 09 A3 0C 57 E3 0D 0A DF 0C B7 0C 00 00
2025-08-09T23:50:31.448573,106.923,can1  206  [16]  C7 0C C7 09 AF 0C D7 E6 0D 0A C7 0C AF 0C 00 00
2025-08-09T23:50:31.775161,107.250,can1  206  [16]  B7 0C C7 09 B3 0C FA E4 0B 0A C7 0C BB 0C 00 00
2025-08-09T23:50:31.790968,107.266,can1  206  [16]  C7 0C C7 09 A7 0C F4 E3 12 0A CF 0C AF 0C 00 00
2025-08-09T23:50:31.790968,107.266,"can1  204  [04]  85 80 01 00
  can1  206  [16]  C7 0C C7 09 B7 0C 7E E4 10 0A CB 0C AB 0C 00 00"
2025-08-09T23:50:32.109106,107.584,can1  206  [16]  B7 0C C7 09 A7 0C F4 E3 10 0A CB 0C BF 0C 00 00
2025-08-09T23:50:32.109106,107.584,can1  206  [16]  BB 0C C5 09 A7 0C 57 E3 0B 0A CB 0C B7 0C 00 00
2025-08-09T23:50:32.425349,107.900,can1  206  [16]  C7 0C C5 09 B3 0C 7E E4 10 0A AF 0C AF 0C 00 00
2025-08-09T23:50:32.425349,107.900,can1  206  [16]  C3 0C C5 09 A7 0C F4 E3 14 0A C3 0C B3 0C 00 00
2025-08-09T23:50:32.425349,107.900,can1  206  [16]  C7 0C C5 09 9F 0C 7E E4 10 0A BF 0C B7 0C 00 00
2025-08-09T23:50:32.760226,108.235,can1  206  [16]  C7 0C C5 09 AB 0C 7E E4 10 0A C3 0C B3 0C 00 00
2025-08-09T23:50:32.760226,108.235,"can1  204  [04]  9E 33 01 00
  can1  206  [16]  BF 0C C5 09 A7 0C F4 E3 10 0A C3 0C B7 0C 00 00"
2025-08-09T23:50:33.092837,108.567,can1  206  [16]  BB 0C C7 09 AF 0C 69 E5 10 0A CB 0C B7 0C 00 00
2025-08-09T23:50:33.092837,108.567,can1  206  [16]  BF 0C C5 09 B3 0C FA E4 0D 0A CB 0C B3 0C 00 00
2025-08-09T23:50:33.417606,108.892,"can1  206  [16]  BB 0C C5 09 AB 0C FA E4 10 0A C7 0C BB 0C 00 00
  can1  206  [16]  D3 0C C5 09 9B 0C FA E4 0D 0A CB 0C B3 0C 00 00"
2025-08-09T23:50:33.752859,109.227,can1  206  [16]  CB 0C C7 09 A7 0C 57 E3 0D 0A CB 0C AB 0C 00 00
2025-08-09T23:50:33.752859,109.227,can1  206  [16]  CB 0C C5 09 AB 0C 7E E4 0D 0A C7 0C AF 0C 00 00
2025-08-09T23:50:33.752859,109.227,can1  206  [16]  C7 0C C7 09 A7 0C 69 E5 0D 0A CB 0C B3 0C 00 00
2025-08-09T23:50:33.752859,109.227,can1  204  [04]  56 E5 00 00
2025-08-09T23:50:34.066820,109.541,can1  206  [16]  C3 0C C7 09 AF 0C FA E4 10 0A D3 0C B3 0C 00 00
2025-08-09T23:50:34.066820,109.541,can1  206  [16]  BF 0C C2 09 A7 0C 57 E3 12 0A D3 0C BF 0C 00 00
2025-08-09T23:50:34.402146,109.877,can1  206  [16]  C7 0C C7 09 B7 0C FA E4 10 0A C3 0C B7 0C 00 00
2025-08-09T23:50:34.404160,109.879,can1  206  [16]  CB 0C C7 09 AB 0C 57 E3 10 0A D3 0C BB 0C 00 00
2025-08-09T23:50:34.404160,109.879,can1  206  [16]  CB 0C C7 09 AF 0C B1 E0 09 0A D3 0C BB 0C 00 00
2025-08-09T23:50:34.735371,110.210,can1  206  [16]  BB 0C C5 09 B7 0C FA E4 10 0A D3 0C C3 0C 00 00
2025-08-09T23:50:34.735371,110.210,can1  206  [16]  CB 0C C5 09 AB 0C 2E E6 0D 0A D3 0C BB 0C 00 00
2025-08-09T23:50:34.735371,110.210,"can1  204  [04]  27 B1 00 00
  can1  206  [16]  C3 0C C2 09 BB 0C F4 E3 10 0A DB 0C C3 0C 00 00"
2025-08-09T23:50:35.068273,110.543,can1  206  [16]  CB 0C C5 09 B7 0C 69 E5 0D 0A DB 0C BF 0C 00 00
2025-08-09T23:50:35.068273,110.543,can1  206  [16]  C7 0C C7 09 B7 0C 7E E4 10 0A E4 0C BF 0C 00 00
2025-08-09T23:50:35.401001,110.876,can1  206  [16]  CB 0C C7 09 B3 0C FA E4 10 0A D7 0C C3 0C 00 00
2025-08-09T23:50:35.403032,110.878,can1  206  [16]  C3 0C C7 09 B7 0C 69 E5 0B 0A DF 0C C3 0C 00 00
2025-08-09T23:50:35.734791,111.209,can1  206  [16]  CB 0C C7 09 CF 0C FA E4 10 0A C7 0C BF 0C 00 00
2025-08-09T23:50:35.735794,111.210,can1  206  [16]  C7 0C C9 09 B3 0C F4 E3 0D 0A E3 0C C7 0C 00 00
2025-08-09T23:50:36.056031,111.531,"can1  204  [04]  27 B1 00 00
  can1  206  [16]  C7 0C C5 09 B7 0C 7E E4 10 0A DB 0C C3 0C 00 00"
2025-08-09T23:50:36.056031,111.531,can1  206  [16]  C7 0C C7 09 B3 0C 69 E5 12 0A E4 0C C3 0C 00 00
2025-08-09T23:50:36.057058,111.532,can1  206  [16]  CB 0C C7 09 AF 0C F4 E3 09 0A DF 0C C3 0C 00 00
2025-08-09T23:50:36.501719,111.976,can1  206  [16]  CB 0C C2 09 B7 0C 7E E4 12 0A DB 0C BF 0C 00 00
2025-08-09T23:50:36.503410,111.978,can1  206  [16]  BF 0C C7 09 B7 0C 69 E5 12 0A DB 0C C7 0C 00 00
2025-08-09T23:50:36.503410,111.978,can1  206  [16]  C3 0C C7 09 AF 0C F4 E3 0D 0A E4 0C C7 0C 00 00
2025-08-09T23:50:36.820881,112.296,can1  206  [16]  C3 0C C5 09 B7 0C 7E E4 0B 0A DB 0C C7 0C 00 00
2025-08-09T23:50:36.820881,112.296,can1  204  [04]  27 B1 00 00
2025-08-09T23:50:36.820881,112.296,can1  206  [16]  BF 0C C5 09 BB 0C FA E4 0B 0A DF 0C C7 0C 00 00
2025-08-09T23:50:37.152053,112.627,can1  206  [16]  C7 0C D0 09 B3 0C 7E E4 0D 0A DF 0C C3 0C 00 00
2025-08-09T23:50:37.152053,112.627,can1  206  [16]  C7 0C C5 09 B7 0C FA E4 0D 0A CB 0C C3 0C 00 00
2025-08-09T23:50:37.152053,112.627,can1  206  [16]  CB 0C D0 09 AF 0C FA E4 0B 0A CF 0C C3 0C 00 00
2025-08-09T23:50:37.493748,112.968,can1  206  [16]  D3 0C C5 09 B7 0C FA E4 09 0A CF 0C BF 0C 00 00
2025-08-09T23:50:37.493748,112.968,can1  206  [16]  C7 0C C5 09 BB 0C FA E4 10 0A CF 0C C7 0C 00 00
2025-08-09T23:50:37.810567,113.285,can1  206  [16]  C7 0C C9 09 AF 0C 7E E4 10 0A D7 0C C7 0C 00 00
2025-08-09T23:50:37.814567,113.289,"can1  206  [16]  CB 0C C5 09 B7 0C 7E E4 0D 0A DB 0C BF 0C 00 00
  can1  204  [04]  27 B1 00 00"
2025-08-09T23:50:37.814567,113.289,can1  206  [16]  C7 0C C7 09 B7 0C FA E4 12 0A E3 0C C3 0C 00 00
2025-08-09T23:50:38.135192,113.610,can1  206  [16]  C7 0C C5 09 BB 0C 7E E4 12 0A DF 0C C3 0C 00 00
2025-08-09T23:50:38.136190,113.611,can1  206  [16]  C7 0C C7 09 B7 0C 69 E5 0D 0A DF 0C C3 0C 00 00
2025-08-09T23:50:38.463645,113.938,can1  206  [16]  CB 0C C7 09 B7 0C FA E4 0D 0A D7 0C BF 0C 00 00
2025-08-09T23:50:38.463645,113.938,can1  206  [16]  C3 0C C9 09 B7 0C 69 E5 0B 0A DB 0C C7 0C 00 00
2025-08-09T23:50:38.464846,113.939,can1  206  [16]  C7 0C C5 09 BB 0C D0 E5 10 0A DB 0C C3 0C 00 00
2025-08-09T23:50:38.791382,114.266,can1  001  [05]  58 0F 02 00 80
2025-08-09T23:50:38.791382,114.266,"can1  206  [16]  AF 0C B5 09 AF 0C 69 E5 14 0A C7 0C B3 0C 00 00
  can1  204  [04]  27 B1 00 00"
2025-08-09T23:50:38.791382,114.266,can1  206  [16]  C7 0C C7 09 AB 0C 57 E3 0D 0A CB 0C B3 0C 00 00
2025-08-09T23:50:39.123600,114.598,can1  206  [16]  BF 0C C5 09 A7 0C FA E4 10 0A C7 0C B7 0C 00 00
2025-08-09T23:50:39.123600,114.598,can1  206  [16]  CB 0C C7 09 A3 0C 69 E5 0D 0A CF 0C AF 0C 00 00
2025-08-09T23:50:39.449939,114.925,can1  206  [16]  C3 0C C5 09 9F 0C FA E4 10 0A D3 0C B7 0C 00 00
2025-08-09T23:50:39.449939,114.925,can1  206  [16]  C3 0C C5 09 A7 0C FA E4 10 0A E8 0C B3 0C 00 00
2025-08-09T23:50:39.772379,115.247,can1  206  [16]  B7 0C C7 09 A7 0C FA E4 0D 0A CF 0C BF 0C 00 00
2025-08-09T23:50:39.773822,115.248,can1  206  [16]  B7 0C C7 09 AF 0C 69 E5 12 0A BF 0C BB 0C 00 00
2025-08-09T23:50:39.779851,115.254,can1  204  [04]  72 F4 00 00
2025-08-09T23:50:39.780844,115.255,can1  206  [16]  B3 0C C5 09 A7 0C 69 E5 10 0A C7 0C C3 0C 00 00
2025-08-09T23:50:40.104374,115.579,can1  206  [16]  BB 0C C5 09 A7 0C 69 E5 0D 0A CB 0C B7 0C 00 00
2025-08-09T23:50:40.104374,115.579,can1  206  [16]  BF 0C C5 09 AB 0C F4 E3 10 0A C3 0C B7 0C 00 00
2025-08-09T23:50:40.436157,115.911,can1  206  [16]  BF 0C C2 09 A7 0C 7E E4 10 0A CB 0C B7 0C 00 00
2025-08-09T23:50:40.439201,115.914,can1  206  [16]  BF 0C CB 09 A7 0C FA E4 0B 0A CB 0C B3 0C 00 00
2025-08-09T23:50:40.439201,115.914,can1  206  [16]  C7 0C C7 09 AB 0C D0 E5 10 0A C3 0C B3 0C 00 00
2025-08-09T23:50:40.757174,116.232,can1  206  [16]  C3 0C C2 09 A7 0C 57 E3 0B 0A C3 0C B7 0C 00 00
2025-08-09T23:50:40.762174,116.237,"can1  206  [16]  CB 0C C5 09 A3 0C FA E4 0D 0A C7 0C B3 0C 00 00
  can1  204  [04]  DB 3B 01 00"
2025-08-09T23:50:41.094771,116.569,can1  206  [16]  C7 0C C5 09 AB 0C 69 E5 10 0A C3 0C AF 0C 00 00
2025-08-09T23:50:41.094771,116.569,can1  206  [16]  C7 0C C5 09 93 0C F4 E3 0D 0A D3 0C B3 0C 00 00
2025-08-09T23:50:41.094771,116.569,can1  206  [16]  BB 0C C7 09 AB 0C FA E4 10 0A CB 0C BB 0C 00 00
2025-08-09T23:50:41.414402,116.889,can1  206  [16]  BB 0C DF 09 AB 0C FA E4 10 0A C7 0C BF 0C 00 00
2025-08-09T23:50:41.414402,116.889,can1  206  [16]  C3 0C C5 09 AB 0C F4 E3 12 0A CB 0C B3 0C 00 00
2025-08-09T23:50:41.748300,117.223,can1  206  [16]  C3 0C C5 09 A7 0C F4 E3 10 0A C3 0C B3 0C 00 00
2025-08-09T23:50:41.749385,117.224,"can1  206  [16]  C7 0C C5 09 B7 0C FA E4 10 0A B3 0C AF 0C 00 00
  can1  204  [04]  03 86 01 00"
2025-08-09T23:50:42.079786,117.554,can1  206  [16]  BF 0C C5 09 B3 0C FA E4 0B 0A BB 0C B7 0C 00 00
2025-08-09T23:50:42.087421,117.562,can1  206  [16]  C7 0C C7 09 AB 0C FA E4 10 0A CB 0C B3 0C 00 00
2025-08-09T23:50:42.087421,117.562,can1  206  [16]  C7 0C C0 09 AB 0C FA E4 0D 0A BB 0C B3 0C 00 00
2025-08-09T23:50:42.412592,117.887,can1  206  [16]  C3 0C C5 09 A7 0C 69 E5 0D 0A D3 0C B3 0C 00 00
2025-08-09T23:50:42.412592,117.887,can1  206  [16]  C7 0C BE 09 AB 0C FA E4 10 0A B7 0C AF 0C 00 00
2025-08-09T23:50:42.747001,118.222,can1  206  [16]  CB 0C C7 09 AB 0C FA E4 10 0A B7 0C B3 0C 00 00
2025-08-09T23:50:42.747001,118.222,can1  206  [16]  C7 0C C7 09 A3 0C FA E4 0D 0A C7 0C B3 0C 00 00
2025-08-09T23:50:42.747001,118.222,"can1  204  [04]  2C D0 01 00
  can1  206  [16]  C3 0C C7 09 A3 0C 69 E5 12 0A C3 0C B3 0C 00 00"
2025-08-09T23:50:43.078190,118.553,can1  206  [16]  C3 0C C5 09 AB 0C F4 E3 09 0A CB 0C B3 0C 00 00
2025-08-09T23:50:43.078190,118.553,can1  206  [16]  BF 0C C7 09 AB 0C FA E4 10 0A C3 0C B3 0C 00 00
2025-08-09T23:50:43.396721,118.871,can1  206  [16]  BF 0C C5 09 AB 0C D0 E5 10 0A C7 0C BB 0C 00 00
2025-08-09T23:50:43.396721,118.871,can1  206  [16]  BF 0C C5 09 BB 0C F4 E3 0D 0A BF 0C BB 0C 00 00
2025-08-09T23:50:43.396721,118.871,can1  206  [16]  C3 0C C7 09 AF 0C FA E4 12 0A D3 0C BF 0C 00 00
2025-08-09T23:50:43.722966,119.198,can1  206  [16]  CB 0C C2 09 B3 0C FA E4 0D 0A CB 0C BB 0C 00 00
2025-08-09T23:50:43.733971,119.209,"can1  204  [04]  F8 0D 02 00
  can1  206  [16]  C7 0C C7 09 B7 0C 57 E3 10 0A EC 0C C3 0C 00 00"
2025-08-09T23:50:44.062266,119.537,can1  206  [16]  CB 0C C5 09 B3 0C FA E4 12 0A DF 0C BF 0C 00 00
2025-08-09T23:50:44.062266,119.537,can1  206  [16]  C3 0C C2 09 B7 0C 2E E6 0B 0A D7 0C C7 0C 00 00
2025-08-09T23:50:44.379593,119.854,can1  206  [16]  C7 0C C5 09 B7 0C FA E4 0B 0A EC 0C C3 0C 00 00
2025-08-09T23:50:44.379593,119.854,can1  206  [16]  C3 0C C5 09 B3 0C 69 E5 10 0A D7 0C C7 0C 00 00
2025-08-09T23:50:44.721066,120.196,can1  206  [16]  CB 0C C7 09 B7 0C FA E4 0D 0A D7 0C BF 0C 00 00
2025-08-09T23:50:44.751365,120.226,can1  206  [16]  BB 0C C5 09 BF 0C 69 E5 1F 0A DB 0C C7 0C 00 00
2025-08-09T23:50:44.753369,120.228,can1  206  [16]  D3 0C C5 09 AF 0C FA E4 10 0A DB 0C BF 0C 00 00
2025-08-09T23:50:44.755759,120.230,can1  204  [04]  F8 0D 02 00
2025-08-09T23:50:45.146127,120.621,can1  206  [16]  C3 0C C5 09 B7 0C F4 E3 26 0A D7 0C C7 0C 00 00
2025-08-09T23:50:45.146127,120.621,can1  206  [16]  CF 0C C0 09 B7 0C 7E E4 10 0A DF 0C B7 0C 00 00
2025-08-09T23:50:45.146127,120.621,can1  206  [16]  BB 0C C2 09 CF 0C 69 E5 0B 0A C7 0C CB 0C 00 00
2025-08-09T23:50:45.474918,120.950,can1  206  [16]  CB 0C C2 09 B3 0C FA E4 0D 0A E4 0C BF 0C 00 00
2025-08-09T23:50:45.475932,120.951,can1  206  [16]  BF 0C C5 09 B7 0C F4 E3 0D 0A DF 0C C7 0C 00 00
2025-08-09T23:50:45.802481,121.277,can1  206  [16]  CB 0C C7 09 BB 0C 7E E4 0D 0A D3 0C BF 0C 00 00
2025-08-09T23:50:45.803479,121.278,can1  206  [16]  C3 0C C2 09 BF 0C FA E4 10 0A D7 0C BF 0C 00 00
2025-08-09T23:50:45.803479,121.278,"can1  204  [04]  F8 0D 02 00
  can1  206  [16]  B7 0C C5 09 C7 0C 69 E5 14 0A DB 0C C7 0C 00 00"
2025-08-09T23:50:46.128318,121.603,can1  206  [16]  CB 0C C5 09 B3 0C 69 E5 0D 0A DB 0C BF 0C 00 00
2025-08-09T23:50:46.129319,121.604,can1  206  [16]  C7 0C C7 09 B7 0C 7E E4 12 0A DB 0C C3 0C 00 00
2025-08-09T23:50:46.458784,121.933,can1  206  [16]  CB 0C C5 09 B3 0C FA E4 10 0A E4 0C BF 0C 00 00
2025-08-09T23:50:46.458784,121.933,can1  206  [16]  CB 0C C5 09 B3 0C 85 E6 10 0A DF 0C BF 0C 00 00
2025-08-09T23:50:46.459787,121.934,can1  206  [16]  C3 0C C7 09 BB 0C FA E4 12 0A D7 0C C7 0C 00 00
2025-08-09T23:50:46.792627,122.267,can1  206  [16]  BF 0C C5 09 AF 0C FA E4 0D 0A DB 0C D3 0C 00 00
2025-08-09T23:50:46.793627,122.268,"can1  204  [04]  F8 0D 02 00
  can1  206  [16]  C7 0C C5 09 BB 0C 69 E5 10 0A DB 0C BF 0C 00 00"
2025-08-09T23:50:47.113429,122.588,can1  206  [16]  BF 0C BA 09 BB 0C F4 E3 10 0A DF 0C C7 0C 00 00
2025-08-09T23:50:47.114440,122.589,can1  206  [16]  BF 0C C5 09 B7 0C 69 E5 0B 0A DF 0C CB 0C 00 00
2025-08-09T23:50:47.454739,122.929,can1  206  [16]  CB 0C C7 09 B7 0C F4 E3 0B 0A DB 0C BF 0C 00 00
2025-08-09T23:50:47.467836,122.942,can1  206  [16]  C7 0C C2 09 AF 0C FA E4 12 0A DF 0C C7 0C 00 00
2025-08-09T23:50:47.469786,122.944,can1  206  [16]  BB 0C C7 09 BF 0C FA E4 12 0A D7 0C C7 0C 00 00
2025-08-09T23:50:47.784731,123.259,can1  206  [16]  CF 0C C5 09 B7 0C 2E E6 0D 0A DF 0C BB 0C 00 00
2025-08-09T23:50:47.784731,123.259,"can1  204  [04]  F8 0D 02 00
  can1  206  [16]  CF 0C C5 09 B3 0C FA E4 0D 0A E4 0C BB 0C 00 00"
2025-08-09T23:50:48.141268,123.616,"can1  206  [16]  CF 0C C5 09 B7 0C 7E E4 0D 0A D7 0C BB 0C 00 00
  can1  206  [16]  C7 0C C5 09 B7 0C 7E E4 10 0A DF 0C C3 0C 00 00"
2025-08-09T23:50:48.142267,123.617,can1  206  [16]  C7 0C B7 09 B7 0C 7E E4 0B 0A DF 0C C3 0C 00 00
2025-08-09T23:50:48.471140,123.946,can1  206  [16]  C7 0C C7 09 AB 0C FA E4 10 0A E8 0C C3 0C 00 00
2025-08-09T23:50:48.479000,123.954,can1  206  [16]  CF 0C C5 09 B3 0C FA E4 12 0A DF 0C BF 0C 00 00
2025-08-09T23:50:48.797010,124.272,can1  206  [16]  CF 0C C5 09 AF 0C DA DC 0D 0A DF 0C BF 0C 00 00
2025-08-09T23:50:48.798970,124.274,"can1  206  [16]  C7 0C C7 09 AF 0C 69 E5 0B 0A DF 0C CB 0C 00 00
  can1  204  [04]  F8 0D 02 00"
2025-08-09T23:50:48.825733,124.300,can1  206  [16]  CB 0C C5 09 B3 0C 69 E5 0D 0A DB 0C BF 0C 00 00
2025-08-09T23:50:49.124385,124.599,can1  206  [16]  CF 0C C5 09 B7 0C 69 E5 12 0A D7 0C BB 0C 00 00
2025-08-09T23:50:49.125383,124.600,can1  206  [16]  BB 0C C5 09 B7 0C 69 E5 0D 0A DF 0C CF 0C 00 00
2025-08-09T23:50:49.445616,124.920,can1  206  [16]  C7 0C C2 09 BB 0C FA E4 10 0A D7 0C C3 0C 00 00
2025-08-09T23:50:49.445616,124.920,can1  206  [16]  CB 0C CD 09 AF 0C 7E E4 0D 0A E8 0C BF 0C 00 00
2025-08-09T23:50:49.445616,124.920,can1  206  [16]  CF 0C C7 09 AF 0C F4 E3 0D 0A D7 0C C3 0C 00 00
2025-08-09T23:50:49.782048,125.257,"can1  206  [16]  CB 0C C2 09 BB 0C FA E4 0D 0A 0C 0D BF 0C 00 00
  can1  204  [04]  F8 0D 02 00"
2025-08-09T23:50:49.782048,125.257,can1  206  [16]  C3 0C C5 09 BB 0C FA E4 0D 0A E3 0C C3 0C 00 00
2025-08-09T23:50:50.103538,125.578,can1  206  [16]  CF 0C C2 09 B3 0C D0 E5 10 0A DB 0C BF 0C 00 00
2025-08-09T23:50:50.106560,125.581,can1  206  [16]  CB 0C C5 09 B3 0C FA E4 0D 0A E8 0C C3 0C 00 00
2025-08-09T23:50:50.437082,125.912,"can1  206  [16]  BF 0C C5 09 B7 0C FA E4 0D 0A DF 0C C7 0C 00 00
  can1  001  [05]  C8 AF 00 00 80"
2025-08-09T23:50:50.438085,125.913,can1  206  [16]  BF 0C C7 09 A7 0C FA E4 10 0A C7 0C AF 0C 00 00
2025-08-09T23:50:50.765008,126.240,can1  206  [16]  BF 0C C7 09 A7 0C FA E4 12 0A CB 0C B7 0C 00 00
2025-08-09T23:50:50.765008,126.240,can1  206  [16]  C3 0C C7 09 A7 0C 69 E5 0D 0A CF 0C B3 0C 00 00
2025-08-09T23:50:50.765008,126.240,"can1  204  [04]  BE FA 01 00
  can1  206  [16]  C7 0C C7 09 B3 0C FA E4 14 0A BB 0C AF 0C 00 00"
2025-08-09T23:50:51.080695,126.555,can1  206  [16]  CB 0C C5 09 A7 0C C5 E1 0D 0A AF 0C B3 0C 00 00
2025-08-09T23:50:51.082243,126.557,can1  206  [16]  B3 0C C2 09 B3 0C 7E E4 0B 0A C3 0C BF 0C 00 00
2025-08-09T23:50:51.410286,126.885,can1  206  [16]  CB 0C C9 09 9F 0C FA E4 0B 0A CB 0C B7 0C 00 00
2025-08-09T23:50:51.421285,126.896,can1  206  [16]  CB 0C C5 09 A3 0C F4 E3 0D 0A CF 0C AF 0C 00 00
2025-08-09T23:50:51.425287,126.900,can1  206  [16]  BF 0C BE 09 B3 0C FA E4 10 0A C3 0C B3 0C 00 00
2025-08-09T23:50:51.750807,127.225,can1  206  [16]  CB 0C C7 09 A7 0C 69 E5 12 0A CF 0C AB 0C 00 00
2025-08-09T23:50:51.753309,127.228,"can1  206  [16]  C3 0C C7 09 AF 0C FA E4 10 0A C3 0C B3 0C 00 00
  can1  204  [04]  F5 B1 01 00"
2025-08-09T23:50:52.067467,127.542,"can1  206  [16]  CF 0C C5 09 A7 0C FA E4 0D 0A C7 0C AB 0C 00 00
  can1  206  [16]  BF 0C C2 09 AF 0C 69 E5 10 0A C7 0C B3 0C 00 00"
2025-08-09T23:50:52.402493,127.877,can1  206  [16]  BF 0C C2 09 A7 0C F4 E3 0D 0A CF 0C B7 0C 00 00
2025-08-09T23:50:52.403727,127.878,can1  206  [16]  AF 0C C5 09 BF 0C D7 E6 10 0A C7 0C B3 0C 00 00
2025-08-09T23:50:52.404917,127.880,can1  206  [16]  BF 0C C5 09 A7 0C 7E E4 10 0A B7 0C BB 0C 00 00
2025-08-09T23:50:52.733309,128.208,can1  206  [16]  C7 0C C5 09 A7 0C D0 E5 0D 0A CB 0C AF 0C 00 00
2025-08-09T23:50:52.733309,128.208,can1  206  [16]  C3 0C C5 09 A3 0C 69 E5 10 0A CF 0C B3 0C 00 00
2025-08-09T23:50:52.733309,128.208,can1  204  [04]  CD 67 01 00
2025-08-09T23:50:53.052675,128.527,can1  206  [16]  C7 0C C5 09 A7 0C 99 C6 12 0A C7 0C B3 0C 00 00
2025-08-09T23:50:53.057781,128.532,can1  206  [16]  C3 0C C7 09 A3 0C F4 E3 12 0A C7 0C B7 0C 00 00
2025-08-09T23:50:53.063818,128.538,can1  206  [16]  C7 0C D2 09 AB 0C F4 E3 0D 0A C3 0C B3 0C 00 00
2025-08-09T23:50:53.383304,128.858,can1  206  [16]  56 0C C5 09 A7 0C FA E4 10 0A CF 0C 20 0D 00 00
2025-08-09T23:50:53.383304,128.858,can1  206  [16]  C3 0C C9 09 AB 0C B1 E0 10 0A DB 0C B3 0C 00 00
2025-08-09T23:50:53.716457,129.191,can1  206  [16]  C3 0C C5 09 AF 0C FA E4 10 0A BF 0C B3 0C 00 00
2025-08-09T23:50:53.716457,129.191,can1  206  [16]  BF 0C C5 09 AB 0C 57 E3 10 0A CB 0C B3 0C 00 00
2025-08-09T23:50:53.731155,129.206,"can1  204  [04]  26 18 01 00
  can1  206  [16]  BB 0C CD 09 A3 0C F4 E3 0B 0A CB 0C BF 0C 00 00"
2025-08-09T23:50:54.046932,129.522,can1  206  [16]  BF 0C C7 09 B3 0C FA E4 10 0A C3 0C AF 0C 00 00
2025-08-09T23:50:54.046932,129.522,can1  206  [16]  C3 0C C7 09 A7 0C 7E E4 10 0A C7 0C B7 0C 00 00
2025-08-09T23:50:54.364209,129.839,can1  206  [16]  C3 0C C5 09 A3 0C 7E E4 09 0A CB 0C B7 0C 00 00
2025-08-09T23:50:54.364209,129.839,can1  206  [16]  C7 0C C5 09 A7 0C 57 E3 0D 0A BF 0C AF 0C 00 00
2025-08-09T23:50:54.698985,130.174,can1  206  [16]  C3 0C C7 09 A7 0C F4 E3 0B 0A C7 0C B3 0C 00 00
2025-08-09T23:50:54.703678,130.178,can1  206  [16]  C3 0C C7 09 A7 0C 7E E4 10 0A D3 0C B3 0C 00 00
2025-08-09T23:50:55.029592,130.504,"can1  204  [04]  3F CB 00 00
  can1  206  [16]  CB 0C C5 09 A7 0C FA E4 10 0A D3 0C B7 0C 00 00"
2025-08-09T23:50:55.029592,130.504,"can1  206  [16]  CF 0C C2 09 AF 0C F4 E3 12 0A D3 0C AF 0C 00 00
  can1  206  [16]  CB 0C C7 09 AF 0C 69 E5 10 0A D7 0C BB 0C 00 00"
2025-08-09T23:50:55.347173,130.822,can1  206  [16]  BF 0C C2 09 AF 0C 7E E4 10 0A CF 0C C3 0C 00 00
2025-08-09T23:50:55.347173,130.822,can1  206  [16]  C7 0C C2 09 B3 0C FA E4 0D 0A D3 0C BB 0C 00 00
2025-08-09T23:50:55.347173,130.822,can1  206  [16]  CB 0C C5 09 B7 0C FA E4 0D 0A D7 0C BF 0C 00 00
2025-08-09T23:50:55.682316,131.157,can1  206  [16]  D3 0C C7 09 B3 0C 69 E5 0D 0A D7 0C BB 0C 00 00
2025-08-09T23:50:55.682316,131.157,can1  206  [16]  C7 0C C2 09 B7 0C F4 E3 10 0A D7 0C C3 0C 00 00
2025-08-09T23:50:56.016672,131.491,can1  204  [04]  27 B1 00 00
2025-08-09T23:50:56.016672,131.491,can1  206  [16]  CB 0C C5 09 B7 0C FA E4 0D 0A D7 0C BF 0C 00 00
2025-08-09T23:50:56.016672,131.491,can1  206  [16]  C7 0C C5 09 B7 0C FA E4 10 0A DF 0C C3 0C 00 00
2025-08-09T23:50:56.016672,131.491,can1  206  [16]  BF 0C C5 09 BF 0C FA E4 0D 0A DB 0C BF 0C 00 00
2025-08-09T23:50:56.342779,131.817,can1  206  [16]  97 0C C2 09 B3 0C FA E4 0B 0A DB 0C F8 0C 00 00
2025-08-09T23:50:56.342779,131.817,can1  206  [16]  CF 0C C5 09 B7 0C FA E4 10 0A D7 0C BB 0C 00 00
2025-08-09T23:50:56.660927,132.136,can1  206  [16]  C7 0C C7 09 B3 0C 7E E4 10 0A CB 0C C3 0C 00 00
2025-08-09T23:50:56.660927,132.136,"can1  206  [16]  CF 0C C7 09 BF 0C 7E E4 0D 0A D3 0C BB 0C 00 00
  can1  204  [04]  27 B1 00 00"
2025-08-09T23:50:56.993778,132.468,can1  206  [16]  C3 0C C5 09 B7 0C FA E4 0B 0A D7 0C C7 0C 00 00
2025-08-09T23:50:57.007983,132.483,can1  206  [16]  CB 0C C5 09 B3 0C 57 E3 0D 0A E4 0C BF 0C 00 00
2025-08-09T23:50:57.325118,132.800,can1  206  [16]  C3 0C C7 09 AB 0C FA E4 10 0A E8 0C C7 0C 00 00
2025-08-09T23:50:57.325118,132.800,can1  206  [16]  C7 0C C9 09 B7 0C 69 E5 10 0A DB 0C C3 0C 00 00
2025-08-09T23:50:57.330929,132.806,can1  206  [16]  BF 0C D2 09 B3 0C F4 E3 12 0A E4 0C CB 0C 00 00
2025-08-09T23:50:57.644616,133.119,can1  206  [16]  C7 0C C0 09 B3 0C 85 E6 0D 0A DB 0C C7 0C 00 00
2025-08-09T23:50:57.645895,133.121,can1  206  [16]  D3 0C C5 09 B7 0C F4 E3 0D 0A D7 0C BB 0C 00 00
2025-08-09T23:50:57.645895,133.121,can1  204  [04]  27 B1 00 00
2025-08-09T23:50:57.987460,133.462,can1  206  [16]  CB 0C C5 09 BB 0C FA E4 0B 0A D3 0C BF 0C 00 00
2025-08-09T23:50:57.991024,133.466,"can1  206  [16]  CB 0C C5 09 B7 0C 24 E7 0D 0A DB 0C BF 0C 00 00
