Timestamp,Elapsed_Time_s,CAN_Message
2025-08-08T21:55:26.254368,3.410,can1  206  [16]  E3 64 62 1C 28 63 45 1B B5 18 5A 68 53 60 00 00
2025-08-08T21:55:26.254368,3.410,"can1  206  [16]  BB 64 7B 1C 50 63 40 1B C3 18 5A 68 CC 60 00 00
  can1  206  [16]  1A 64 87 1C A1 63 40 1B A7 18 82 68 A3 60 00 00"
2025-08-08T21:55:26.576752,3.734,"can1  206  [16]  1A 64 87 1C A1 63 3A 1B AC 18 AA 68 1C 61 00 00
  can1  206  [16]  F2 63 94 1C C9 63 34 1B B5 18 D3 68 45 61 00 00"
2025-08-08T21:55:26.578149,3.734,"can1  206  [16]  A1 63 94 1C 42 64 4B 1B BF 18 D3 68 45 61 00 00
  can1  206  [16]  79 63 9A 1C 6A 64 45 1B C3 18 FB 68 45 61 00 00"
2025-08-08T21:55:26.579148,3.735,"can1  206  [16]  00 63 9A 1C BB 64 40 1B CD 18 23 69 BD 61 00 00
  can1  206  [16]  6A 64 6E 1C A1 63 34 1B 9E 18 FB 68 6D 61 00 00"
2025-08-08T21:55:26.611527,3.767,"can1  206  [16]  A1 63 81 1C C9 63 29 1B B5 18 82 68 95 61 00 00
  can1  206  [16]  79 63 8E 1C F2 63 29 1B B5 18 5A 68 45 61 00 00"
2025-08-08T21:55:26.910210,4.066,"can1  206  [16]  79 63 8E 1C 42 64 1E 1B C3 18 D3 68 45 61 00 00
  can1  206  [16]  D8 62 9A 1C 6A 64 29 1B CD 18 FB 68 6D 61 00 00
  can1  206  [16]  D8 62 9A 1C 93 64 29 1B CD 18 23 69 45 61 00 00"
2025-08-08T21:55:26.910772,4.066,"can1  206  [16]  5F 62 9A 1C 4E 66 2F 1B D2 18 74 69 6D 61 00 00
  can1  206  [16]  E6 61 94 1C C7 66 40 1B D6 18 C4 69 45 61 00 00"
2025-08-08T21:55:26.939917,4.095,can1  206  [16]  BD 61 8E 1C EF 66 40 1B D6 18 66 6A 45 61 00 00
2025-08-08T21:55:27.241337,4.397,"can1  206  [16]  BD 61 8E 1C EF 66 40 1B D2 18 8E 6A F4 60 00 00
  can1  206  [16]  45 61 68 1C 76 66 9C 1B BF 18 07 6B B2 5F 00 00"
2025-08-08T21:55:27.241337,4.397,"can1  206  [16]  45 61 E8 1B 42 64 00 1C 78 18 4C 69 CE 5D 00 00
  can1  206  [16]  AF 62 D7 1B C9 63 E8 1B 5D 18 FB 68 CE 5D 00 00
  can1  206  [16]  00 63 D7 1B F2 63 E8 1B 58 18 D3 68 1F 5E 00 00"
2025-08-08T21:55:27.241337,4.397,"can1  206  [16]  50 63 E8 1B C9 63 EE 1B 58 18 82 68 1F 5E 00 00
  can1  206  [16]  A1 63 E3 1B 79 63 EE 1B 54 18 31 68 F6 5D 00 00"
2025-08-08T21:55:27.558360,4.714,"can1  206  [16]  C9 63 E3 1B 79 63 EE 1B 58 18 E1 67 F6 5D 00 00
  can1  206  [16]  C9 63 FA 1B 79 63 E8 1B 5D 18 90 67 47 5E 00 00"
2025-08-08T21:55:27.561261,4.717,"can1  206  [16]  1A 64 06 1C 79 63 EE 1B 5D 18 17 67 6F 5E 00 00
  can1  206  [16]  1A 64 FA 1B 50 63 CB 1B 61 18 C7 66 98 5E 00 00"
2025-08-08T21:55:27.561261,4.717,"can1  206  [16]  6A 64 00 1C 79 63 D1 1B 66 18 76 66 10 5F 00 00
  can1  206  [16]  42 64 00 1C A1 63 CB 1B 6F 18 D5 65 10 5F 00 00"
2025-08-08T21:55:27.893710,5.049,"can1  206  [16]  1A 64 06 1C 79 63 CB 1B 74 18 9F 66 10 5F 00 00
  can1  206  [16]  1A 64 13 1C A1 63 B9 1B 74 18 C7 66 E8 5E 00 00"
2025-08-08T21:55:27.894798,5.050,"can1  206  [16]  F2 63 1F 1C F2 63 AD 1B 74 18 9F 66 E8 5E 00 00
  can1  206  [16]  C9 63 2B 1C C9 63 9C 1B 78 18 17 67 39 5F 00 00"
2025-08-08T21:55:27.894798,5.050,"can1  206  [16]  F2 63 3D 1C 1A 64 84 1B 7D 18 17 67 89 5F 00 00
  can1  206  [16]  F2 63 43 1C F2 63 6D 1B 86 18 17 67 89 5F 00 00"
2025-08-08T21:55:28.225607,5.381,"can1  206  [16]  F2 63 50 1C 1A 64 68 1B 86 18 EF 66 02 60 00 00
  can1  206  [16]  C9 63 62 1C 42 64 79 1B 90 18 68 67 2B 60 00 00"
2025-08-08T21:55:28.225607,5.381,"can1  206  [16]  A1 63 7B 1C 93 64 79 1B 94 18 E1 67 53 60 00 00
  can1  206  [16]  79 63 87 1C BB 64 6D 1B 99 18 E1 67 7B 60 00 00"
2025-08-08T21:55:28.225607,5.381,"can1  206  [16]  50 63 87 1C E3 64 5C 1B A7 18 09 68 CC 60 00 00
  can1  206  [16]  28 63 8E 1C D5 65 5C 1B B5 18 31 68 F4 60 00 00"
2025-08-08T21:55:28.225607,5.381,"can1  206  [16]  D8 62 94 1C FD 65 5C 1B BF 18 5A 68 7B 60 00 00
  can1  206  [16]  D8 62 94 1C 4E 66 4B 1B C3 18 31 68 2B 60 00 00"
2025-08-08T21:55:28.557973,5.713,"can1  206  [16]  AF 62 94 1C 9F 66 56 1B C8 18 82 68 53 60 00 00
  can1  206  [16]  87 62 9A 1C 76 66 68 1B CD 18 D3 68 7B 60 00 00"
2025-08-08T21:55:28.557973,5.713,"can1  206  [16]  0E 62 9A 1C 9F 66 73 1B D2 18 23 69 53 60 00 00
  can1  206  [16]  0E 62 94 1C 76 66 79 1B D6 18 9C 69 02 60 00 00"
2025-08-08T21:55:28.568782,5.724,"can1  206  [16]  D8 62 87 1C 9F 66 79 1B D6 18 ED 69 DA 5F 00 00
  can1  206  [16]  28 63 87 1C C7 66 96 1B D2 18 8E 6A 02 60 00 00"
2025-08-08T21:55:28.877273,6.033,"can1  206  [16]  A1 63 81 1C EF 66 9C 1B CD 18 8E 6A B2 5F 00 00
  can1  206  [16]  D8 62 75 1C 9F 66 A2 1B C8 18 8E 6A 89 5F 00 00"
2025-08-08T21:55:28.879287,6.035,"can1  206  [16]  F2 63 75 1C C7 66 9C 1B C3 18 B6 6A 02 60 00 00
  can1  206  [16]  D8 62 6E 1C EF 66 79 1B C3 18 66 6A 2B 60 00 00"
2025-08-08T21:55:28.879287,6.035,"can1  206  [16]  D8 62 6E 1C EF 66 68 1B BA 18 66 6A DA 5F 00 00
  can1  206  [16]  00 63 5C 1C 9F 66 6D 1B B5 18 DE 6A 89 5F 00 00"
2025-08-08T21:55:29.209635,6.365,"can1  206  [16]  6A 64 56 1C C7 66 90 1B B0 18 DE 6A 89 5F 00 00
  can1  206  [16]  00 63 49 1C D5 65 9C 1B AC 18 DE 6A 39 5F 00 00"
2025-08-08T21:55:29.209635,6.365,"can1  206  [16]  6A 64 43 1C 93 64 AD 1B A7 18 DE 6A 10 5F 00 00
  can1  206  [16]  93 64 37 1C 93 64 B9 1B A2 18 8E 6A 10 5F 00 00"
2025-08-08T21:55:29.211652,6.367,"can1  206  [16]  A1 63 19 1C BB 64 BF 1B A2 18 66 6A 6F 5E 00 00
  can1  206  [16]  93 64 06 1C 93 64 C5 1B 99 18 3D 6A 6F 5E 00 00"
2025-08-08T21:55:29.216243,6.372,"can1  206  [16]  C9 63 FA 1B 6A 64 D7 1B 90 18 ED 69 6F 5E 00 00
  can1  206  [16]  42 64 E3 1B 42 64 DD 1B 86 18 3D 6A 6F 5E 00 00"
2025-08-08T21:55:29.540991,6.696,"can1  206  [16]  C9 63 E3 1B 1A 64 EE 1B 7D 18 15 6A 1F 5E 00 00
  can1  206  [16]  F2 63 DD 1B C9 63 E8 1B 74 18 9C 69 A6 5D 00 00"
2025-08-08T21:55:29.540991,6.696,"can1  206  [16]  42 64 D7 1B 50 63 E3 1B 6F 18 74 69 7E 5D 00 00
  can1  206  [16]  1A 64 E3 1B 00 63 E8 1B 6B 18 4C 69 7E 5D 00 00"
2025-08-08T21:55:29.540991,6.696,"can1  206  [16]  0C 65 E3 1B 00 63 E3 1B 61 18 FB 68 05 5D 00 00
  can1  206  [16]  93 64 DD 1B D8 62 DD 1B 5D 18 5A 68 DC 5C 00 00"
2025-08-08T21:55:29.859096,7.015,"can1  206  [16]  0C 65 E3 1B 87 62 F4 1B 5D 18 31 68 DC 5C 00 00
  can1  206  [16]  26 66 E8 1B 36 62 E8 1B 54 18 B9 67 7E 5D 00 00"
2025-08-08T21:55:29.859096,7.015,"can1  206  [16]  FD 65 E8 1B E6 61 E3 1B 5D 18 B9 67 CE 5D 00 00
  can1  206  [16]  FD 65 FA 1B 95 61 B9 1B 7D 18 26 66 E8 5E 00 00"
2025-08-08T21:55:29.865507,7.021,"can1  206  [16]  FD 65 5C 1C 36 62 7F 1B 86 18 EF 66 B2 5F 00 00
  can1  206  [16]  26 66 5C 1C AF 62 62 1B 82 18 C7 66 DA 5F 00 00"
2025-08-08T21:55:30.190991,7.346,"can1  206  [16]  D5 65 56 1C D8 62 56 1B 8B 18 EF 66 53 60 00 00
  can1  206  [16]  FD 65 75 1C 00 63 4B 1B 8B 18 40 67 A3 60 00 00"
2025-08-08T21:55:30.190991,7.346,"can1  206  [16]  BB 64 7B 1C 28 63 4B 1B 9E 18 68 67 45 61 00 00
  can1  206  [16]  C7 66 81 1C 28 63 40 1B A7 18 B9 67 CC 60 00 00"
2025-08-08T21:55:30.190991,7.346,"can1  206  [16]  C7 66 8E 1C 79 63 40 1B B0 18 09 68 1C 61 00 00
  can1  206  [16]  26 66 94 1C C9 63 34 1B B5 18 5A 68 45 61 00 00"
2025-08-08T21:55:30.527750,7.683,"can1  206  [16]  FD 65 9A 1C 1A 64 34 1B C3 18 82 68 95 61 00 00
  can1  206  [16]  D5 65 9A 1C 1A 64 45 1B CD 18 82 68 F4 60 00 00"
2025-08-08T21:55:30.531824,7.687,"can1  206  [16]  0C 65 A7 1C 6A 64 4B 1B D6 18 D3 68 CC 60 00 00
  can1  206  [16]  BB 64 9A 1C 93 64 56 1B D6 18 23 69 2B 60 00 00"
2025-08-08T21:55:30.531824,7.687,"can1  206  [16]  6A 64 87 1C D5 65 56 1B D6 18 9C 69 02 60 00 00
  can1  206  [16]  1A 64 8E 1C FD 65 62 1B D6 18 9C 69 53 60 00 00"
2025-08-08T21:55:30.531824,7.687,"can1  206  [16]  1A 64 8E 1C FD 65 68 1B D6 18 74 69 02 60 00 00
  can1  206  [16]  F2 63 87 1C 26 66 68 1B C8 18 74 69 DA 5F 00 00"
2025-08-08T21:55:30.859318,8.015,"can1  206  [16]  A1 63 81 1C 4E 66 62 1B CD 18 74 69 02 60 00 00
  can1  206  [16]  50 63 7B 1C 26 66 62 1B C8 18 ED 69 02 60 00 00"
2025-08-08T21:55:30.859318,8.015,"can1  206  [16]  50 63 68 1C FD 65 68 1B BF 18 15 6A DA 5F 00 00
  can1  206  [16]  A1 63 62 1C D5 65 73 1B BF 18 66 6A B2 5F 00 00"
2025-08-08T21:55:30.859318,8.015,"can1  206  [16]  6A 64 5C 1C 0C 65 8A 1B B5 18 8E 6A DA 5F 00 00
  can1  206  [16]  D5 65 50 1C E3 64 8A 1B B5 18 8E 6A B2 5F 00 00"
2025-08-08T21:55:31.192563,8.348,"can1  206  [16]  93 64 49 1C E3 64 8A 1B B0 18 B6 6A 2B 60 00 00
  can1  206  [16]  1A 64 43 1C BB 64 9C 1B AC 18 8E 6A 02 60 00 00"
2025-08-08T21:55:31.192563,8.348,"can1  206  [16]  6A 64 31 1C 93 64 B9 1B A7 18 8E 6A E8 5E 00 00
  can1  206  [16]  93 64 1F 1C 93 64 C5 1B A7 18 ED 69 C0 5E 00 00"
2025-08-08T21:55:31.192563,8.348,"can1  206  [16]  6A 64 0C 1C E3 64 D7 1B 9E 18 15 6A E8 5E 00 00
  can1  206  [16]  FD 65 06 1C D5 65 EE 1B 94 18 9C 69 98 5E 00 00"
2025-08-08T21:55:31.525709,8.681,"can1  206  [16]  6A 64 FA 1B E3 64 06 1C 86 18 74 69 6F 5E 00 00
  can1  206  [16]  6A 64 F4 1B BB 64 00 1C 86 18 9C 69 47 5E 00 00"
2025-08-08T21:55:31.525709,8.681,can1  206  [16]  93 64 E3 1B 93 64 E8 1B 78 18 4C 69 CE 5D 00 00
2025-08-08T21:55:31.525709,8.681,"can1  206  [16]  0C 65 DD 1B 6A 64 E3 1B 6F 18 23 69 A6 5D 00 00
  can1  206  [16]  BB 64 D7 1B 6A 64 E3 1B 6F 18 FB 68 CE 5D 00 00"
2025-08-08T21:55:31.525709,8.681,"can1  206  [16]  93 64 DD 1B F2 63 DD 1B 66 18 FB 68 CE 5D 00 00
  can1  206  [16]  0C 65 CB 1B A1 63 D7 1B 66 18 FB 68 7E 5D 00 00"
2025-08-08T21:55:31.843478,8.999,"can1  206  [16]  FD 65 E3 1B D8 62 D1 1B 5D 18 31 68 7E 5D 00 00
  can1  206  [16]  4E 66 E8 1B D8 62 CB 1B 61 18 E1 67 55 5D 00 00
  can1  206  [16]  9F 66 EE 1B AF 62 CB 1B 5D 18 B9 67 CE 5D 00 00"
2025-08-08T21:55:31.843478,8.999,can1  206  [16]  9F 66 EE 1B AF 62 C5 1B 5D 18 40 67 1F 5E 00 00
2025-08-08T21:55:31.843478,8.999,"can1  206  [16]  B9 67 FA 1B 5F 62 BF 1B 58 18 17 67 1F 5E 00 00
  can1  206  [16]  68 67 EE 1B D8 62 B9 1B 5D 18 EF 66 47 5E 00 00"
2025-08-08T21:55:32.175139,9.331,"can1  206  [16]  B9 67 00 1C D8 62 B9 1B 61 18 C7 66 47 5E 00 00
  can1  206  [16]  09 68 06 1C D8 62 A7 1B 6B 18 76 66 6F 5E 00 00
  can1  206  [16]  40 67 06 1C 00 63 96 1B 74 18 76 66 6F 5E 00 00"
2025-08-08T21:55:32.175139,9.331,"can1  206  [16]  4E 66 0C 1C 79 63 7F 1B 78 18 C7 66 6F 5E 00 00
  can1  206  [16]  FD 65 1F 1C 79 63 73 1B 74 18 9F 66 98 5E 00 00"
2025-08-08T21:55:32.175139,9.331,"can1  206  [16]  76 66 31 1C 79 63 96 1B 78 18 76 66 98 5E 00 00
  can1  206  [16]  FD 65 3D 1C C9 63 90 1B 78 18 17 67 98 5E 00 00"
2025-08-08T21:55:32.511822,9.667,"can1  206  [16]  76 66 5C 1C C9 63 84 1B 7D 18 40 67 C0 5E 00 00
  can1  206  [16]  40 67 62 1C F2 63 79 1B 8B 18 40 67 10 5F 00 00"
2025-08-08T21:55:32.511822,9.667,"can1  206  [16]  68 67 75 1C F2 63 73 1B 90 18 68 67 61 5F 00 00
  can1  206  [16]  EF 66 94 1C 1A 64 68 1B 99 18 90 67 B2 5F 00 00"
2025-08-08T21:55:32.513957,9.669,"can1  206  [16]  EF 66 9A 1C 1A 64 6D 1B A7 18 E1 67 02 60 00 00
  can1  206  [16]  42 64 AD 1C 42 64 62 1B B0 18 AA 68 2B 60 00 00"
2025-08-08T21:55:32.844080,10.000,"can1  206  [16]  6A 64 BA 1C 93 64 5C 1B B5 18 82 68 53 60 00 00
  can1  206  [16]  C9 63 C0 1C BB 64 6D 1B C3 18 AA 68 CC 60 00 00"
2025-08-08T21:55:32.845280,10.001,"can1  206  [16]  93 64 BA 1C D5 65 73 1B C8 18 D3 68 6D 61 00 00
  can1  206  [16]  79 63 CD 1C FD 65 79 1B CD 18 FB 68 6D 61 00 00"
2025-08-08T21:55:32.846294,10.002,"can1  206  [16]  C9 63 CD 1C 4E 66 7F 1B CD 18 4C 69 6D 61 00 00
  can1  206  [16]  00 63 BA 1C 76 66 8A 1B CD 18 ED 69 45 61 00 00"
2025-08-08T21:55:32.847411,10.003,"can1  206  [16]  50 63 C0 1C 9F 66 84 1B DB 18 9C 69 45 61 00 00
  can1  206  [16]  E6 61 AD 1C 17 67 79 1B D2 18 ED 69 1C 61 00 00"
2025-08-08T21:55:33.174626,10.330,"can1  206  [16]  BD 61 9A 1C 40 67 79 1B D2 18 8E 6A 1C 61 00 00
  can1  206  [16]  6D 61 7B 1C 4E 66 CB 1B BF 18 B6 6A 02 60 00 00"
2025-08-08T21:55:33.176638,10.332,"can1  206  [16]  E6 61 49 1C D5 65 E3 1B AC 18 ED 69 39 5F 00 00
  can1  206  [16]  E6 61 31 1C FD 65 E3 1B A7 18 66 6A C0 5E 00 00"
2025-08-08T21:55:33.179180,10.335,"can1  206  [16]  E6 61 2B 1C D5 65 E3 1B 9E 18 C4 69 98 5E 00 00
  can1  206  [16]  5F 62 25 1C 0C 65 E8 1B 94 18 66 6A 1F 5E 00 00"
2025-08-08T21:55:33.508667,10.664,"can1  206  [16]  5F 62 0C 1C AD 65 00 1C 8B 18 ED 69 1F 5E 00 00
  can1  206  [16]  AF 62 06 1C BB 64 00 1C 78 18 66 6A F6 5D 00 00"
2025-08-08T21:55:33.508667,10.664,can1  206  [16]  28 63 06 1C 6A 64 13 1C 74 18 15 6A A6 5D 00 00
2025-08-08T21:55:33.508667,10.664,"can1  206  [16]  C9 63 FA 1B 1A 64 0C 1C 6F 18 9C 69 A6 5D 00 00
  can1  206  [16]  6A 64 F4 1B C9 63 00 1C 66 18 23 69 A6 5D 00 00"
2025-08-08T21:55:33.827492,10.983,"can1  206  [16]  0C 65 EE 1B 79 63 FA 1B 61 18 82 68 A6 5D 00 00
  can1  206  [16]  0C 65 EE 1B A1 63 E8 1B 5D 18 82 68 7E 5D 00 00
  can1  206  [16]  6A 64 0C 1C 36 62 E8 1B 5D 18 5A 68 A6 5D 00 00"
2025-08-08T21:55:33.856378,11.012,"can1  206  [16]  42 64 0C 1C 36 62 E8 1B 54 18 E1 67 CE 5D 00 00
  can1  206  [16]  6A 64 0C 1C E6 61 E3 1B 5D 18 B9 67 CE 5D 00 00"
2025-08-08T21:55:33.856378,11.012,can1  206  [16]  AD 65 13 1C BD 61 E8 1B 61 18 68 67 1F 5E 00 00
2025-08-08T21:55:33.856378,11.012,"can1  206  [16]  FD 65 1F 1C BD 61 DD 1B 6B 18 40 67 98 5E 00 00
  can1  206  [16]  26 66 1F 1C 95 61 79 1B 94 18 17 67 89 5F 00 00"
2025-08-08T21:55:34.155758,11.311,"can1  206  [16]  A1 63 A7 1C AF 62 40 1B 9E 18 90 67 2B 60 00 00
  can1  206  [16]  93 64 A0 1C 00 63 3A 1B A7 18 B9 67 7B 60 00 00"
2025-08-08T21:55:34.155758,11.311,"can1  206  [16]  79 63 A7 1C 28 63 3A 1B A7 18 31 68 F4 60 00 00
  can1  206  [16]  F2 63 A7 1C 79 63 4B 1B B5 18 09 68 F4 60 00 00"
2025-08-08T21:55:34.155758,11.311,"can1  206  [16]  50 63 AD 1C C9 63 56 1B BA 18 82 68 1C 61 00 00
  can1  206  [16]  79 63 BA 1C F2 63 56 1B BF 18 82 68 45 61 00 00
  can1  206  [16]  F2 63 C0 1C 6A 64 56 1B CD 18 09 68 45 61 00 00"
2025-08-08T21:55:34.487788,11.643,can1  206  [16]  AF 62 C7 1C 6A 64 40 1B CD 18 5A 68 45 61 00 00
2025-08-08T21:55:34.487788,11.643,"can1  206  [16]  AF 62 BA 1C BB 64 4B 1B CD 18 5A 68 6D 61 00 00
  can1  206  [16]  AF 62 BA 1C E3 64 6D 1B D2 18 FB 68 95 61 00 00
  can1  206  [16]  5F 62 A7 1C D5 65 73 1B D6 18 9C 69 45 61 00 00"
2025-08-08T21:55:34.487788,11.643,can1  206  [16]  E6 61 9A 1C FD 65 7F 1B D2 18 3D 6A F4 60 00 00
2025-08-08T21:55:34.819665,11.975,"can1  206  [16]  36 62 94 1C FD 65 7F 1B C3 18 8E 6A F4 60 00 00
  can1  206  [16]  AF 62 94 1C FD 65 6D 1B D2 18 3D 6A F4 60 00 00"
2025-08-08T21:55:34.819665,11.975,"can1  206  [16]  AF 62 9A 1C FD 65 68 1B D2 18 66 6A CC 60 00 00
  can1  206  [16]  87 62 8E 1C FD 65 6D 1B C3 18 3D 6A A3 60 00 00"
2025-08-08T21:55:34.819665,11.975,"can1  206  [16]  36 62 8E 1C 76 66 73 1B C3 18 8E 6A 7B 60 00 00
  can1  206  [16]  36 62 75 1C C7 66 79 1B BF 18 DE 6A 7B 60 00 00"
2025-08-08T21:55:35.151980,12.307,"can1  206  [16]  E6 61 6E 1C 9F 66 84 1B C3 18 07 6B 2B 60 00 00
  can1  206  [16]  D8 62 6E 1C 76 66 A7 1B B0 18 B6 6A 02 60 00 00"
2025-08-08T21:55:35.151980,12.307,"can1  206  [16]  00 63 62 1C 4E 66 B3 1B AC 18 B6 6A 02 60 00 00
  can1  206  [16]  D8 62 50 1C 4E 66 AD 1B AC 18 8E 6A 02 60 00 00"
2025-08-08T21:55:35.151980,12.307,"can1  206  [16]  28 63 43 1C 26 66 B9 1B A2 18 8E 6A 61 5F 00 00
  can1  206  [16]  42 64 31 1C FD 65 C5 1B 9E 18 8E 6A 39 5F 00 00"
2025-08-08T21:55:35.151980,12.307,"can1  206  [16]  1A 64 19 1C FD 65 C5 1B 94 18 66 6A 39 5F 00 00
  can1  206  [16]  50 63 0C 1C 0C 65 E8 1B 90 18 66 6A C0 5E 00 00"
2025-08-08T21:55:35.484811,12.640,"can1  206  [16]  00 63 FA 1B E3 64 00 1C 86 18 15 6A 98 5E 00 00
  can1  206  [16]  79 63 EE 1B E3 64 06 1C 78 18 ED 69 6F 5E 00 00"
2025-08-08T21:55:35.484811,12.640,"can1  206  [16]  C9 63 EE 1B 93 64 06 1C 74 18 ED 69 47 5E 00 00
  can1  206  [16]  C9 63 E8 1B 6A 64 06 1C 6B 18 9C 69 1F 5E 00 00"
2025-08-08T21:55:35.484811,12.640,"can1  206  [16]  BB 64 E3 1B A1 63 06 1C 6B 18 9C 69 47 5E 00 00
  can1  206  [16]  6A 64 E8 1B 28 63 FA 1B 5D 18 74 69 CE 5D 00 00"
2025-08-08T21:55:35.823222,12.979,"can1  206  [16]  BB 64 EE 1B 00 63 FA 1B 58 18 FB 68 CE 5D 00 00
  can1  206  [16]  0C 65 F4 1B 28 63 F4 1B 58 18 D3 68 CE 5D 00 00"
2025-08-08T21:55:35.823222,12.979,"can1  206  [16]  D5 65 FA 1B 28 63 EE 1B 4F 18 AA 68 47 5E 00 00
  can1  206  [16]  FD 65 06 1C 00 63 EE 1B 58 18 B9 67 47 5E 00 00"
2025-08-08T21:55:35.823222,12.979,"can1  206  [16]  FD 65 00 1C 00 63 E3 1B 61 18 B9 67 47 5E 00 00
  can1  206  [16]  FD 65 0C 1C 00 63 E3 1B 6B 18 68 67 C0 5E 00 00"
2025-08-08T21:55:36.145699,13.301,"can1  206  [16]  D5 65 06 1C D8 62 D7 1B 74 18 40 67 C0 5E 00 00
  can1  206  [16]  FD 65 06 1C D8 62 D1 1B 74 18 17 67 10 5F 00 00"
2025-08-08T21:55:36.145699,13.301,"can1  206  [16]  FD 65 25 1C A1 63 D7 1B 78 18 17 67 39 5F 00 00
  can1  206  [16]  D5 65 2B 1C A1 63 CB 1B 7D 18 EF 66 E8 5E 00 00"
2025-08-08T21:55:36.145699,13.301,"can1  206  [16]  FD 65 31 1C 50 63 BF 1B 82 18 40 67 10 5F 00 00
  can1  206  [16]  E3 64 2B 1C A1 63 AD 1B 82 18 90 67 61 5F 00 00"
2025-08-08T21:55:36.474553,13.630,"can1  206  [16]  4E 66 37 1C A1 63 9C 1B 82 18 B9 67 39 5F 00 00
  can1  206  [16]  4E 66 50 1C 79 63 96 1B 8B 18 90 67 61 5F 00 00"
2025-08-08T21:55:36.474553,13.630,"can1  206  [16]  9F 66 68 1C C9 63 84 1B 90 18 E1 67 B2 5F 00 00
  can1  206  [16]  D5 65 87 1C F2 63 73 1B 99 18 31 68 53 60 00 00"
2025-08-08T21:55:36.477333,13.633,"can1  206  [16]  0C 65 81 1C 42 64 73 1B A2 18 31 68 2B 60 00 00
  can1  206  [16]  1A 64 94 1C 42 64 6D 1B A2 18 82 68 7B 60 00 00"
2025-08-08T21:55:36.477333,13.633,"can1  206  [16]  28 63 A0 1C 6A 64 68 1B B0 18 82 68 CC 60 00 00
  can1  206  [16]  28 63 A7 1C 93 64 62 1B B0 18 FB 68 1C 61 00 00"
2025-08-08T21:55:36.807706,13.963,"can1  206  [16]  D8 62 AD 1C D5 65 6D 1B BA 18 FB 68 1C 61 00 00
  can1  206  [16]  D8 62 A7 1C 26 66 68 1B C3 18 FB 68 1C 61 00 00"
2025-08-08T21:55:36.807706,13.963,"can1  206  [16]  D8 62 AD 1C FD 65 73 1B C8 18 23 69 45 61 00 00
  can1  206  [16]  36 62 9A 1C 4E 66 68 1B C8 18 4C 69 6D 61 00 00"
2025-08-08T21:55:36.807706,13.963,"can1  206  [16]  E6 61 94 1C C7 66 73 1B CD 18 74 69 45 61 00 00
  can1  206  [16]  95 61 75 1C C7 66 A7 1B C3 18 8E 6A 7B 60 00 00"
2025-08-08T21:55:37.124837,14.280,"can1  206  [16]  36 62 56 1C 9F 66 CB 1B B0 18 8E 6A 2B 60 00 00
  can1  206  [16]  36 62 49 1C C7 66 CB 1B A7 18 DE 6A 53 60 00 00"
2025-08-08T21:55:37.124837,14.280,"can1  206  [16]  E6 61 37 1C 4E 66 D7 1B A7 18 B6 6A 02 60 00 00
  can1  206  [16]  36 62 1F 1C E3 64 DD 1B A2 18 B6 6A B2 5F 00 00"
2025-08-08T21:55:37.126849,14.282,"can1  206  [16]  AF 62 19 1C 6A 64 E8 1B 99 18 66 6A 39 5F 00 00
  can1  206  [16]  50 63 06 1C 6A 64 E3 1B 94 18 3D 6A 10 5F 00 00
  can1  206  [16]  50 63 E8 1B 1A 64 D7 1B 8B 18 66 6A C0 5E 00 00"
2025-08-08T21:55:37.457488,14.613,"can1  206  [16]  42 64 E8 1B 1A 64 CB 1B 82 18 ED 69 F6 5D 00 00
  can1  206  [16]  C9 63 DD 1B C9 63 D7 1B 78 18 15 6A A6 5D 00 00"
2025-08-08T21:55:37.457488,14.613,"can1  206  [16]  F2 63 E3 1B 28 63 D1 1B 66 18 C4 69 55 5D 00 00
  can1  206  [16]  6A 64 D1 1B 50 63 D7 1B 61 18 74 69 2D 5D 00 00"
2025-08-08T21:55:37.457488,14.613,"can1  206  [16]  E3 64 DD 1B 00 63 D7 1B 5D 18 74 69 2D 5D 00 00
  can1  206  [16]  FD 65 D7 1B AF 62 D7 1B 58 18 FB 68 05 5D 00 00"
2025-08-08T21:55:37.792686,14.948,can1  206  [16]  93 64 D1 1B 5F 62 C5 1B 54 18 FB 68 55 5D 00 00
2025-08-08T21:55:37.792686,14.948,"can1  206  [16]  0C 65 DD 1B 36 62 C5 1B 54 18 D3 68 A6 5D 00 00
  can1  206  [16]  C7 66 E3 1B 0E 62 C5 1B 4A 18 82 68 7E 5D 00 00"
2025-08-08T21:55:37.797187,14.953,"can1  206  [16]  9F 66 E8 1B 0E 62 BF 1B 61 18 5A 68 A6 5D 00 00
  can1  206  [16]  FD 65 FA 1B 0E 62 B9 1B 61 18 09 68 CE 5D 00 00"
2025-08-08T21:55:37.798311,14.954,"can1  206  [16]  D5 65 EE 1B 0E 62 C5 1B 66 18 E1 67 CE 5D 00 00
  can1  206  [16]  76 66 F4 1B 36 62 D7 1B 6F 18 68 67 CE 5D 00 00"
2025-08-08T21:55:38.132265,15.288,"can1  206  [16]  76 66 00 1C 0E 62 D7 1B 6B 18 C7 66 F6 5D 00 00
  can1  206  [16]  9F 66 00 1C 36 62 CB 1B 74 18 C7 66 F6 5D 00 00"
2025-08-08T21:55:38.132265,15.288,"can1  206  [16]  D5 65 0C 1C 36 62 C5 1B 74 18 68 67 1F 5E 00 00
  can1  206  [16]  6A 64 13 1C 5F 62 AD 1B 78 18 90 67 1F 5E 00 00"
2025-08-08T21:55:38.132265,15.288,"can1  206  [16]  E3 64 19 1C AF 62 A2 1B 7D 18 68 67 47 5E 00 00
  can1  206  [16]  BB 64 25 1C AF 62 96 1B 86 18 B9 67 47 5E 00 00
  can1  206  [16]  93 64 31 1C D8 62 84 1B 86 18 B9 67 C0 5E 00 00"
2025-08-08T21:55:38.458550,15.614,"can1  206  [16]  F2 63 49 1C D8 62 68 1B 8B 18 B9 67 39 5F 00 00
  can1  206  [16]  6A 64 56 1C 28 63 5C 1B 94 18 09 68 39 5F 00 00"
2025-08-08T21:55:38.458550,15.614,"can1  206  [16]  F2 63 62 1C 28 63 62 1B 9E 18 5A 68 39 5F 00 00
  can1  206  [16]  A1 63 6E 1C 28 63 56 1B A7 18 5A 68 DA 5F 00 00"
2025-08-08T21:55:38.458550,15.614,"can1  206  [16]  6A 64 7B 1C C9 63 56 1B B0 18 E1 67 02 60 00 00
  can1  206  [16]  C9 63 87 1C C9 63 51 1B B0 18 09 68 02 60 00 00"
2025-08-08T21:55:38.792885,15.948,"can1  206  [16]  A1 63 94 1C 6A 64 51 1B BF 18 09 68 53 60 00 00
  can1  206  [16]  00 63 94 1C 42 64 5C 1B C8 18 5A 68 A3 60 00 00"
2025-08-08T21:55:38.797616,15.953,"can1  206  [16]  D8 62 9A 1C 93 64 62 1B D2 18 31 68 A3 60 00 00
  can1  206  [16]  5F 62 9A 1C 0C 65 62 1B D2 18 FB 68 CC 60 00 00"
2025-08-08T21:55:38.797616,15.953,"can1  206  [16]  A1 63 87 1C E3 64 68 1B D6 18 23 69 7B 60 00 00
  can1  206  [16]  00 63 8E 1C D5 65 73 1B DB 18 ED 69 53 60 00 00"
2025-08-08T21:55:38.797616,15.953,"can1  206  [16]  AF 62 75 1C 0C 65 79 1B E0 18 15 6A 7B 60 00 00
  can1  206  [16]  E6 61 7B 1C FD 65 84 1B E0 18 66 6A 53 60 00 00"
2025-08-08T21:55:39.127614,16.283,"can1  206  [16]  E6 61 68 1C FD 65 90 1B DB 18 B6 6A A3 60 00 00
  can1  206  [16]  45 61 50 1C 93 64 DD 1B C3 18 07 6B 89 5F 00 00"
2025-08-08T21:55:39.129629,16.285,"can1  206  [16]  0E 62 13 1C 42 64 FA 1B B0 18 8E 6A 98 5E 00 00
  can1  206  [16]  0E 62 00 1C 42 64 E8 1B A7 18 66 6A 39 5F 00 00"
2025-08-08T21:55:39.129629,16.285,"can1  206  [16]  AF 62 FA 1B 1A 64 FA 1B 9E 18 66 6A 10 5F 00 00
  can1  206  [16]  D8 62 E8 1B F2 63 00 1C 90 18 3D 6A 10 5F 00 00"
2025-08-08T21:55:39.459590,16.615,can1  206  [16]  C9 63 DD 1B C9 63 06 1C 8B 18 ED 69 E8 5E 00 00
2025-08-08T21:55:39.459590,16.615,can1  206  [16]  42 64 DD 1B A1 63 13 1C 7D 18 C4 69 98 5E 00 00
2025-08-08T21:55:39.795563,16.951,"can1  206  [16]  A1 63 CB 1B 00 63 06 1C 74 18 9C 69 6F 5E 00 00
  can1  206  [16]  A1 63 CB 1B D8 62 06 1C 6F 18 4C 69 F6 5D 00 00
  can1  206  [16]  D5 65 CB 1B AF 62 00 1C 6B 18 FB 68 CE 5D 00 00
  can1  206  [16]  BB 64 DD 1B 87 62 FA 1B 66 18 AA 68 F6 5D 00 00
  can1  206  [16]  6A 64 D1 1B 5F 62 FA 1B 61 18 AA 68 CE 5D 00 00"
2025-08-08T21:55:39.795563,16.951,can1  206  [16]  BB 64 D7 1B 0E 62 F4 1B 5D 18 09 68 CE 5D 00 00
2025-08-08T21:55:39.796854,16.952,"can1  206  [16]  D5 65 D7 1B E6 61 F4 1B 61 18 E1 67 F6 5D 00 00
  can1  206  [16]  0C 65 DD 1B BD 61 F4 1B 5D 18 E1 67 6F 5E 00 00
  can1  206  [16]  4E 66 E8 1B BD 61 E8 1B 61 18 68 67 1F 5E 00 00
  can1  206  [16]  9F 66 EE 1B BD 61 CB 1B 74 18 68 67 1F 5E 00 00"
2025-08-08T21:55:40.110799,17.266,can1  206  [16]  76 66 EE 1B BD 61 CB 1B 6F 18 17 67 47 5E 00 00
2025-08-08T21:55:40.110799,17.266,"can1  206  [16]  17 67 FA 1B E6 61 D7 1B 78 18 EF 66 1F 5E 00 00
  can1  206  [16]  40 67 06 1C 6D 61 96 1B A7 18 C7 66 39 5F 00 00"
2025-08-08T21:55:40.110799,17.266,"can1  206  [16]  E3 64 94 1C 5F 62 73 1B B0 18 68 67 02 60 00 00
  can1  206  [16]  6A 64 94 1C 28 63 73 1B BF 18 B9 67 02 60 00 00"
2025-08-08T21:55:40.110799,17.266,can1  206  [16]  1A 64 9A 1C 79 63 73 1B C8 18 09 68 53 60 00 00
2025-08-08T21:55:40.445572,17.601,"can1  206  [16]  93 64 9A 1C A1 63 79 1B D2 18 31 68 A3 60 00 00
  can1  206  [16]  50 63 9A 1C 1A 64 79 1B D2 18 82 68 7B 60 00 00
  can1  206  [16]  79 63 94 1C E3 64 79 1B D6 18 D3 68 7B 60 00 00"
2025-08-08T21:55:40.448229,17.604,"can1  206  [16]  50 63 8E 1C D5 65 79 1B E0 18 AA 68 CC 60 00 00
  can1  206  [16]  00 63 81 1C D5 65 84 1B D6 18 23 69 7B 60 00 00"
2025-08-08T21:55:40.448229,17.604,can1  206  [16]  28 63 87 1C D5 65 84 1B E0 18 C4 69 F4 60 00 00
2025-08-08T21:55:40.776433,17.932,"can1  206  [16]  D8 62 7B 1C D5 65 90 1B E0 18 3D 6A 1C 61 00 00
  can1  206  [16]  AF 62 75 1C FD 65 79 1B D6 18 8E 6A 1C 61 00 00
  can1  206  [16]  5F 62 6E 1C FD 65 73 1B D6 18 8E 6A F4 60 00 00"
2025-08-08T21:55:40.776433,17.932,can1  206  [16]  E6 61 62 1C FD 65 79 1B D6 18 B6 6A F4 60 00 00
2025-08-08T21:55:40.776433,17.932,"can1  206  [16]  0E 62 62 1C 26 66 6D 1B D2 18 07 6B F4 60 00 00
  can1  206  [16]  BD 61 5C 1C D5 65 73 1B C3 18 DE 6A 7B 60 00 00
  can1  206  [16]  BD 61 56 1C D5 65 84 1B C3 18 57 6B B2 5F 00 00"
2025-08-08T21:55:41.111508,18.267,"can1  206  [16]  95 61 06 1C F2 63 19 1C A7 18 C4 69 1F 5E 00 00
  can1  206  [16]  D8 62 DD 1B 79 63 1F 1C 86 18 4C 69 A6 5D 00 00"
2025-08-08T21:55:41.112630,18.268,"can1  206  [16]  D8 62 D7 1B 28 63 1F 1C 7D 18 FB 68 A6 5D 00 00
  can1  206  [16]  C9 63 DD 1B 28 63 13 1C 74 18 FB 68 1F 5E 00 00
  can1  206  [16]  76 66 DD 1B AF 62 06 1C 6F 18 23 69 A6 5D 00 00"
2025-08-08T21:55:41.445957,18.601,"can1  206  [16]  FD 65 DD 1B AF 62 EE 1B 6B 18 D3 68 55 5D 00 00
  can1  206  [16]  26 66 DD 1B 36 62 00 1C 66 18 5A 68 A6 5D 00 00
  can1  206  [16]  4E 66 DD 1B E6 61 00 1C 5D 18 31 68 7E 5D 00 00
  can1  206  [16]  76 66 E8 1B E6 61 00 1C 61 18 09 68 A6 5D 00 00
  can1  206  [16]  E1 67 EE 1B BD 61 FA 1B 66 18 E1 67 A6 5D 00 00
  can1  206  [16]  E1 67 EE 1B BD 61 E8 1B 6B 18 68 67 CE 5D 00 00"
2025-08-08T21:55:41.450799,18.606,"can1  206  [16]  E1 67 FA 1B E6 61 D1 1B 6F 18 68 67 CE 5D 00 00
  can1  206  [16]  90 67 06 1C BD 61 C5 1B 74 18 40 67 1F 5E 00 00"
2025-08-08T21:55:41.762484,18.918,"can1  206  [16]  17 67 0C 1C BD 61 BF 1B 74 18 9F 66 98 5E 00 00
  can1  206  [16]  90 67 06 1C E6 61 B3 1B 78 18 C7 66 6F 5E 00 00
  can1  206  [16]  90 67 13 1C E6 61 A7 1B 7D 18 76 66 C0 5E 00 00
  can1  206  [16]  17 67 1F 1C 0E 62 9C 1B 82 18 EF 66 98 5E 00 00"
2025-08-08T21:55:41.762484,18.918,"can1  206  [16]  40 67 1F 1C 0E 62 96 1B 8B 18 40 67 98 5E 00 00
  can1  206  [16]  FD 65 25 1C 36 62 7F 1B 90 18 EF 66 6F 5E 00 00"
2025-08-08T21:55:41.762484,18.918,"can1  206  [16]  26 66 31 1C E6 61 68 1B 94 18 C7 66 C0 5E 00 00
  can1  206  [16]  26 66 56 1C 36 62 56 1B 99 18 40 67 10 5F 00 00"
2025-08-08T21:55:42.095792,19.251,can1  206  [16]  FD 65 50 1C 5F 62 40 1B A2 18 90 67 B2 5F 00 00
2025-08-08T21:55:42.095792,19.251,"can1  206  [16]  FD 65 62 1C 87 62 3A 1B A2 18 90 67 DA 5F 00 00
  can1  206  [16]  BB 64 81 1C AF 62 3A 1B AC 18 90 67 02 60 00 00"
2025-08-08T21:55:42.095792,19.251,"can1  206  [16]  26 66 7B 1C 00 63 34 1B B5 18 09 68 53 60 00 00
  can1  206  [16]  76 66 8E 1C 28 63 3A 1B BF 18 31 68 A3 60 00 00
  can1  206  [16]  FD 65 8E 1C 50 63 4B 1B BF 18 E1 67 CC 60 00 00"
2025-08-08T21:55:42.430490,19.586,can1  206  [16]  BB 64 9A 1C A1 63 62 1B C8 18 82 68 53 60 00 00
2025-08-08T21:55:42.432502,19.588,"can1  206  [16]  1A 64 A0 1C 42 64 68 1B D2 18 AA 68 7B 60 00 00
  can1  206  [16]  E3 64 9A 1C 93 64 6D 1B D6 18 FB 68 7B 60 00 00"
2025-08-08T21:55:42.432502,19.588,"can1  206  [16]  42 64 9A 1C BB 64 73 1B D6 18 74 69 1C 61 00 00
  can1  206  [16]  79 63 8E 1C AD 65 73 1B E0 18 4C 69 A3 60 00 00"
2025-08-08T21:55:42.434519,19.590,"can1  206  [16]  00 63 81 1C 0C 65 79 1B DB 18 C4 69 7B 60 00 00
  can1  206  [16]  00 63 81 1C FD 65 84 1B D6 18 3D 6A CC 60 00 00"
2025-08-08T21:55:42.767017,19.922,"can1  206  [16]  87 62 81 1C FD 65 8A 1B D6 18 8E 6A 53 60 00 00
  can1  206  [16]  87 62 7B 1C 26 66 8A 1B D2 18 8E 6A 02 60 00 00"
2025-08-08T21:55:42.767911,19.923,"can1  206  [16]  36 62 7B 1C 26 66 8A 1B C8 18 8E 6A 89 5F 00 00
  can1  206  [16]  36 62 68 1C FD 65 84 1B C8 18 DE 6A B2 5F 00 00
  can1  206  [16]  0E 62 68 1C 0C 65 84 1B C3 18 2F 6B 89 5F 00 00"
2025-08-08T21:55:42.767911,19.923,"can1  206  [16]  5F 62 5C 1C E3 64 8A 1B BF 18 07 6B B2 5F 00 00
  can1  206  [16]  6D 61 06 1C F2 63 00 1C A2 18 FB 68 F6 5D 00 00"
2025-08-08T21:55:43.079859,20.235,"can1  206  [16]  36 62 DD 1B 79 63 00 1C 78 18 23 69 7E 5D 00 00
  can1  206  [16]  5F 62 DD 1B 50 63 FA 1B 74 18 D3 68 7E 5D 00 00"
2025-08-08T21:55:43.080914,20.237,can1  206  [16]  AF 62 D7 1B 00 63 E8 1B 6F 18 AA 68 55 5D 00 00
2025-08-08T21:55:43.082987,20.238,"can1  206  [16]  D8 62 E3 1B D8 62 E3 1B 66 18 D3 68 55 5D 00 00
  can1  206  [16]  50 63 DD 1B AF 62 DD 1B 58 18 AA 68 55 5D 00 00"
2025-08-08T21:55:43.410258,20.566,"can1  206  [16]  C9 63 D7 1B 5F 62 D7 1B 5D 18 31 68 A6 5D 00 00
  can1  206  [16]  6A 64 DD 1B 0E 62 CB 1B 54 18 09 68 F6 5D 00 00"
2025-08-08T21:55:43.418036,20.574,"can1  206  [16]  BB 64 E3 1B 36 62 C5 1B 5D 18 09 68 47 5E 00 00
  can1  206  [16]  E3 64 E8 1B E6 61 CB 1B 61 18 E1 67 10 5F 00 00
  can1  206  [16]  0C 65 F4 1B E6 61 BF 1B 61 18 E1 67 10 5F 00 00"
2025-08-08T21:55:43.424242,20.580,"can1  206  [16]  D5 65 FA 1B 45 61 8A 1B 8B 18 40 67 B2 5F 00 00
  can1  206  [16]  6A 64 68 1C 5F 62 73 1B 86 18 E1 67 53 60 00 00"
2025-08-08T21:55:43.756676,20.912,"can1  206  [16]  1A 64 6E 1C D8 62 56 1B 94 18 09 68 7B 60 00 00
  can1  206  [16]  A1 63 7B 1C 50 63 4B 1B 9E 18 09 68 45 61 00 00"
2025-08-08T21:55:43.758687,20.914,"can1  206  [16]  79 63 8E 1C 1A 64 4B 1B A7 18 09 68 1C 61 00 00
  can1  206  [16]  1A 64 87 1C 6A 64 40 1B AC 18 09 68 1C 61 00 00"
2025-08-08T21:55:43.761165,20.917,"can1  206  [16]  42 64 9A 1C BB 64 4B 1B B5 18 31 68 45 61 00 00
  can1  206  [16]  F2 63 9A 1C E3 64 68 1B BF 18 5A 68 45 61 00 00"
2025-08-08T21:55:43.761165,20.917,"can1  206  [16]  F2 63 A7 1C 0C 65 73 1B CD 18 D3 68 95 61 00 00
  can1  206  [16]  79 63 A0 1C D5 65 73 1B D2 18 FB 68 BD 61 00 00"
2025-08-08T21:55:44.073298,21.229,"can1  206  [16]  FD 65 75 1C 93 64 5C 1B A2 18 09 68 45 61 00 00
  can1  206  [16]  FD 65 9A 1C 93 64 68 1B AC 18 09 68 F4 60 00 00"
2025-08-08T21:55:44.073298,21.229,"can1  206  [16]  D5 65 9A 1C 0C 65 73 1B AC 18 82 68 45 61 00 00
  can1  206  [16]  1A 64 9A 1C 0C 65 6D 1B B5 18 5A 68 45 61 00 00"
2025-08-08T21:55:44.073298,21.229,"can1  206  [16]  F2 63 A0 1C 0C 65 68 1B BF 18 AA 68 F4 60 00 00
  can1  206  [16]  A1 63 A0 1C FD 65 73 1B C3 18 AA 68 45 61 00 00"
2025-08-08T21:55:44.389195,21.545,"can1  206  [16]  50 63 9A 1C FD 65 73 1B C8 18 D3 68 6D 61 00 00
  can1  206  [16]  28 63 94 1C 76 66 73 1B C8 18 D3 68 6D 61 00 00"
2025-08-08T21:55:44.392914,21.548,"can1  206  [16]  28 63 8E 1C 76 66 7F 1B C8 18 4C 69 1C 61 00 00
  can1  206  [16]  D8 62 8E 1C C7 66 84 1B D2 18 9C 69 45 61 00 00"
2025-08-08T21:55:44.392914,21.548,"can1  206  [16]  D8 62 7B 1C C7 66 90 1B D6 18 ED 69 1C 61 00 00
  can1  206  [16]  50 63 6E 1C C7 66 90 1B DB 18 DE 6A 45 61 00 00"
2025-08-08T21:55:44.721940,21.877,"can1  206  [16]  50 63 6E 1C EF 66 9C 1B C8 18 DE 6A 1C 61 00 00
  can1  206  [16]  79 63 62 1C EF 66 9C 1B BF 18 2F 6B F4 60 00 00"
2025-08-08T21:55:44.721940,21.877,"can1  206  [16]  28 63 62 1C 9F 66 A2 1B C3 18 07 6B CC 60 00 00
  can1  206  [16]  5F 62 62 1C 9F 66 AD 1B BA 18 2F 6B A3 60 00 00"
2025-08-08T21:55:44.726285,21.882,"can1  206  [16]  36 62 5C 1C 4E 66 B3 1B B5 18 57 6B 53 60 00 00
  can1  206  [16]  87 62 50 1C 26 66 C5 1B B0 18 80 6B B2 5F 00 00"
2025-08-08T21:55:45.057448,22.213,"can1  206  [16]  87 62 50 1C 4E 66 CB 1B A2 18 57 6B B2 5F 00 00
  can1  206  [16]  AF 62 3D 1C 26 66 D7 1B AC 18 DE 6A 89 5F 00 00"
2025-08-08T21:55:45.059463,22.215,"can1  206  [16]  D8 62 2B 1C 4E 66 E8 1B 9E 18 DE 6A 10 5F 00 00
  can1  206  [16]  D8 62 19 1C 26 66 00 1C 99 18 9C 69 E8 5E 00 00"
2025-08-08T21:55:45.059463,22.215,"can1  206  [16]  D8 62 19 1C FD 65 00 1C 99 18 9C 69 98 5E 00 00
  can1  206  [16]  D8 62 0C 1C FD 65 00 1C 86 18 4C 69 6F 5E 00 00"
2025-08-08T21:55:45.061474,22.217,"can1  206  [16]  00 63 E8 1B D5 65 06 1C 7D 18 4C 69 47 5E 00 00
  can1  206  [16]  28 63 E8 1B E3 64 13 1C 74 18 C4 69 1F 5E 00 00"
2025-08-08T21:55:45.373338,22.529,can1  206  [16]  28 63 E3 1B 93 64 0C 1C 6F 18 ED 69 F6 5D 00 00
2025-08-08T21:55:45.373338,22.529,"can1  206  [16]  79 63 E3 1B 6A 64 0C 1C 61 18 9C 69 CE 5D 00 00
  can1  206  [16]  C9 63 D7 1B 6A 64 06 1C 5D 18 23 69 A6 5D 00 00
  can1  206  [16]  1A 64 E3 1B 93 64 06 1C 61 18 FB 68 A6 5D 00 00"
2025-08-08T21:55:45.373338,22.529,"can1  206  [16]  F2 63 E3 1B 1A 64 E8 1B 5D 18 82 68 7E 5D 00 00
  can1  206  [16]  42 64 E3 1B F2 63 CB 1B 5D 18 5A 68 7E 5D 00 00"
2025-08-08T21:55:45.707175,22.863,"can1  206  [16]  93 64 F4 1B A1 63 CB 1B 58 18 31 68 CE 5D 00 00
  can1  206  [16]  E3 64 E8 1B 79 63 C5 1B 58 18 82 68 55 5D 00 00"
2025-08-08T21:55:45.709372,22.865,"can1  206  [16]  BB 64 F4 1B 79 63 BF 1B 5D 18 90 67 F6 5D 00 00
  can1  206  [16]  BB 64 FA 1B 28 63 B9 1B 61 18 40 67 1F 5E 00 00"
2025-08-08T21:55:45.709372,22.865,"can1  206  [16]  D5 65 0C 1C 79 63 A7 1B 61 18 68 67 1F 5E 00 00
  can1  206  [16]  D5 65 06 1C A1 63 A2 1B 66 18 B9 67 47 5E 00 00"
2025-08-08T21:55:46.040506,23.196,"can1  206  [16]  76 66 06 1C F2 63 A2 1B 6F 18 90 67 6F 5E 00 00
  can1  206  [16]  C7 66 0C 1C 42 64 A2 1B 78 18 90 67 6F 5E 00 00"
2025-08-08T21:55:46.041850,23.197,"can1  206  [16]  76 66 19 1C 6A 64 96 1B 6B 18 68 67 6F 5E 00 00
  can1  206  [16]  9F 66 25 1C 6A 64 8A 1B 82 18 90 67 C0 5E 00 00"
2025-08-08T21:55:46.041850,23.197,"can1  206  [16]  4E 66 2B 1C 1A 64 79 1B 82 18 68 67 C0 5E 00 00
  can1  206  [16]  4E 66 31 1C A1 63 73 1B 82 18 09 68 C0 5E 00 00"
2025-08-08T21:55:46.372393,23.528,"can1  206  [16]  E3 64 49 1C F2 63 68 1B 8B 18 09 68 E8 5E 00 00
  can1  206  [16]  6A 64 5C 1C F2 63 5C 1B 8B 18 09 68 89 5F 00 00"
2025-08-08T21:55:46.373837,23.529,"can1  206  [16]  1A 64 75 1C C9 63 51 1B 90 18 5A 68 2B 60 00 00
  can1  206  [16]  42 64 7B 1C F2 63 4B 1B 99 18 31 68 CC 60 00 00"
2025-08-08T21:55:46.375851,23.531,"can1  206  [16]  6A 64 7B 1C 42 64 45 1B A7 18 31 68 CC 60 00 00
  can1  206  [16]  6A 64 8E 1C 6A 64 40 1B AC 18 5A 68 1C 61 00 00"
2025-08-08T21:55:46.375851,23.531,"can1  206  [16]  42 64 9A 1C 6A 64 45 1B BA 18 AA 68 45 61 00 00
  can1  206  [16]  42 64 9A 1C BB 64 45 1B BF 18 AA 68 45 61 00 00"
2025-08-08T21:55:46.688443,23.844,"can1  206  [16]  93 64 9A 1C D5 65 45 1B C8 18 D3 68 6D 61 00 00
  can1  206  [16]  C9 63 A7 1C FD 65 4B 1B CD 18 D3 68 95 61 00 00"
2025-08-08T21:55:46.688443,23.844,"can1  206  [16]  A1 63 9A 1C 4E 66 5C 1B D2 18 4C 69 95 61 00 00
  can1  206  [16]  79 63 A0 1C 76 66 62 1B D6 18 9C 69 45 61 00 00"
2025-08-08T21:55:46.692947,23.848,"can1  206  [16]  28 63 94 1C 9F 66 73 1B DB 18 9C 69 6D 61 00 00
  can1  206  [16]  00 63 8E 1C EF 66 7F 1B D6 18 3D 6A 6D 61 00 00"
2025-08-08T21:55:47.023461,24.179,"can1  206  [16]  87 62 87 1C 17 67 8A 1B D6 18 66 6A 1C 61 00 00
  can1  206  [16]  87 62 7B 1C 17 67 96 1B D2 18 8E 6A 1C 61 00 00"
2025-08-08T21:55:47.024514,24.180,"can1  206  [16]  AF 62 7B 1C 17 67 96 1B C3 18 8E 6A A3 60 00 00
  can1  206  [16]  5F 62 7B 1C EF 66 A2 1B C8 18 B6 6A A3 60 00 00"
2025-08-08T21:55:47.024514,24.180,"can1  206  [16]  87 62 7B 1C EF 66 9C 1B CD 18 07 6B 7B 60 00 00
  can1  206  [16]  5F 62 62 1C 9F 66 AD 1B BF 18 DE 6A 53 60 00 00"
2025-08-08T21:55:47.355765,24.511,"can1  206  [16]  E6 61 62 1C 9F 66 B9 1B BF 18 07 6B 53 60 00 00
  can1  206  [16]  BD 61 62 1C 4E 66 BF 1B B0 18 DE 6A 2B 60 00 00"
2025-08-08T21:55:47.357276,24.513,"can1  206  [16]  E6 61 50 1C 26 66 CB 1B 99 18 B6 6A 2B 60 00 00
  can1  206  [16]  AF 62 43 1C 26 66 E3 1B A7 18 8E 6A 2B 60 00 00"
2025-08-08T21:55:47.357276,24.513,"can1  206  [16]  A1 63 3D 1C FD 65 E8 1B A2 18 8E 6A B2 5F 00 00
  can1  206  [16]  D8 62 2B 1C D5 65 F4 1B A7 18 66 6A B2 5F 00 00"
2025-08-08T21:55:47.359818,24.515,"can1  206  [16]  28 63 0C 1C FD 65 FA 1B 99 18 66 6A 89 5F 00 00
  can1  206  [16]  93 64 06 1C D5 65 FA 1B 90 18 66 6A 61 5F 00 00"
2025-08-08T21:55:47.669248,24.825,"can1  206  [16]  79 63 F4 1B 0C 65 06 1C 82 18 3D 6A 39 5F 00 00
  can1  206  [16]  50 63 E8 1B 0C 65 0C 1C 78 18 C4 69 C0 5E 00 00"
2025-08-08T21:55:47.669248,24.825,"can1  206  [16]  50 63 DD 1B 93 64 06 1C 6F 18 9C 69 47 5E 00 00
  can1  206  [16]  93 64 D1 1B 1A 64 0C 1C 66 18 C4 69 47 5E 00 00"
2025-08-08T21:55:47.669248,24.825,can1  206  [16]  BB 64 CB 1B 1A 64 00 1C 61 18 9C 69 1F 5E 00 00
2025-08-08T21:55:48.002368,25.158,"can1  206  [16]  6A 64 CB 1B C9 63 06 1C 6F 18 74 69 1F 5E 00 00
  can1  206  [16]  6A 64 E8 1B A1 63 FA 1B 58 18 FB 68 1F 5E 00 00
  can1  206  [16]  D5 65 E8 1B 79 63 EE 1B 54 18 FB 68 1F 5E 00 00"
2025-08-08T21:55:48.002368,25.158,"can1  206  [16]  0C 65 E8 1B A1 63 F4 1B 4F 18 AA 68 47 5E 00 00
  can1  206  [16]  E3 64 F4 1B 50 63 E8 1B 4F 18 09 68 1F 5E 00 00"
2025-08-08T21:55:48.002368,25.158,"can1  206  [16]  6A 64 EE 1B 00 63 E8 1B 58 18 E1 67 47 5E 00 00
  can1  206  [16]  6A 64 00 1C 00 63 C5 1B 54 18 E1 67 47 5E 00 00"
2025-08-08T21:55:48.337265,25.493,can1  206  [16]  6A 64 00 1C D8 62 B9 1B 58 18 90 67 47 5E 00 00
2025-08-08T21:55:48.337265,25.493,"can1  206  [16]  6A 64 FA 1B 00 63 B9 1B 5D 18 40 67 C0 5E 00 00
  can1  206  [16]  6A 64 0C 1C 00 63 AD 1B 66 18 40 67 98 5E 00 00"
2025-08-08T21:55:48.337265,25.493,"can1  206  [16]  42 64 13 1C 00 63 A2 1B 6F 18 17 67 39 5F 00 00
  can1  206  [16]  93 64 0C 1C 28 63 90 1B 74 18 40 67 39 5F 00 00"
2025-08-08T21:55:48.657319,25.813,"can1  206  [16]  6A 64 25 1C 50 63 84 1B 74 18 68 67 61 5F 00 00
  can1  206  [16]  42 64 31 1C 79 63 7F 1B 74 18 68 67 B2 5F 00 00
  can1  206  [16]  6A 64 3D 1C 79 63 73 1B 78 18 90 67 89 5F 00 00"
2025-08-08T21:55:48.659840,25.815,"can1  206  [16]  6A 64 43 1C A1 63 62 1B 7D 18 B9 67 DA 5F 00 00
  can1  206  [16]  C9 63 56 1C A1 63 4B 1B 82 18 90 67 02 60 00 00"
2025-08-08T21:55:48.659840,25.815,can1  206  [16]  C9 63 62 1C F2 63 4B 1B 90 18 09 68 53 60 00 00
2025-08-08T21:55:48.988014,26.143,"can1  206  [16]  A1 63 6E 1C 1A 64 40 1B 99 18 5A 68 CC 60 00 00
  can1  206  [16]  C9 63 7B 1C 6A 64 3A 1B A7 18 31 68 F4 60 00 00
  can1  206  [16]  79 63 94 1C 93 64 34 1B AC 18 82 68 1C 61 00 00"
2025-08-08T21:55:48.992054,26.148,can1  206  [16]  A1 63 8E 1C 0C 65 3A 1B BF 18 AA 68 F4 60 00 00
2025-08-08T21:55:48.992054,26.148,"can1  206  [16]  79 63 A0 1C D5 65 40 1B E9 18 82 68 45 61 00 00
  can1  206  [16]  00 63 9A 1C 26 66 4B 1B F3 18 D3 68 6D 61 00 00
  can1  206  [16]  00 63 A0 1C 26 66 45 1B E5 18 FB 68 F4 60 00 00"
2025-08-08T21:55:48.992054,26.148,can1  206  [16]  36 62 A0 1C 76 66 4B 1B F8 18 23 69 F4 60 00 00
2025-08-08T21:55:49.323679,26.479,"can1  206  [16]  D8 62 94 1C C7 66 51 1B 01 19 23 69 F4 60 00 00
  can1  206  [16]  0E 62 87 1C EF 66 56 1B FD 18 C4 69 7B 60 00 00"
2025-08-08T21:55:49.323679,26.479,"can1  206  [16]  36 62 8E 1C EF 66 5C 1B FD 18 ED 69 53 60 00 00
  can1  206  [16]  BD 61 7B 1C 17 67 62 1B FD 18 66 6A 7B 60 00 00"
2025-08-08T21:55:49.323679,26.479,"can1  206  [16]  E6 61 75 1C 68 67 5C 1B E9 18 8E 6A 2B 60 00 00
  can1  206  [16]  BD 61 7B 1C 68 67 6D 1B EE 18 B6 6A 2B 60 00 00"
2025-08-08T21:55:49.658487,26.814,"can1  206  [16]  45 61 3D 1C 26 66 CB 1B DB 18 66 6A 10 5F 00 00
  can1  206  [16]  0E 62 06 1C D5 65 E8 1B A2 18 3D 6A 98 5E 00 00"
2025-08-08T21:55:49.660503,26.816,"can1  206  [16]  D8 62 F4 1B D5 65 DD 1B 90 18 3D 6A 6F 5E 00 00
  can1  206  [16]  36 62 EE 1B D5 65 E3 1B 8B 18 C4 69 1F 5E 00 00"
2025-08-08T21:55:49.660503,26.816,"can1  206  [16]  36 62 E3 1B E3 64 DD 1B 78 18 4C 69 1F 5E 00 00
  can1  206  [16]  87 62 DD 1B BB 64 E3 1B 7D 18 FB 68 A6 5D 00 00"
2025-08-08T21:55:49.990022,27.146,"can1  206  [16]  5F 62 CB 1B 93 64 E8 1B 5D 18 5A 68 A6 5D 00 00
  can1  206  [16]  D8 62 DD 1B 6A 64 DD 1B 58 18 D3 68 1F 5E 00 00"
2025-08-08T21:55:49.990022,27.146,"can1  206  [16]  C9 63 D7 1B 1A 64 DD 1B 58 18 82 68 1F 5E 00 00
  can1  206  [16]  79 63 E3 1B C9 63 D7 1B 5D 18 31 68 1F 5E 00 00"
2025-08-08T21:55:49.990022,27.146,"can1  206  [16]  0C 65 E3 1B 79 63 CB 1B 58 18 B9 67 47 5E 00 00
  can1  206  [16]  D5 65 E8 1B 00 63 CB 1B 58 18 40 67 1F 5E 00 00"
2025-08-08T21:55:49.990022,27.146,"can1  206  [16]  4E 66 FA 1B 00 63 C5 1B 5D 18 17 67 47 5E 00 00
  can1  206  [16]  C7 66 F4 1B D8 62 C5 1B 5D 18 76 66 6F 5E 00 00"
2025-08-08T21:55:50.310913,27.466,"can1  206  [16]  9F 66 FA 1B D8 62 C5 1B 66 18 4E 66 6F 5E 00 00
  can1  206  [16]  4E 66 06 1C 5F 62 BF 1B 66 18 4E 66 98 5E 00 00"
2025-08-08T21:55:50.314789,27.470,"can1  206  [16]  FD 65 00 1C AF 62 AD 1B 6B 18 FD 65 C0 5E 00 00
  can1  206  [16]  93 64 06 1C AF 62 A7 1B 6F 18 FD 65 E8 5E 00 00"
2025-08-08T21:55:50.314789,27.470,"can1  206  [16]  6A 64 1F 1C AF 62 A2 1B 78 18 76 66 E8 5E 00 00
  can1  206  [16]  42 64 1F 1C D8 62 90 1B 78 18 76 66 E8 5E 00 00"
2025-08-08T21:55:50.647056,27.803,"can1  206  [16]  42 64 1F 1C D8 62 7F 1B 7D 18 4E 66 39 5F 00 00
  can1  206  [16]  F2 63 2B 1C 00 63 7F 1B 82 18 EF 66 61 5F 00 00"
2025-08-08T21:55:50.647056,27.803,"can1  206  [16]  F2 63 3D 1C 79 63 6D 1B 86 18 C7 66 61 5F 00 00
  can1  206  [16]  C9 63 56 1C 1A 64 68 1B 8B 18 68 67 B2 5F 00 00"
2025-08-08T21:55:50.647984,27.803,"can1  206  [16]  F2 63 5C 1C 1A 64 56 1B 90 18 17 67 89 5F 00 00
  can1  206  [16]  1A 64 68 1C 6A 64 45 1B 94 18 68 67 B2 5F 00 00"
2025-08-08T21:55:50.976810,28.132,"can1  206  [16]  C9 63 75 1C 6A 64 40 1B 9E 18 68 67 02 60 00 00
  can1  206  [16]  A1 63 7B 1C E3 64 45 1B A2 18 68 67 7B 60 00 00"
2025-08-08T21:55:50.980834,28.136,"can1  206  [16]  79 63 8E 1C 0C 65 45 1B AC 18 09 68 CC 60 00 00
  can1  206  [16]  28 63 94 1C AD 65 45 1B B5 18 09 68 A3 60 00 00"
2025-08-08T21:55:50.984858,28.140,"can1  206  [16]  28 63 9A 1C 26 66 4B 1B BF 18 09 68 CC 60 00 00
  can1  206  [16]  00 63 A0 1C FD 65 4B 1B C3 18 09 68 A3 60 00 00"
2025-08-08T21:55:51.293027,28.449,"can1  206  [16]  AF 62 9A 1C 9F 66 4B 1B C8 18 82 68 F4 60 00 00
  can1  206  [16]  5F 62 A0 1C EF 66 4B 1B D2 18 82 68 CC 60 00 00"
2025-08-08T21:55:51.297842,28.453,"can1  206  [16]  5F 62 9A 1C 17 67 5C 1B D2 18 AA 68 7B 60 00 00
  can1  206  [16]  BD 61 87 1C 40 67 62 1B CD 18 23 69 7B 60 00 00"
2025-08-08T21:55:51.301590,28.457,"can1  206  [16]  BD 61 87 1C 68 67 73 1B CD 18 C4 69 CC 60 00 00
  can1  206  [16]  87 62 87 1C 90 67 79 1B C8 18 3D 6A CC 60 00 00"
2025-08-08T21:55:51.301590,28.457,"can1  206  [16]  5F 62 81 1C B9 67 79 1B C8 18 3D 6A 2B 60 00 00
  can1  206  [16]  5F 62 6E 1C B9 67 68 1B C3 18 3D 6A 02 60 00 00"
2025-08-08T21:55:51.631310,28.787,"can1  206  [16]  36 62 6E 1C 40 67 73 1B C3 18 B6 6A 02 60 00 00
  can1  206  [16]  BD 61 5C 1C 17 67 73 1B BF 18 8E 6A 7B 60 00 00"
2025-08-08T21:55:51.631310,28.787,"can1  206  [16]  6D 61 0C 1C D5 65 DD 1B A7 18 9C 69 39 5F 00 00
  can1  206  [16]  36 62 E8 1B 0C 65 E8 1B 7D 18 74 69 6F 5E 00 00"
2025-08-08T21:55:51.631310,28.787,"can1  206  [16]  C9 63 E3 1B BB 64 E3 1B 74 18 74 69 6F 5E 00 00
  can1  206  [16]  50 63 D7 1B 6A 64 E3 1B 6F 18 D3 68 47 5E 00 00"
2025-08-08T21:55:51.964491,29.120,"can1  206  [16]  A1 63 D7 1B 1A 64 E3 1B 66 18 82 68 47 5E 00 00
  can1  206  [16]  79 63 D7 1B C9 63 DD 1B 66 18 5A 68 47 5E 00 00"
2025-08-08T21:55:51.967668,29.123,"can1  206  [16]  42 64 E3 1B 79 63 D7 1B 58 18 31 68 47 5E 00 00
  can1  206  [16]  6A 64 E3 1B 28 63 D7 1B 58 18 AA 68 47 5E 00 00"
2025-08-08T21:55:51.967668,29.123,"can1  206  [16]  E3 64 E3 1B 00 63 E3 1B 58 18 09 68 6F 5E 00 00
  can1  206  [16]  0C 65 E8 1B D8 62 E8 1B 54 18 B9 67 6F 5E 00 00"
2025-08-08T21:55:52.282706,29.438,"can1  206  [16]  4E 66 EE 1B 87 62 EE 1B 58 18 68 67 6F 5E 00 00
  can1  206  [16]  4E 66 EE 1B 00 63 E8 1B 5D 18 40 67 98 5E 00 00"
2025-08-08T21:55:52.282706,29.438,"can1  206  [16]  D5 65 00 1C AF 62 E8 1B 66 18 76 66 39 5F 00 00
  can1  206  [16]  FD 65 06 1C AF 62 DD 1B 6F 18 17 67 10 5F 00 00"
2025-08-08T21:55:52.282706,29.438,"can1  206  [16]  FD 65 0C 1C D8 62 D7 1B 6B 18 C7 66 61 5F 00 00
  can1  206  [16]  FD 65 13 1C D8 62 D7 1B 6F 18 76 66 10 5F 00 00"
2025-08-08T21:55:52.614989,29.770,"can1  206  [16]  D5 65 1F 1C 79 63 C5 1B 74 18 9F 66 39 5F 00 00
  can1  206  [16]  26 66 25 1C A1 63 B9 1B 78 18 EF 66 61 5F 00 00"
2025-08-08T21:55:52.614989,29.770,"can1  206  [16]  C7 66 25 1C 79 63 90 1B 6F 18 17 67 61 5F 00 00
  can1  206  [16]  FD 65 37 1C A1 63 73 1B 78 18 40 67 89 5F 00 00"
2025-08-08T21:55:52.614989,29.770,"can1  206  [16]  D5 65 3D 1C A1 63 62 1B 78 18 40 67 61 5F 00 00
  can1  206  [16]  0C 65 56 1C A1 63 5C 1B 78 18 68 67 89 5F 00 00"
2025-08-08T21:55:52.614989,29.770,"can1  206  [16]  4E 66 62 1C C9 63 4B 1B 82 18 90 67 39 5F 00 00
  can1  206  [16]  26 66 6E 1C F2 63 40 1B 94 18 90 67 B2 5F 00 00"
2025-08-08T21:55:52.950543,30.106,"can1  206  [16]  E3 64 81 1C 1A 64 3A 1B 99 18 E1 67 02 60 00 00
  can1  206  [16]  4E 66 94 1C A1 63 3A 1B A2 18 E1 67 CC 60 00 00"
2025-08-08T21:55:52.962855,30.118,"can1  206  [16]  D5 65 87 1C A1 63 34 1B AC 18 90 67 1C 61 00 00
  can1  206  [16]  26 66 94 1C A1 63 3A 1B B5 18 68 67 45 61 00 00"
2025-08-08T21:55:52.962855,30.118,"can1  206  [16]  6A 64 9A 1C 6A 64 3A 1B BF 18 B9 67 BD 61 00 00
  can1  206  [16]  BB 64 68 1C 28 63 3A 1B 82 18 90 67 45 61 00 00"
2025-08-08T21:55:53.263531,30.419,"can1  206  [16]  4E 66 87 1C 28 63 34 1B A2 18 B9 67 1C 61 00 00
  can1  206  [16]  D5 65 94 1C 79 63 3A 1B A2 18 E1 67 1C 61 00 00"
2025-08-08T21:55:53.266851,30.422,"can1  206  [16]  A1 63 94 1C C9 63 3A 1B A7 18 E1 67 95 61 00 00
  can1  206  [16]  6A 64 9A 1C 42 64 3A 1B AC 18 E1 67 95 61 00 00"
2025-08-08T21:55:53.380218,30.536,"can1  206  [16]  50 63 A0 1C BB 64 40 1B BF 18 09 68 6D 61 00 00
  can1  206  [16]  D8 62 9A 1C BB 64 45 1B C8 18 5A 68 F4 60 00 00"
2025-08-08T21:55:53.605008,30.760,"can1  206  [16]  AF 62 9A 1C D5 65 4B 1B BF 18 AA 68 F4 60 00 00
  can1  206  [16]  87 62 9A 1C FD 65 51 1B C8 18 FB 68 F4 60 00 00"
2025-08-08T21:55:53.606530,30.762,"can1  206  [16]  D8 62 9A 1C 26 66 56 1B BA 18 9C 69 CC 60 00 00
  can1  206  [16]  BD 61 8E 1C 26 66 5C 1B C3 18 C4 69 7B 60 00 00"
2025-08-08T21:55:53.607303,30.763,"can1  206  [16]  95 61 6E 1C D5 65 A7 1B B0 18 66 6A B2 5F 00 00
  can1  206  [16]  5F 62 43 1C BB 64 C5 1B 9E 18 3D 6A 39 5F 00 00"
2025-08-08T21:55:53.607303,30.763,"can1  206  [16]  36 62 1F 1C BB 64 C5 1B A2 18 15 6A 10 5F 00 00
  can1  206  [16]  5F 62 1F 1C BB 64 CB 1B 90 18 15 6A C0 5E 00 00"
2025-08-08T21:55:53.931190,31.087,"can1  206  [16]  0E 62 0C 1C BB 64 D7 1B 86 18 9C 69 C0 5E 00 00
  can1  206  [16]  36 62 0C 1C 93 64 E8 1B 78 18 3D 6A C0 5E 00 00"
2025-08-08T21:55:53.933201,31.089,"can1  206  [16]  AF 62 06 1C 1A 64 E8 1B 6F 18 4C 69 47 5E 00 00
  can1  206  [16]  00 63 F4 1B F2 63 EE 1B 66 18 23 69 F6 5D 00 00"
2025-08-08T21:55:53.933201,31.089,"can1  206  [16]  A1 63 E8 1B A1 63 E8 1B 58 18 D3 68 A6 5D 00 00
  can1  206  [16]  A1 63 E3 1B D8 62 E3 1B 5D 18 4C 69 7E 5D 00 00"
2025-08-08T21:55:54.246108,31.402,"can1  206  [16]  F2 63 EE 1B D8 62 E3 1B 54 18 D3 68 7E 5D 00 00
  can1  206  [16]  6A 64 E8 1B 87 62 E3 1B 54 18 AA 68 7E 5D 00 00"
2025-08-08T21:55:54.246108,31.402,"can1  206  [16]  93 64 FA 1B 0E 62 E3 1B 4F 18 5A 68 55 5D 00 00
  can1  206  [16]  93 64 F4 1B E6 61 D7 1B 4F 18 09 68 F6 5D 00 00"
2025-08-08T21:55:54.246108,31.402,"can1  206  [16]  D5 65 06 1C E6 61 D1 1B 58 18 90 67 A6 5D 00 00
  can1  206  [16]  93 64 06 1C BD 61 CB 1B 5D 18 17 67 A6 5D 00 00"
2025-08-08T21:55:54.581298,31.737,"can1  206  [16]  1A 64 19 1C E6 61 E3 1B 5D 18 C7 66 CE 5D 00 00
  can1  206  [16]  D5 65 0C 1C BD 61 E3 1B 6B 18 17 67 CE 5D 00 00"
2025-08-08T21:55:54.581298,31.737,"can1  206  [16]  BB 64 19 1C E6 61 E8 1B 6F 18 EF 66 47 5E 00 00
  can1  206  [16]  6A 64 19 1C E6 61 D7 1B 6B 18 C7 66 1F 5E 00 00"
2025-08-08T21:55:54.581298,31.737,"can1  206  [16]  6A 64 25 1C 36 62 CB 1B 6F 18 26 66 47 5E 00 00
  can1  206  [16]  6A 64 2B 1C 36 62 CB 1B 6B 18 4E 66 39 5F 00 00"
2025-08-08T21:55:54.916411,32.072,"can1  206  [16]  6A 64 31 1C 5F 62 BF 1B 66 18 C7 66 10 5F 00 00
  can1  206  [16]  6A 64 43 1C AF 62 96 1B 74 18 76 66 98 5E 00 00"
2025-08-08T21:55:54.917039,32.073,"can1  206  [16]  6A 64 49 1C 00 63 79 1B 74 18 76 66 C0 5E 00 00
  can1  206  [16]  E3 64 62 1C D8 62 6D 1B 6F 18 17 67 39 5F 00 00"
2025-08-08T21:55:54.917039,32.073,"can1  206  [16]  93 64 6E 1C 79 63 5C 1B 78 18 68 67 39 5F 00 00
  can1  206  [16]  C9 63 6E 1C C9 63 4B 1B 78 18 68 67 89 5F 00 00"
2025-08-08T21:55:54.917039,32.073,"can1  206  [16]  A1 63 8E 1C 42 64 40 1B 86 18 40 67 B2 5F 00 00
  can1  206  [16]  F2 63 87 1C 1A 64 4B 1B 90 18 90 67 02 60 00 00"
2025-08-08T21:55:55.247537,32.403,"can1  206  [16]  93 64 A0 1C 42 64 5C 1B A2 18 E1 67 53 60 00 00
  can1  206  [16]  79 63 A7 1C 93 64 68 1B B0 18 B9 67 F4 60 00 00"
2025-08-08T21:55:55.248047,32.404,"can1  206  [16]  00 63 BA 1C 0C 65 68 1B C3 18 09 68 1C 61 00 00
  can1  206  [16]  AF 62 B3 1C FD 65 6D 1B CD 18 5A 68 45 61 00 00"
2025-08-08T21:55:55.254165,32.410,"can1  206  [16]  D8 62 B3 1C FD 65 73 1B D6 18 FB 68 6D 61 00 00
  can1  206  [16]  5F 62 BA 1C 9F 66 6D 1B D6 18 74 69 1C 61 00 00"
2025-08-08T21:55:55.561251,32.717,"can1  206  [16]  E6 61 B3 1C EF 66 73 1B D6 18 ED 69 F4 60 00 00
  can1  206  [16]  0E 62 A0 1C 17 67 7F 1B E9 18 3D 6A 53 60 00 00"
2025-08-08T21:55:55.594827,32.750,"can1  206  [16]  6D 61 8E 1C 9F 66 B9 1B C3 18 2F 6B 2B 60 00 00
  can1  206  [16]  1C 61 0C 1C 6A 64 25 1C 86 18 15 6A 47 5E 00 00"
2025-08-08T21:55:55.594827,32.750,"can1  206  [16]  E6 61 E3 1B F2 63 FA 1B 61 18 C4 69 47 5E 00 00
  can1  206  [16]  87 62 E8 1B 28 63 D7 1B 5D 18 4C 69 1F 5E 00 00"
2025-08-08T21:55:55.897456,33.053,"can1  206  [16]  50 63 EE 1B AF 62 D1 1B 5D 18 D3 68 47 5E 00 00
  can1  206  [16]  C9 63 EE 1B 87 62 CB 1B 58 18 AA 68 C0 5E 00 00"
2025-08-08T21:55:55.899690,33.055,"can1  206  [16]  F2 63 00 1C 0E 62 CB 1B 54 18 82 68 6F 5E 00 00
  can1  206  [16]  F2 63 06 1C 0E 62 DD 1B 58 18 5A 68 98 5E 00 00"
2025-08-08T21:55:55.899690,33.055,"can1  206  [16]  6A 64 06 1C 0E 62 DD 1B 61 18 09 68 98 5E 00 00
  can1  206  [16]  1A 64 19 1C E6 61 D7 1B 5D 18 E1 67 C0 5E 00 00"
2025-08-08T21:55:56.227464,33.383,"can1  206  [16]  1A 64 13 1C E6 61 B9 1B 66 18 90 67 98 5E 00 00
  can1  206  [16]  BB 64 1F 1C 36 62 A2 1B 6F 18 90 67 E8 5E 00 00"
2025-08-08T21:55:56.227464,33.383,"can1  206  [16]  BB 64 1F 1C 36 62 96 1B 6F 18 68 67 89 5F 00 00
  can1  206  [16]  FD 65 25 1C 36 62 8A 1B 78 18 68 67 39 5F 00 00"
2025-08-08T21:55:56.227464,33.383,"can1  206  [16]  D5 65 3D 1C D8 62 79 1B 99 18 68 67 39 5F 00 00
  can1  206  [16]  6A 64 43 1C 5F 62 73 1B 7D 18 90 67 39 5F 00 00"
2025-08-08T21:55:56.227464,33.383,"can1  206  [16]  0C 65 50 1C 5F 62 68 1B 7D 18 B9 67 39 5F 00 00
  can1  206  [16]  1A 64 56 1C D8 62 5C 1B 82 18 E1 67 B2 5F 00 00"
2025-08-08T21:55:56.544920,33.700,"can1  206  [16]  6A 64 68 1C 00 63 4B 1B 86 18 90 67 B2 5F 00 00
  can1  206  [16]  D5 65 75 1C D8 62 4B 1B 86 18 B9 67 02 60 00 00"
2025-08-08T21:55:56.544920,33.700,"can1  206  [16]  1A 64 8E 1C 00 63 56 1B 94 18 E1 67 2B 60 00 00
  can1  206  [16]  0C 65 94 1C 00 63 4B 1B A2 18 E1 67 7B 60 00 00"
2025-08-08T21:55:56.544920,33.700,"can1  206  [16]  F2 63 A7 1C 79 63 40 1B A7 18 82 68 1C 61 00 00
  can1  206  [16]  1A 64 A7 1C C9 63 3A 1B B0 18 AA 68 1C 61 00 00"
2025-08-08T21:55:56.878071,34.034,"can1  206  [16]  6A 64 A7 1C 42 64 3A 1B BA 18 D3 68 5F 62 00 00
  can1  206  [16]  AD 65 68 1C 50 63 3A 1B 86 18 82 68 CC 60 00 00"
2025-08-08T21:55:56.878071,34.034,"can1  206  [16]  C9 63 8E 1C 79 63 3A 1B B0 18 82 68 CC 60 00 00
  can1  206  [16]  93 64 9A 1C 79 63 3A 1B CD 18 AA 68 1C 61 00 00"
2025-08-08T21:55:56.878071,34.034,"can1  206  [16]  A1 63 A7 1C 79 63 40 1B C3 18 09 68 45 61 00 00
  can1  206  [16]  C9 63 BA 1C C9 63 34 1B DB 18 31 68 45 61 00 00"
2025-08-08T21:55:57.212225,34.368,"can1  206  [16]  28 63 C0 1C 1A 64 3A 1B E9 18 AA 68 6D 61 00 00
  can1  206  [16]  00 63 AD 1C 6A 64 3A 1B EE 18 82 68 6D 61 00 00"
2025-08-08T21:55:57.212225,34.368,"can1  206  [16]  00 63 B3 1C 6A 64 40 1B F3 18 FB 68 95 61 00 00
  can1  206  [16]  00 63 B3 1C BB 64 3A 1B EE 18 FB 68 F4 60 00 00"
2025-08-08T21:55:57.214245,34.370,"can1  206  [16]  28 63 AD 1C E3 64 45 1B EE 18 23 69 6D 61 00 00
  can1  206  [16]  D8 62 AD 1C D5 65 45 1B F8 18 9C 69 45 61 00 00"
2025-08-08T21:55:57.558998,34.714,"can1  206  [16]  E6 61 9A 1C D5 65 4B 1B FD 18 ED 69 45 61 00 00
  can1  206  [16]  BD 61 9A 1C 76 66 51 1B F3 18 66 6A 1C 61 00 00"
2025-08-08T21:55:57.558998,34.714,"can1  206  [16]  6D 61 6E 1C FD 65 A7 1B DB 18 8E 6A 02 60 00 00
  can1  206  [16]  0E 62 31 1C FD 65 BF 1B C3 18 3D 6A B2 5F 00 00"
2025-08-08T21:55:57.558998,34.714,"can1  206  [16]  87 62 19 1C D5 65 C5 1B B0 18 8E 6A 89 5F 00 00
  can1  206  [16]  28 63 19 1C 34 65 D7 1B 8B 18 8E 6A 10 5F 00 00"
2025-08-08T21:55:57.863179,35.019,"can1  206  [16]  50 63 06 1C E3 64 D7 1B 74 18 8E 6A 10 5F 00 00
  can1  206  [16]  C9 63 FA 1B 93 64 DD 1B 6B 18 3D 6A 6F 5E 00 00"
2025-08-08T21:55:57.863690,35.019,"can1  206  [16]  A1 63 EE 1B 6A 64 E3 1B 61 18 ED 69 6F 5E 00 00
  can1  206  [16]  1A 64 E8 1B 1A 64 E3 1B 58 18 C4 69 98 5E 00 00
  can1  206  [16]  1A 64 E3 1B C9 63 DD 1B 54 18 C4 69 98 5E 00 00"
2025-08-08T21:55:57.863690,35.019,"can1  206  [16]  BB 64 E8 1B 79 63 CB 1B 4F 18 74 69 98 5E 00 00
  can1  206  [16]  0C 65 EE 1B 28 63 BF 1B 4A 18 82 68 C0 5E 00 00"
2025-08-08T21:55:57.863690,35.019,"can1  206  [16]  6A 64 F4 1B 00 63 B3 1B 4A 18 31 68 47 5E 00 00
  can1  206  [16]  42 64 00 1C D8 62 AD 1B 4A 18 B9 67 47 5E 00 00"
2025-08-08T21:55:58.194509,35.350,"can1  206  [16]  6A 64 06 1C AF 62 AD 1B 4A 18 68 67 98 5E 00 00
  can1  206  [16]  4E 66 06 1C AF 62 B9 1B 54 18 40 67 C0 5E 00 00"
2025-08-08T21:55:58.194509,35.350,"can1  206  [16]  93 64 13 1C D8 62 BF 1B 54 18 EF 66 E8 5E 00 00
  can1  206  [16]  93 64 13 1C 50 63 B3 1B 58 18 EF 66 39 5F 00 00"
2025-08-08T21:55:58.194509,35.350,"can1  206  [16]  93 64 19 1C 79 63 AD 1B 58 18 C7 66 39 5F 00 00
  can1  206  [16]  93 64 2B 1C 50 63 A2 1B 5D 18 C7 66 39 5F 00 00"
2025-08-08T21:55:58.514538,35.670,can1  206  [16]  E3 64 37 1C 79 63 96 1B 66 18 76 66 10 5F 00 00
2025-08-08T21:55:58.520793,35.676,"can1  206  [16]  93 64 3D 1C 79 63 84 1B 66 18 C7 66 39 5F 00 00
  can1  206  [16]  6A 64 37 1C A1 63 73 1B 6B 18 C7 66 39 5F 00 00
  can1  206  [16]  93 64 49 1C 79 63 62 1B 74 18 17 67 02 60 00 00"
2025-08-08T21:55:58.520793,35.676,can1  206  [16]  26 66 56 1C F2 63 6D 1B 78 18 9F 66 89 5F 00 00
2025-08-08T21:55:58.845661,36.001,"can1  206  [16]  D5 65 62 1C F2 63 68 1B 7D 18 76 66 02 60 00 00
  can1  206  [16]  1A 64 75 1C 1A 64 56 1B 86 18 C7 66 53 60 00 00"
2025-08-08T21:55:58.845661,36.001,"can1  206  [16]  A1 63 8E 1C F2 63 51 1B 86 18 17 67 7B 60 00 00
  can1  206  [16]  1A 64 94 1C 1A 64 40 1B 99 18 EF 66 53 60 00 00
  can1  206  [16]  93 64 A7 1C 6A 64 45 1B A2 18 17 67 A3 60 00 00"
2025-08-08T21:55:58.845661,36.001,"can1  206  [16]  1A 64 BA 1C 93 64 4B 1B B5 18 17 67 1C 61 00 00
  can1  206  [16]  C9 63 AD 1C BB 64 4B 1B B5 18 90 67 95 61 00 00"
2025-08-08T21:55:59.181835,36.337,"can1  206  [16]  E3 64 AD 1C 0C 65 62 1B BA 18 90 67 6D 61 00 00
  can1  206  [16]  42 64 BA 1C FD 65 79 1B C3 18 B9 67 45 61 00 00"
2025-08-08T21:55:59.181835,36.337,"can1  206  [16]  93 64 BA 1C FD 65 73 1B C8 18 31 68 45 61 00 00
  can1  206  [16]  F2 63 B3 1C 76 66 73 1B D2 18 82 68 45 61 00 00"
2025-08-08T21:55:59.181835,36.337,"can1  206  [16]  D8 62 A0 1C 9F 66 73 1B D2 18 D3 68 1C 61 00 00
  can1  206  [16]  C9 63 A0 1C C7 66 73 1B D2 18 FB 68 1C 61 00 00"
2025-08-08T21:55:59.181835,36.337,"can1  206  [16]  D8 62 94 1C 26 66 79 1B C8 18 74 69 CC 60 00 00
  can1  206  [16]  D8 62 9A 1C FD 65 8A 1B C8 18 C4 69 CC 60 00 00"
2025-08-08T21:55:59.513956,36.669,"can1  206  [16]  36 62 87 1C FD 65 90 1B C3 18 ED 69 7B 60 00 00
  can1  206  [16]  95 61 49 1C 6A 64 E8 1B BF 18 9C 69 B2 5F 00 00"
2025-08-08T21:55:59.513956,36.669,"can1  206  [16]  50 63 0C 1C 1A 64 FA 1B 90 18 D3 68 C0 5E 00 00
  can1  206  [16]  28 63 06 1C 1A 64 FA 1B 86 18 AA 68 98 5E 00 00"
2025-08-08T21:55:59.513956,36.669,"can1  206  [16]  93 64 EE 1B C9 63 FA 1B 7D 18 FB 68 F6 5D 00 00
  can1  206  [16]  BB 64 E3 1B 79 63 DD 1B 6F 18 AA 68 7E 5D 00 00"
2025-08-08T21:55:59.850379,37.006,"can1  206  [16]  4E 66 E8 1B 28 63 D7 1B 74 18 FB 68 2D 5D 00 00
  can1  206  [16]  6A 64 DD 1B 00 63 D1 1B 5D 18 FB 68 7E 5D 00 00"
2025-08-08T21:55:59.855619,37.011,"can1  206  [16]  4E 66 DD 1B AF 62 CB 1B 58 18 82 68 55 5D 00 00
  can1  206  [16]  9F 66 DD 1B 36 62 C5 1B 54 18 09 68 2D 5D 00 00"
2025-08-08T21:55:59.855619,37.011,"can1  206  [16]  17 67 E3 1B 0E 62 C5 1B 54 18 E1 67 55 5D 00 00
  can1  206  [16]  B9 67 E8 1B BD 61 E3 1B 4F 18 90 67 2D 5D 00 00"
2025-08-08T21:56:00.182272,37.338,can1  206  [16]  31 68 E3 1B E6 61 F4 1B 54 18 40 67 A6 5D 00 00
2025-08-08T21:56:00.182272,37.338,"can1  206  [16]  E1 67 F4 1B 6D 61 CB 1B 78 18 FD 65 6F 5E 00 00
  can1  206  [16]  68 67 68 1C 36 62 AD 1B 7D 18 9F 66 E8 5E 00 00
  can1  206  [16]  4E 66 62 1C 36 62 A2 1B 7D 18 EF 66 10 5F 00 00"
2025-08-08T21:56:00.184286,37.340,can1  206  [16]  40 67 68 1C 5F 62 84 1B 82 18 17 67 10 5F 00 00
2025-08-08T21:56:00.185282,37.341,"can1  206  [16]  9F 66 7B 1C AF 62 79 1B 90 18 17 67 89 5F 00 00
  can1  206  [16]  C7 66 94 1C AF 62 79 1B 9E 18 68 67 B2 5F 00 00"
2025-08-08T21:56:00.515337,37.671,"can1  206  [16]  26 66 94 1C D8 62 73 1B A7 18 68 67 02 60 00 00
  can1  206  [16]  BB 64 9A 1C 28 63 62 1B B0 18 68 67 02 60 00 00"
2025-08-08T21:56:00.515337,37.671,"can1  206  [16]  D5 65 9A 1C 79 63 56 1B B5 18 B9 67 53 60 00 00
  can1  206  [16]  4E 66 A0 1C F2 63 51 1B C3 18 E1 67 7B 60 00 00"
2025-08-08T21:56:00.515337,37.671,"can1  206  [16]  6A 64 AD 1C 6A 64 56 1B C8 18 B9 67 53 60 00 00
  can1  206  [16]  42 64 9A 1C 6A 64 51 1B D2 18 31 68 7B 60 00 00"
2025-08-08T21:56:00.848062,38.004,"can1  206  [16]  6A 64 9A 1C BB 64 62 1B D2 18 82 68 53 60 00 00
  can1  206  [16]  6A 64 9A 1C 0C 65 73 1B D6 18 FB 68 A3 60 00 00"
2025-08-08T21:56:00.848062,38.004,"can1  206  [16]  F2 63 8E 1C FD 65 7F 1B D2 18 74 69 53 60 00 00
  can1  206  [16]  00 63 94 1C D5 65 79 1B CD 18 9C 69 7B 60 00 00"
2025-08-08T21:56:00.848062,38.004,"can1  206  [16]  F2 63 87 1C D5 65 79 1B C8 18 ED 69 2B 60 00 00
  can1  206  [16]  28 63 7B 1C 26 66 68 1B BF 18 66 6A 02 60 00 00
  can1  206  [16]  28 63 7B 1C D5 65 5C 1B BA 18 66 6A 02 60 00 00"
2025-08-08T21:56:01.183015,38.338,can1  206  [16]  28 63 6E 1C E3 64 62 1B B0 18 B6 6A 02 60 00 00
2025-08-08T21:56:01.183015,38.338,"can1  206  [16]  F2 63 68 1C BB 64 62 1B B0 18 8E 6A B2 5F 00 00
  can1  206  [16]  C9 63 68 1C 1A 64 73 1B AC 18 3D 6A B2 5F 00 00"
2025-08-08T21:56:01.183015,38.338,"can1  206  [16]  1A 64 50 1C 6A 64 96 1B A7 18 15 6A 89 5F 00 00
  can1  206  [16]  28 63 49 1C 6A 64 A7 1B A2 18 3D 6A 39 5F 00 00
  can1  206  [16]  00 63 37 1C 42 64 AD 1B A2 18 ED 69 B2 5F 00 00"
2025-08-08T21:56:01.183015,38.338,"can1  206  [16]  28 63 31 1C 42 64 B3 1B 9E 18 ED 69 89 5F 00 00
  can1  206  [16]  A1 63 13 1C 6A 64 BF 1B 94 18 74 69 39 5F 00 00"
2025-08-08T21:56:01.513902,38.669,"can1  206  [16]  6A 64 FA 1B 42 64 B9 1B 8B 18 FB 68 98 5E 00 00
  can1  206  [16]  42 64 FA 1B 1A 64 BF 1B 82 18 9C 69 47 5E 00 00"
2025-08-08T21:56:01.513902,38.669,can1  206  [16]  BB 64 EE 1B C9 63 D1 1B 7D 18 74 69 47 5E 00 00
2025-08-08T21:56:01.516440,38.672,"can1  206  [16]  F2 63 E3 1B 79 63 E8 1B 74 18 4C 69 6F 5E 00 00
  can1  206  [16]  E3 64 DD 1B 28 63 D7 1B 6B 18 23 69 98 5E 00 00
  can1  206  [16]  79 63 D1 1B D8 62 E3 1B 61 18 D3 68 98 5E 00 00"
2025-08-08T21:56:01.847145,39.003,"can1  206  [16]  F2 63 DD 1B 87 62 E3 1B 58 18 5A 68 98 5E 00 00
  can1  206  [16]  BB 64 DD 1B 36 62 D7 1B 4F 18 68 67 6F 5E 00 00"
2025-08-08T21:56:01.847145,39.003,"can1  206  [16]  6A 64 D7 1B 95 61 BF 1B 66 18 0C 65 C0 5E 00 00
  can1  206  [16]  42 64 31 1C 45 61 62 1B 9E 18 9F 66 7B 60 00 00"
2025-08-08T21:56:01.847145,39.003,"can1  206  [16]  D5 65 B3 1C D8 62 3A 1B A7 18 40 67 6D 61 00 00
  can1  206  [16]  E3 64 A0 1C 00 63 3A 1B AC 18 E1 67 45 61 00 00"
2025-08-08T21:56:02.179470,39.335,"can1  206  [16]  F2 63 9A 1C A1 63 40 1B BF 18 90 67 6D 61 00 00
  can1  206  [16]  50 63 A0 1C 42 64 40 1B BF 18 09 68 6D 61 00 00"
2025-08-08T21:56:02.186623,39.342,"can1  206  [16]  50 63 9A 1C 42 64 4B 1B C8 18 5A 68 BD 61 00 00
  can1  206  [16]  E3 64 75 1C 50 63 34 1B A2 18 90 67 45 61 00 00"
2025-08-08T21:56:02.186623,39.342,"can1  206  [16]  A1 63 8E 1C 79 63 34 1B AC 18 90 67 6D 61 00 00
  can1  206  [16]  BB 64 94 1C 79 63 3A 1B B5 18 B9 67 6D 61 00 00"
2025-08-08T21:56:02.510528,39.666,"can1  206  [16]  28 63 9A 1C C9 63 51 1B C3 18 B9 67 6D 61 00 00
  can1  206  [16]  D8 62 8E 1C 1A 64 56 1B C8 18 31 68 6D 61 00 00"
2025-08-08T21:56:02.510528,39.666,"can1  206  [16]  D8 62 8E 1C 6A 64 68 1B C3 18 5A 68 95 61 00 00
  can1  206  [16]  28 63 81 1C 6A 64 62 1B C8 18 AA 68 6D 61 00 00"
2025-08-08T21:56:02.510528,39.666,"can1  206  [16]  00 63 7B 1C 93 64 5C 1B CD 18 9C 69 45 61 00 00
  can1  206  [16]  E6 61 68 1C BB 64 62 1B CD 18 74 69 6D 61 00 00"
2025-08-08T21:56:02.510528,39.666,"can1  206  [16]  0E 62 6E 1C BB 64 6D 1B C8 18 ED 69 6D 61 00 00
  can1  206  [16]  E6 61 62 1C BB 64 6D 1B BF 18 ED 69 45 61 00 00"
2025-08-08T21:56:02.833310,39.989,"can1  206  [16]  BD 61 68 1C 93 64 79 1B BA 18 3D 6A 1C 61 00 00
  can1  206  [16]  AF 62 5C 1C BB 64 84 1B BA 18 8E 6A F4 60 00 00"
2025-08-08T21:56:02.839336,39.995,"can1  206  [16]  AF 62 5C 1C 6A 64 79 1B BF 18 3D 6A CC 60 00 00
  can1  206  [16]  BD 61 5C 1C 42 64 7F 1B B5 18 66 6A CC 60 00 00"
2025-08-08T21:56:02.839336,39.995,"can1  206  [16]  0E 62 50 1C 93 64 96 1B B0 18 3D 6A F4 60 00 00
  can1  206  [16]  E6 61 37 1C 1A 64 A7 1B AC 18 3D 6A 7B 60 00 00"
2025-08-08T21:56:03.162328,40.318,"can1  206  [16]  5F 62 25 1C 1A 64 AD 1B A7 18 ED 69 7B 60 00 00
  can1  206  [16]  D8 62 1F 1C F2 63 BF 1B A2 18 C4 69 2B 60 00 00"
2025-08-08T21:56:03.162328,40.318,"can1  206  [16]  87 62 19 1C F2 63 C5 1B 9E 18 23 69 02 60 00 00
  can1  206  [16]  36 62 00 1C A1 63 DD 1B 99 18 FB 68 DA 5F 00 00"
2025-08-08T21:56:03.162328,40.318,"can1  206  [16]  C9 63 FA 1B 79 63 D7 1B 8B 18 82 68 39 5F 00 00
  can1  206  [16]  D8 62 E8 1B 79 63 DD 1B 82 18 AA 68 E8 5E 00 00"
2025-08-08T21:56:03.493202,40.649,"can1  206  [16]  79 63 D7 1B 50 63 E8 1B 78 18 82 68 C0 5E 00 00
  can1  206  [16]  F2 63 CB 1B D8 62 E8 1B 66 18 FB 68 98 5E 00 00"
2025-08-08T21:56:03.493202,40.649,"can1  206  [16]  D8 62 D7 1B 87 62 E8 1B 66 18 AA 68 98 5E 00 00
  can1  206  [16]  42 64 C5 1B 36 62 DD 1B 5D 18 5A 68 47 5E 00 00"
2025-08-08T21:56:03.493202,40.649,"can1  206  [16]  42 64 D1 1B 0E 62 DD 1B 54 18 82 68 6F 5E 00 00
  can1  206  [16]  BB 64 D7 1B E6 61 D7 1B 54 18 31 68 98 5E 00 00"
2025-08-08T21:56:03.810488,40.966,"can1  206  [16]  1A 64 DD 1B 95 61 BF 1B 74 18 FD 65 61 5F 00 00
  can1  206  [16]  1A 64 25 1C 6D 61 56 1B A7 18 17 67 F4 60 00 00"
2025-08-08T21:56:03.810488,40.966,"can1  206  [16]  AF 62 A7 1C 28 63 45 1B B0 18 90 67 6D 61 00 00
  can1  206  [16]  00 63 9A 1C C9 63 40 1B B5 18 E1 67 BD 61 00 00"
2025-08-08T21:56:03.810488,40.966,can1  206  [16]  1A 64 5C 1C D8 62 40 1B 86 18 B9 67 1C 61 00 00
2025-08-08T21:56:03.810488,40.966,"can1  206  [16]  6A 64 81 1C 00 63 40 1B 99 18 B9 67 45 61 00 00
  can1  206  [16]  6A 64 87 1C D8 62 40 1B A2 18 68 67 6D 61 00 00
  can1  206  [16]  E3 64 8E 1C 28 63 40 1B B0 18 68 67 6D 61 00 00"
2025-08-08T21:56:04.144348,41.300,"can1  206  [16]  93 64 94 1C 79 63 3A 1B B5 18 B9 67 BD 61 00 00
  can1  206  [16]  E3 64 49 1C D8 62 3A 1B 82 18 C7 66 F4 60 00 00"
2025-08-08T21:56:04.144348,41.300,"can1  206  [16]  4E 66 6E 1C AF 62 45 1B 99 18 C7 66 1C 61 00 00
  can1  206  [16]  D5 65 87 1C 00 63 40 1B A2 18 C7 66 F4 60 00 00"
2025-08-08T21:56:04.144348,41.300,"can1  206  [16]  BB 64 81 1C 79 63 40 1B AC 18 90 67 1C 61 00 00
  can1  206  [16]  E3 64 94 1C 79 63 40 1B BA 18 68 67 6D 61 00 00"
2025-08-08T21:56:04.477142,41.633,"can1  206  [16]  0C 65 A0 1C C9 63 45 1B C8 18 E1 67 BD 61 00 00
  can1  206  [16]  E1 67 56 1C D8 62 56 1B 99 18 68 67 F4 60 00 00"
2025-08-08T21:56:04.479177,41.635,"can1  206  [16]  76 66 7B 1C D8 62 68 1B AC 18 40 67 F4 60 00 00
  can1  206  [16]  9F 66 8E 1C 28 63 6D 1B B5 18 B9 67 1C 61 00 00"
2025-08-08T21:56:04.479177,41.635,"can1  206  [16]  26 66 8E 1C A1 63 68 1B BF 18 90 67 45 61 00 00
  can1  206  [16]  26 66 94 1C C9 63 68 1B CD 18 E1 67 1C 61 00 00"
2025-08-08T21:56:04.793067,41.949,"can1  206  [16]  FD 65 9A 1C 6A 64 68 1B D2 18 E1 67 E6 61 00 00
  can1  206  [16]  26 66 62 1C 50 63 5C 1B 99 18 90 67 7B 60 00 00"
2025-08-08T21:56:04.793067,41.949,"can1  206  [16]  D5 65 7B 1C 79 63 5C 1B AC 18 90 67 CC 60 00 00
  can1  206  [16]  93 64 8E 1C C9 63 62 1B B5 18 B9 67 1C 61 00 00"
2025-08-08T21:56:04.793067,41.949,"can1  206  [16]  0C 65 8E 1C C9 63 68 1B C3 18 82 68 1C 61 00 00
  can1  206  [16]  BB 64 9A 1C 1A 64 6D 1B CD 18 AA 68 45 61 00 00"
2025-08-08T21:56:05.129623,42.285,"can1  206  [16]  0C 65 A0 1C 93 64 6D 1B CD 18 FB 68 1C 61 00 00
  can1  206  [16]  D5 65 9A 1C 93 64 6D 1B D6 18 23 69 45 61 00 00"
2025-08-08T21:56:05.131713,42.287,"can1  206  [16]  A1 63 A7 1C E3 64 6D 1B CD 18 15 6A 45 61 00 00
  can1  206  [16]  28 63 94 1C E3 64 79 1B DB 18 15 6A 45 61 00 00"
2025-08-08T21:56:05.132754,42.288,"can1  206  [16]  50 63 87 1C 34 65 79 1B DB 18 8E 6A 6D 61 00 00
  can1  206  [16]  D8 62 81 1C FD 65 84 1B D2 18 B6 6A 45 61 00 00"
2025-08-08T21:56:05.133791,42.289,"can1  206  [16]  D8 62 7B 1C 26 66 84 1B D2 18 DE 6A CC 60 00 00
  can1  206  [16]  87 62 75 1C 26 66 84 1B D2 18 07 6B A3 60 00 00"
2025-08-08T21:56:05.461670,42.617,can1  206  [16]  45 61 43 1C 6A 64 EE 1B BA 18 B6 6A B2 5F 00 00
2025-08-08T21:56:05.461670,42.617,"can1  206  [16]  BD 61 0C 1C F2 63 FA 1B A2 18 8E 6A 39 5F 00 00
  can1  206  [16]  87 62 FA 1B F2 63 0C 1C 94 18 3D 6A 98 5E 00 00"
2025-08-08T21:56:05.461670,42.617,"can1  206  [16]  36 62 E8 1B A1 63 13 1C 86 18 15 6A 6F 5E 00 00
  can1  206  [16]  5F 62 E3 1B A1 63 13 1C 74 18 3D 6A 98 5E 00 00"
2025-08-08T21:56:05.778973,42.934,"can1  206  [16]  87 62 D7 1B 28 63 13 1C 74 18 ED 69 6F 5E 00 00
  can1  206  [16]  87 62 E3 1B D8 62 13 1C 6F 18 C4 69 6F 5E 00 00"
2025-08-08T21:56:05.778973,42.934,"can1  206  [16]  D8 62 D7 1B D8 62 0C 1C 66 18 4C 69 1F 5E 00 00
  can1  206  [16]  50 63 DD 1B 36 62 0C 1C 61 18 9C 69 47 5E 00 00
  can1  206  [16]  79 63 E3 1B 36 62 00 1C 5D 18 AA 68 6F 5E 00 00"
2025-08-08T21:56:05.778973,42.934,can1  206  [16]  C9 63 E8 1B BD 61 FA 1B 58 18 D3 68 47 5E 00 00
2025-08-08T21:56:06.115014,43.270,"can1  206  [16]  F2 63 EE 1B 95 61 D7 1B 7D 18 EF 66 10 5F 00 00
  can1  206  [16]  1A 64 37 1C 36 62 AD 1B 7D 18 17 67 39 5F 00 00"
2025-08-08T21:56:06.117025,43.273,"can1  206  [16]  F2 63 49 1C 87 62 90 1B 86 18 17 67 89 5F 00 00
  can1  206  [16]  C9 63 56 1C AF 62 79 1B 8B 18 40 67 DA 5F 00 00"
2025-08-08T21:56:06.117821,43.273,"can1  206  [16]  F2 63 5C 1C AF 62 68 1B 94 18 68 67 53 60 00 00
  can1  206  [16]  F2 63 6E 1C D8 62 5C 1B 9E 18 68 67 2B 60 00 00
  can1  206  [16]  79 63 6E 1C AF 62 68 1B A2 18 09 68 CC 60 00 00"
2025-08-08T21:56:06.451146,43.607,can1  206  [16]  50 63 7B 1C AF 62 62 1B A7 18 31 68 45 61 00 00
2025-08-08T21:56:06.451146,43.607,"can1  206  [16]  28 63 9A 1C 28 63 6D 1B B5 18 31 68 6D 61 00 00
  can1  206  [16]  28 63 9A 1C D8 62 68 1B BF 18 AA 68 6D 61 00 00"
2025-08-08T21:56:06.451146,43.607,"can1  206  [16]  00 63 94 1C 79 63 68 1B C3 18 5A 68 95 61 00 00
  can1  206  [16]  28 63 A7 1C A1 63 6D 1B CD 18 FB 68 BD 61 00 00
  can1  206  [16]  1A 64 6E 1C D8 62 68 1B 99 18 82 68 45 61 00 00"
2025-08-08T21:56:06.451146,43.607,"can1  206  [16]  1A 64 87 1C 5F 62 68 1B A7 18 31 68 BD 61 00 00
  can1  206  [16]  BB 64 31 1C E6 61 8A 1B 78 18 B9 67 53 60 00 00"
2025-08-08T21:56:06.786196,43.942,"can1  206  [16]  6A 64 62 1C E6 61 7F 1B 86 18 B9 67 53 60 00 00
  can1  206  [16]  93 64 7B 1C 36 62 73 1B 94 18 E1 67 7B 60 00 00"
2025-08-08T21:56:06.786196,43.942,can1  206  [16]  6A 64 7B 1C D8 62 6D 1B 9E 18 E1 67 CC 60 00 00
2025-08-08T21:56:06.788915,43.944,"can1  206  [16]  42 64 8E 1C D8 62 62 1B A7 18 B9 67 CC 60 00 00
  can1  206  [16]  A1 63 9A 1C D8 62 62 1B A2 18 B9 67 F4 60 00 00
  can1  206  [16]  42 64 A0 1C 00 63 5C 1B A2 18 B9 67 1C 61 00 00"
2025-08-08T21:56:07.117972,44.273,"can1  206  [16]  42 64 A0 1C 50 63 73 1B AC 18 E1 67 6D 61 00 00
  can1  206  [16]  C9 63 A0 1C F2 63 73 1B B0 18 31 68 BD 61 00 00"
2025-08-08T21:56:07.121051,44.277,"can1  206  [16]  E3 64 75 1C 28 63 40 1B 94 18 90 67 45 61 00 00
  can1  206  [16]  6A 64 94 1C 00 63 40 1B A2 18 90 67 45 61 00 00"
2025-08-08T21:56:07.121051,44.277,"can1  206  [16]  BB 64 94 1C 79 63 3A 1B B0 18 E1 67 45 61 00 00
  can1  206  [16]  93 64 A7 1C F2 63 3A 1B B5 18 09 68 6D 61 00 00"
2025-08-08T21:56:07.438368,44.594,"can1  206  [16]  1A 64 A7 1C 1A 64 40 1B B5 18 31 68 95 61 00 00
  can1  206  [16]  1A 64 AD 1C 6A 64 4B 1B C8 18 31 68 6D 61 00 00"
2025-08-08T21:56:07.440255,44.596,"can1  206  [16]  1A 64 B3 1C 6A 64 51 1B D2 18 D3 68 BD 61 00 00
  can1  206  [16]  BB 64 94 1C 79 63 40 1B 9E 18 B9 67 45 61 00 00"
2025-08-08T21:56:07.440255,44.596,"can1  206  [16]  6A 64 AD 1C 6A 64 45 1B B5 18 B9 67 45 61 00 00
  can1  206  [16]  6A 64 9A 1C BB 64 5C 1B C3 18 09 68 45 61 00 00"
2025-08-08T21:56:07.444346,44.600,"can1  206  [16]  42 64 9A 1C 0C 65 73 1B C8 18 31 68 6D 61 00 00
  can1  206  [16]  F2 63 AD 1C FD 65 73 1B D6 18 5A 68 95 61 00 00"
2025-08-08T21:56:07.768436,44.924,"can1  206  [16]  C9 63 A0 1C 76 66 6D 1B DB 18 31 68 BD 61 00 00
  can1  206  [16]  0C 65 8E 1C FD 65 4B 1B AC 18 90 67 45 61 00 00"
2025-08-08T21:56:07.768436,44.924,"can1  206  [16]  0C 65 9A 1C 26 66 56 1B BF 18 68 67 45 61 00 00
  can1  206  [16]  1A 64 9A 1C 4E 66 62 1B C8 18 68 67 45 61 00 00"
2025-08-08T21:56:07.768436,44.924,"can1  206  [16]  F2 63 A0 1C 76 66 68 1B D6 18 90 67 6D 61 00 00
  can1  206  [16]  42 64 A0 1C EF 66 73 1B DB 18 09 68 6D 61 00 00"
2025-08-08T21:56:08.104504,45.260,"can1  206  [16]  6A 64 94 1C 17 67 79 1B D6 18 82 68 6D 61 00 00
  can1  206  [16]  79 63 94 1C 17 67 5C 1B E0 18 FB 68 6D 61 00 00"
2025-08-08T21:56:08.106520,45.262,"can1  206  [16]  1A 64 94 1C 40 67 62 1B DB 18 4C 69 45 61 00 00
  can1  206  [16]  79 63 87 1C 68 67 62 1B D6 18 9C 69 45 61 00 00"
2025-08-08T21:56:08.107834,45.263,"can1  206  [16]  28 63 8E 1C 90 67 68 1B D6 18 9C 69 1C 61 00 00
  can1  206  [16]  00 63 81 1C 68 67 62 1B CD 18 15 6A CC 60 00 00"
2025-08-08T21:56:08.424637,45.580,"can1  206  [16]  50 63 81 1C 90 67 68 1B CD 18 3D 6A CC 60 00 00
  can1  206  [16]  AF 62 6E 1C 9F 66 73 1B C3 18 66 6A 7B 60 00 00"
2025-08-08T21:56:08.425672,45.581,"can1  206  [16]  87 62 62 1C 76 66 79 1B BF 18 B6 6A A3 60 00 00
  can1  206  [16]  AF 62 62 1C 4E 66 84 1B BF 18 DE 6A 2B 60 00 00"
2025-08-08T21:56:08.431686,45.587,"can1  206  [16]  87 62 56 1C FD 65 9C 1B BA 18 DE 6A 53 60 00 00
  can1  206  [16]  50 63 5C 1C 26 66 A2 1B BA 18 8E 6A 2B 60 00 00"
2025-08-08T21:56:08.756115,45.912,"can1  206  [16]  E6 61 49 1C FD 65 AD 1B B5 18 3D 6A 02 60 00 00
  can1  206  [16]  E6 61 31 1C 0C 65 B9 1B A7 18 ED 69 02 60 00 00"
2025-08-08T21:56:08.756115,45.912,"can1  206  [16]  36 62 25 1C 0C 65 BF 1B A2 18 ED 69 B2 5F 00 00
  can1  206  [16]  E6 61 13 1C E3 64 C5 1B 99 18 3D 6A B2 5F 00 00"
2025-08-08T21:56:08.756115,45.912,"can1  206  [16]  0E 62 06 1C E3 64 CB 1B 9E 18 66 6A 89 5F 00 00
  can1  206  [16]  0E 62 EE 1B BB 64 EE 1B 94 18 15 6A 61 5F 00 00"
2025-08-08T21:56:08.756115,45.912,"can1  206  [16]  D8 62 EE 1B 93 64 FA 1B 86 18 C4 69 C0 5E 00 00
  can1  206  [16]  00 63 E3 1B 1A 64 E3 1B 78 18 C4 69 98 5E 00 00"
2025-08-08T21:56:09.089049,46.245,"can1  206  [16]  C9 63 D7 1B F2 63 F4 1B 74 18 ED 69 6F 5E 00 00
  can1  206  [16]  6A 64 CB 1B C9 63 00 1C 6F 18 23 69 47 5E 00 00"
2025-08-08T21:56:09.089049,46.245,"can1  206  [16]  79 63 D7 1B A1 63 00 1C 58 18 74 69 47 5E 00 00
  can1  206  [16]  FD 65 DD 1B 50 63 FA 1B 5D 18 23 69 6F 5E 00 00"
2025-08-08T21:56:09.089049,46.245,"can1  206  [16]  E3 64 DD 1B 00 63 F4 1B 5D 18 FB 68 47 5E 00 00
  can1  206  [16]  4E 66 D7 1B 00 63 E8 1B 5D 18 5A 68 47 5E 00 00"
2025-08-08T21:56:09.408170,46.564,"can1  206  [16]  D5 65 E3 1B D8 62 EE 1B 5D 18 E1 67 F6 5D 00 00
  can1  206  [16]  FD 65 E8 1B AF 62 E8 1B 5D 18 B9 67 F6 5D 00 00"
2025-08-08T21:56:09.408170,46.564,"can1  206  [16]  4E 66 FA 1B D8 62 E8 1B 61 18 68 67 1F 5E 00 00
  can1  206  [16]  FD 65 FA 1B AF 62 E3 1B 66 18 17 67 1F 5E 00 00"
2025-08-08T21:56:09.408170,46.564,"can1  206  [16]  4E 66 FA 1B D8 62 DD 1B 74 18 EF 66 47 5E 00 00
  can1  206  [16]  E3 64 06 1C D8 62 DD 1B 78 18 EF 66 C0 5E 00 00"
2025-08-08T21:56:09.740392,46.896,"can1  206  [16]  BB 64 0C 1C 00 63 D1 1B 78 18 EF 66 39 5F 00 00
  can1  206  [16]  AD 65 13 1C 28 63 BF 1B 78 18 EF 66 61 5F 00 00"
2025-08-08T21:56:09.740392,46.896,"can1  206  [16]  34 65 1F 1C 28 63 AD 1B 78 18 EF 66 B2 5F 00 00
  can1  206  [16]  BB 64 1F 1C 79 63 A2 1B 7D 18 40 67 B2 5F 00 00"
2025-08-08T21:56:09.745479,46.901,"can1  206  [16]  1A 64 43 1C 79 63 8A 1B 86 18 68 67 89 5F 00 00
  can1  206  [16]  1A 64 43 1C C9 63 79 1B 8B 18 68 67 B2 5F 00 00"
2025-08-08T21:56:10.058295,47.214,"can1  206  [16]  93 64 56 1C C9 63 73 1B 90 18 90 67 02 60 00 00
  can1  206  [16]  42 64 68 1C C9 63 73 1B 94 18 B9 67 53 60 00 00"
2025-08-08T21:56:10.058295,47.214,"can1  206  [16]  F2 63 6E 1C 1A 64 62 1B A2 18 E1 67 7B 60 00 00
  can1  206  [16]  BB 64 81 1C 42 64 5C 1B A7 18 E1 67 7B 60 00 00"
2025-08-08T21:56:10.058295,47.214,"can1  206  [16]  6A 64 8E 1C 6A 64 4B 1B BF 18 31 68 F4 60 00 00
  can1  206  [16]  F2 63 9A 1C 6A 64 4B 1B BF 18 82 68 45 61 00 00"
2025-08-08T21:56:10.058295,47.214,"can1  206  [16]  F2 63 A0 1C BB 64 56 1B C3 18 5A 68 45 61 00 00
  can1  206  [16]  F2 63 A7 1C 0C 65 5C 1B C8 18 D3 68 6D 61 00 00"
2025-08-08T21:56:10.391165,47.547,"can1  206  [16]  F2 63 A0 1C D5 65 68 1B CD 18 23 69 6D 61 00 00
  can1  206  [16]  AF 62 94 1C FD 65 73 1B D2 18 74 69 6D 61 00 00"
2025-08-08T21:56:10.391165,47.547,"can1  206  [16]  87 62 94 1C 26 66 62 1B DB 18 ED 69 F4 60 00 00
  can1  206  [16]  5F 62 94 1C 26 66 5C 1B DB 18 66 6A 53 60 00 00"
2025-08-08T21:56:10.391165,47.547,"can1  206  [16]  0E 62 87 1C 4E 66 5C 1B D6 18 8E 6A A3 60 00 00
  can1  206  [16]  D8 62 81 1C 9F 66 62 1B DB 18 8E 6A 7B 60 00 00"
2025-08-08T21:56:10.728793,47.884,"can1  206  [16]  0E 62 81 1C 4E 66 62 1B D2 18 07 6B 7B 60 00 00
  can1  206  [16]  36 62 6E 1C 9F 66 73 1B CD 18 2F 6B 53 60 00 00"
2025-08-08T21:56:10.729306,47.885,"can1  206  [16]  D8 62 75 1C 76 66 84 1B C8 18 80 6B 53 60 00 00
  can1  206  [16]  87 62 75 1C 4E 66 90 1B C3 18 80 6B 2B 60 00 00"
2025-08-08T21:56:10.729306,47.885,"can1  206  [16]  AF 62 62 1C 26 66 9C 1B BF 18 A8 6B 02 60 00 00
  can1  206  [16]  00 63 5C 1C FD 65 A2 1B BA 18 A8 6B DA 5F 00 00"
2025-08-08T21:56:11.058642,48.214,"can1  206  [16]  AF 62 56 1C D5 65 A7 1B B5 18 57 6B 61 5F 00 00
  can1  206  [16]  AF 62 43 1C D5 65 B9 1B B0 18 B6 6A 61 5F 00 00"
2025-08-08T21:56:11.058642,48.214,"can1  206  [16]  00 63 3D 1C 0C 65 C5 1B A7 18 66 6A 89 5F 00 00
  can1  206  [16]  00 63 2B 1C 0C 65 E3 1B A7 18 DE 6A 61 5F 00 00"
2025-08-08T21:56:11.064275,48.220,"can1  206  [16]  00 63 25 1C E3 64 F4 1B A2 18 B6 6A C0 5E 00 00
  can1  206  [16]  A1 63 13 1C BB 64 00 1C 99 18 B6 6A 10 5F 00 00"
2025-08-08T21:56:11.064275,48.220,"can1  206  [16]  AF 62 FA 1B 93 64 FA 1B 94 18 8E 6A 98 5E 00 00
  can1  206  [16]  AF 62 F4 1B 6A 64 FA 1B 8B 18 8E 6A 98 5E 00 00"
2025-08-08T21:56:11.375074,48.531,"can1  206  [16]  5F 62 EE 1B 6A 64 F4 1B 7D 18 66 6A F6 5D 00 00
  can1  206  [16]  AF 62 E3 1B 1A 64 FA 1B 78 18 3D 6A 1F 5E 00 00"
2025-08-08T21:56:11.377252,48.533,"can1  206  [16]  28 63 E8 1B A1 63 00 1C 6F 18 ED 69 F6 5D 00 00
  can1  206  [16]  6A 64 D7 1B 50 63 0C 1C 6B 18 9C 69 CE 5D 00 00"
2025-08-08T21:56:11.377252,48.533,"can1  206  [16]  42 64 DD 1B 50 63 0C 1C 61 18 9C 69 A6 5D 00 00
  can1  206  [16]  C9 63 DD 1B 28 63 06 1C 58 18 4C 69 A6 5D 00 00"
2025-08-08T21:56:11.706998,48.862,"can1  206  [16]  F2 63 DD 1B D8 62 FA 1B 5D 18 AA 68 55 5D 00 00
  can1  206  [16]  6A 64 E3 1B 5F 62 FA 1B 5D 18 82 68 47 5E 00 00"
2025-08-08T21:56:11.706998,48.862,"can1  206  [16]  42 64 EE 1B 36 62 F4 1B 5D 18 09 68 47 5E 00 00
  can1  206  [16]  93 64 EE 1B 36 62 DD 1B 66 18 B9 67 6F 5E 00 00"
2025-08-08T21:56:11.706998,48.862,"can1  206  [16]  93 64 FA 1B 0E 62 DD 1B 66 18 90 67 6F 5E 00 00
  can1  206  [16]  E3 64 06 1C 5F 62 D7 1B 6B 18 90 67 C0 5E 00 00"
2025-08-08T21:56:12.043635,49.199,"can1  206  [16]  93 64 0C 1C 5F 62 DD 1B 6F 18 68 67 C0 5E 00 00
  can1  206  [16]  6A 64 13 1C 5F 62 E3 1B 78 18 90 67 98 5E 00 00"
2025-08-08T21:56:12.043635,49.199,"can1  206  [16]  FD 65 19 1C 87 62 D7 1B 78 18 68 67 89 5F 00 00
  can1  206  [16]  FD 65 25 1C D8 62 D1 1B 78 18 90 67 B2 5F 00 00"
2025-08-08T21:56:12.043635,49.199,"can1  206  [16]  6A 64 37 1C 00 63 BF 1B 7D 18 68 67 B2 5F 00 00
  can1  206  [16]  42 64 43 1C 00 63 AD 1B 7D 18 90 67 DA 5F 00 00"
2025-08-08T21:56:12.374736,49.530,"can1  206  [16]  6A 64 50 1C 28 63 A7 1B 78 18 17 67 02 60 00 00
  can1  206  [16]  1A 64 62 1C 79 63 84 1B 86 18 B9 67 53 60 00 00"
2025-08-08T21:56:12.379581,49.535,"can1  206  [16]  6A 64 75 1C 50 63 5C 1B 8B 18 B9 67 2B 60 00 00
  can1  206  [16]  FD 65 87 1C A1 63 5C 1B 94 18 09 68 7B 60 00 00"
2025-08-08T21:56:12.379581,49.535,"can1  206  [16]  42 64 8E 1C C9 63 68 1B A2 18 09 68 F4 60 00 00
  can1  206  [16]  F2 63 9A 1C F2 63 6D 1B A7 18 82 68 1C 61 00 00"
2025-08-08T21:56:12.381594,49.537,"can1  206  [16]  F2 63 9A 1C C9 63 73 1B AC 18 5A 68 45 61 00 00
  can1  206  [16]  1A 64 B3 1C 1A 64 56 1B BA 18 AA 68 6D 61 00 00"
2025-08-08T21:56:12.707991,49.863,"can1  206  [16]  28 63 A0 1C 6A 64 40 1B C3 18 AA 68 6D 61 00 00
  can1  206  [16]  00 63 AD 1C BB 64 45 1B C8 18 D3 68 95 61 00 00"
2025-08-08T21:56:12.707991,49.863,"can1  206  [16]  28 63 BA 1C BB 64 56 1B D2 18 FB 68 6D 61 00 00
  can1  206  [16]  1A 64 AD 1C 0C 65 5C 1B D6 18 23 69 6D 61 00 00"
2025-08-08T21:56:12.707991,49.863,"can1  206  [16]  D8 62 A7 1C D5 65 68 1B D2 18 FB 68 6D 61 00 00
  can1  206  [16]  D8 62 A0 1C FD 65 73 1B D6 18 C4 69 CC 60 00 00"
2025-08-08T21:56:13.041663,50.197,"can1  206  [16]  5F 62 9A 1C 26 66 79 1B D6 18 8E 6A 7B 60 00 00
  can1  206  [16]  00 63 8E 1C 76 66 7F 1B D2 18 DE 6A 7B 60 00 00"
2025-08-08T21:56:13.041663,50.197,"can1  206  [16]  0E 62 7B 1C 76 66 90 1B C8 18 2F 6B 2B 60 00 00
  can1  206  [16]  D8 62 87 1C 26 66 A2 1B CD 18 57 6B 2B 60 00 00"
2025-08-08T21:56:13.041663,50.197,"can1  206  [16]  BD 61 7B 1C FD 65 A7 1B C3 18 57 6B 02 60 00 00
  can1  206  [16]  95 61 31 1C 42 64 13 1C AC 18 8E 6A 6F 5E 00 00"
2025-08-08T21:56:13.374322,50.530,"can1  206  [16]  5F 62 FA 1B F2 63 13 1C 8B 18 8E 6A C0 5E 00 00
  can1  206  [16]  AF 62 FA 1B F2 63 0C 1C 78 18 66 6A C0 5E 00 00"
2025-08-08T21:56:13.374322,50.530,"can1  206  [16]  C9 63 EE 1B 79 63 06 1C 74 18 66 6A C0 5E 00 00
  can1  206  [16]  F2 63 E8 1B 28 63 06 1C 6F 18 3D 6A 47 5E 00 00"
2025-08-08T21:56:13.374322,50.530,"can1  206  [16]  1A 64 DD 1B 00 63 0C 1C 66 18 ED 69 6F 5E 00 00
  can1  206  [16]  BB 64 DD 1B AF 62 E3 1B 61 18 74 69 47 5E 00 00"
2025-08-08T21:56:13.707457,50.863,"can1  206  [16]  BB 64 E3 1B 5F 62 DD 1B 5D 18 74 69 F6 5D 00 00
  can1  206  [16]  BB 64 F4 1B 36 62 DD 1B 58 18 D3 68 CE 5D 00 00"
2025-08-08T21:56:13.707457,50.863,"can1  206  [16]  E3 64 00 1C 36 62 DD 1B 5D 18 82 68 98 5E 00 00
  can1  206  [16]  42 64 FA 1B 0E 62 D7 1B 5D 18 E1 67 98 5E 00 00"
2025-08-08T21:56:13.707457,50.863,"can1  206  [16]  42 64 00 1C 0E 62 D7 1B 5D 18 B9 67 C0 5E 00 00
  can1  206  [16]  93 64 06 1C 36 62 CB 1B 90 18 90 67 C0 5E 00 00"
2025-08-08T21:56:13.707457,50.863,"can1  206  [16]  0C 65 0C 1C 87 62 B3 1B 99 18 90 67 C0 5E 00 00
  can1  206  [16]  76 66 13 1C 5F 62 A7 1B 9E 18 40 67 C0 5E 00 00"
2025-08-08T21:56:14.039405,51.195,"can1  206  [16]  E3 64 1F 1C 87 62 AD 1B A2 18 68 67 10 5F 00 00
  can1  206  [16]  93 64 25 1C AF 62 B3 1B 86 18 17 67 98 5E 00 00"
2025-08-08T21:56:14.039405,51.195,"can1  206  [16]  4E 66 2B 1C D8 62 B3 1B 82 18 17 67 39 5F 00 00
  can1  206  [16]  4E 66 37 1C D8 62 AD 1B 78 18 17 67 61 5F 00 00"
2025-08-08T21:56:14.039405,51.195,"can1  206  [16]  D5 65 3D 1C 00 63 96 1B 86 18 40 67 DA 5F 00 00
  can1  206  [16]  4E 66 49 1C 00 63 84 1B 8B 18 17 67 02 60 00 00"
2025-08-08T21:56:14.372313,51.528,"can1  206  [16]  26 66 62 1C D8 62 8A 1B 8B 18 B9 67 2B 60 00 00
  can1  206  [16]  4E 66 75 1C 87 62 8A 1B 8B 18 E1 67 53 60 00 00"
2025-08-08T21:56:14.372313,51.528,"can1  206  [16]  FD 65 87 1C 50 63 84 1B 9E 18 E1 67 7B 60 00 00
  can1  206  [16]  4E 66 94 1C A1 63 73 1B A7 18 31 68 CC 60 00 00"
2025-08-08T21:56:14.372313,51.528,"can1  206  [16]  FD 65 9A 1C A1 63 73 1B AC 18 31 68 1C 61 00 00
  can1  206  [16]  FD 65 A0 1C 42 64 62 1B BA 18 AA 68 6D 61 00 00"
2025-08-08T21:56:14.706289,51.862,"can1  206  [16]  BB 64 AD 1C 6A 64 62 1B C3 18 AA 68 6D 61 00 00
  can1  206  [16]  6A 64 A7 1C 1A 64 6D 1B C8 18 82 68 95 61 00 00"
2025-08-08T21:56:14.706289,51.862,"can1  206  [16]  26 66 B3 1C A1 63 79 1B D2 18 FB 68 E6 61 00 00
  can1  206  [16]  76 66 87 1C 5F 62 6D 1B A2 18 82 68 1C 61 00 00"
2025-08-08T21:56:14.706289,51.862,"can1  206  [16]  D5 65 9A 1C 5F 62 68 1B B5 18 82 68 45 61 00 00
  can1  206  [16]  1A 64 A0 1C AF 62 62 1B BF 18 82 68 6D 61 00 00"
2025-08-08T21:56:14.706289,51.862,"can1  206  [16]  79 63 BA 1C A1 63 62 1B C8 18 AA 68 95 61 00 00
  can1  206  [16]  A1 63 C7 1C 1A 64 6D 1B E9 18 AA 68 BD 61 00 00"
2025-08-08T21:56:15.043321,52.199,"can1  206  [16]  1A 64 7B 1C 00 63 62 1B BF 18 AA 68 1C 61 00 00
  can1  206  [16]  F2 63 8E 1C D8 62 68 1B B0 18 82 68 1C 61 00 00"
2025-08-08T21:56:15.043321,52.199,"can1  206  [16]  C9 63 AD 1C 00 63 62 1B B5 18 82 68 45 61 00 00
  can1  206  [16]  93 64 A7 1C 28 63 68 1B BF 18 82 68 F4 60 00 00"
2025-08-08T21:56:15.056277,52.212,"can1  206  [16]  6A 64 B3 1C A1 63 68 1B C8 18 31 68 45 61 00 00
  can1  206  [16]  42 64 B3 1C F2 63 73 1B D2 18 E1 67 45 61 00 00"
2025-08-08T21:56:15.373571,52.529,"can1  206  [16]  F2 63 B3 1C 1A 64 73 1B FD 18 AA 68 6D 61 00 00
  can1  206  [16]  F2 63 A7 1C 6A 64 79 1B EE 18 23 69 6D 61 00 00"
2025-08-08T21:56:15.373571,52.529,"can1  206  [16]  1A 64 A7 1C BB 64 84 1B DB 18 9C 69 6D 61 00 00
  can1  206  [16]  6A 64 9A 1C 0C 65 84 1B DB 18 C4 69 6D 61 00 00"
2025-08-08T21:56:15.373571,52.529,"can1  206  [16]  79 63 A0 1C E3 64 84 1B DB 18 15 6A 6D 61 00 00
  can1  206  [16]  00 63 8E 1C E3 64 90 1B D6 18 9C 69 45 61 00 00"
2025-08-08T21:56:15.709850,52.865,"can1  206  [16]  5F 62 87 1C BB 64 96 1B D2 18 ED 69 F4 60 00 00
  can1  206  [16]  28 63 87 1C E3 64 96 1B CD 18 3D 6A F4 60 00 00"
2025-08-08T21:56:15.709850,52.865,"can1  206  [16]  00 63 8E 1C E3 64 9C 1B C8 18 DE 6A 1C 61 00 00
  can1  206  [16]  36 62 75 1C 93 64 A2 1B CD 18 DE 6A 1C 61 00 00"
2025-08-08T21:56:15.709850,52.865,"can1  206  [16]  0E 62 75 1C 93 64 AD 1B C8 18 57 6B CC 60 00 00
  can1  206  [16]  D8 62 68 1C 93 64 B9 1B BF 18 2F 6B CC 60 00 00"
2025-08-08T21:56:15.709850,52.865,"can1  206  [16]  A1 63 56 1C 1A 64 C5 1B B5 18 2F 6B A3 60 00 00
  can1  206  [16]  5F 62 50 1C 1A 64 E3 1B B5 18 66 6A 7B 60 00 00"
2025-08-08T21:56:16.046887,53.202,"can1  206  [16]  AF 62 43 1C F2 63 E8 1B A7 18 66 6A 2B 60 00 00
  can1  206  [16]  C9 63 2B 1C F2 63 F4 1B A7 18 8E 6A B2 5F 00 00"
2025-08-08T21:56:16.046887,53.202,"can1  206  [16]  D8 62 1F 1C C9 63 00 1C 9E 18 3D 6A 61 5F 00 00
  can1  206  [16]  00 63 13 1C C9 63 0C 1C 90 18 C4 69 39 5F 00 00"
2025-08-08T21:56:16.046887,53.202,"can1  206  [16]  00 63 00 1C A1 63 0C 1C 8B 18 C4 69 E8 5E 00 00
  can1  206  [16]  00 63 F4 1B A1 63 13 1C 86 18 9C 69 6F 5E 00 00"
2025-08-08T21:56:16.357059,53.513,"can1  206  [16]  D8 62 EE 1B 28 63 13 1C 7D 18 C4 69 47 5E 00 00
  can1  206  [16]  50 63 E3 1B 00 63 13 1C 74 18 4C 69 47 5E 00 00"
2025-08-08T21:56:16.357059,53.513,"can1  206  [16]  1A 64 E3 1B AF 62 00 1C 6F 18 4C 69 1F 5E 00 00
  can1  206  [16]  6A 64 E8 1B 36 62 E8 1B 61 18 FB 68 F6 5D 00 00"
2025-08-08T21:56:16.357059,53.513,"can1  206  [16]  BB 64 E8 1B E6 61 E3 1B 66 18 FB 68 7E 5D 00 00
  can1  206  [16]  BB 64 E8 1B 6D 61 BF 1B 7D 18 C7 66 47 5E 00 00"
2025-08-08T21:56:16.689459,53.845,"can1  206  [16]  6A 64 3D 1C BD 61 96 1B A2 18 EF 66 98 5E 00 00
  can1  206  [16]  42 64 3D 1C E6 61 79 1B AC 18 40 67 C0 5E 00 00"
2025-08-08T21:56:16.689459,53.845,"can1  206  [16]  93 64 5C 1C 36 62 68 1B B0 18 68 67 10 5F 00 00
  can1  206  [16]  42 64 68 1C 36 62 68 1B A7 18 90 67 61 5F 00 00"
2025-08-08T21:56:16.689459,53.845,"can1  206  [16]  93 64 7B 1C 28 63 62 1B 90 18 90 67 89 5F 00 00
  can1  206  [16]  F2 63 9A 1C 50 63 5C 1B 99 18 68 67 B2 5F 00 00"
2025-08-08T21:56:17.024802,54.180,"can1  206  [16]  6A 64 94 1C C9 63 4B 1B 9E 18 09 68 2B 60 00 00
  can1  206  [16]  F2 63 A0 1C C9 63 40 1B AC 18 5A 68 1C 61 00 00"
2025-08-08T21:56:17.026352,54.182,"can1  206  [16]  6A 64 AD 1C 42 64 3A 1B B5 18 82 68 45 61 00 00
  can1  206  [16]  42 64 BA 1C 42 64 3A 1B C3 18 D3 68 45 61 00 00"
2025-08-08T21:56:17.027897,54.183,"can1  206  [16]  93 64 BA 1C BB 64 45 1B CD 18 D3 68 45 61 00 00
  can1  206  [16]  A1 63 D3 1C E3 64 45 1B CD 18 AA 68 95 61 00 00"
2025-08-08T21:56:17.027897,54.183,"can1  206  [16]  A1 63 C0 1C AD 65 40 1B DB 18 4C 69 95 61 00 00
  can1  206  [16]  C9 63 C0 1C FD 65 45 1B E0 18 FB 68 95 61 00 00"
2025-08-08T21:56:17.339914,54.495,"can1  206  [16]  C9 63 C0 1C E3 64 51 1B DB 18 FB 68 95 61 00 00
  can1  206  [16]  79 63 BA 1C E3 64 51 1B D6 18 23 69 6D 61 00 00"
2025-08-08T21:56:17.343826,54.499,"can1  206  [16]  D8 62 B3 1C E3 64 5C 1B D6 18 4C 69 45 61 00 00
  can1  206  [16]  00 63 9A 1C E3 64 62 1B D6 18 C4 69 1C 61 00 00"
2025-08-08T21:56:17.346790,54.502,"can1  206  [16]  AF 62 9A 1C BB 64 73 1B D2 18 ED 69 1C 61 00 00
  can1  206  [16]  87 62 8E 1C BB 64 7F 1B D6 18 3D 6A CC 60 00 00"
2025-08-08T21:56:17.677309,54.833,"can1  206  [16]  00 63 9A 1C 93 64 8A 1B D2 18 3D 6A CC 60 00 00
  can1  206  [16]  AF 62 9A 1C 93 64 8A 1B CD 18 66 6A F4 60 00 00"
2025-08-08T21:56:17.677309,54.833,"can1  206  [16]  AF 62 7B 1C 1A 64 84 1B BF 18 66 6A CC 60 00 00
  can1  206  [16]  D8 62 75 1C 1A 64 A7 1B BF 18 66 6A A3 60 00 00"
2025-08-08T21:56:17.677309,54.833,"can1  206  [16]  5F 62 68 1C 1A 64 BF 1B BA 18 66 6A 53 60 00 00
  can1  206  [16]  0E 62 56 1C 42 64 D1 1B D6 18 15 6A A3 60 00 00"
2025-08-08T21:56:18.011145,55.167,"can1  206  [16]  5F 62 49 1C 6A 64 D7 1B B5 18 3D 6A F4 60 00 00
  can1  206  [16]  5F 62 31 1C C9 63 D7 1B A7 18 15 6A 2B 60 00 00"
2025-08-08T21:56:18.011145,55.167,"can1  206  [16]  5F 62 25 1C C9 63 E3 1B A2 18 FB 68 DA 5F 00 00
  can1  206  [16]  AF 62 0C 1C 79 63 EE 1B 99 18 FB 68 B2 5F 00 00"
2025-08-08T21:56:18.013164,55.169,"can1  206  [16]  87 62 0C 1C C9 63 F4 1B 90 18 23 69 61 5F 00 00
  can1  206  [16]  00 63 0C 1C 50 63 00 1C 82 18 23 69 C0 5E 00 00"
2025-08-08T21:56:18.327343,55.483,"can1  206  [16]  50 63 F4 1B 00 63 FA 1B 78 18 4C 69 C0 5E 00 00
  can1  206  [16]  50 63 FA 1B AF 62 06 1C 74 18 23 69 98 5E 00 00"
2025-08-08T21:56:18.327874,55.483,"can1  206  [16]  A1 63 FA 1B 5F 62 00 1C 6F 18 4C 69 98 5E 00 00
  can1  206  [16]  F2 63 E3 1B 0E 62 F4 1B 61 18 D3 68 6F 5E 00 00"
2025-08-08T21:56:18.329036,55.485,"can1  206  [16]  F2 63 EE 1B E6 61 06 1C 61 18 AA 68 1F 5E 00 00
  can1  206  [16]  C9 63 F4 1B BD 61 0C 1C 61 18 5A 68 47 5E 00 00"
2025-08-08T21:56:18.330303,55.486,"can1  206  [16]  93 64 FA 1B 6D 61 F4 1B 7D 18 76 66 10 5F 00 00
  can1  206  [16]  4E 66 56 1C BD 61 BF 1B 7D 18 C7 66 89 5F 00 00"
2025-08-08T21:56:18.660479,55.816,"can1  206  [16]  17 67 50 1C 5F 62 A2 1B 7D 18 C7 66 B2 5F 00 00
  can1  206  [16]  76 66 5C 1C AF 62 90 1B 8B 18 C7 66 B2 5F 00 00"
2025-08-08T21:56:18.660479,55.816,"can1  206  [16]  76 66 62 1C 87 62 90 1B 90 18 9F 66 B2 5F 00 00
  can1  206  [16]  42 64 75 1C 5F 62 7F 1B 94 18 68 67 53 60 00 00"
2025-08-08T21:56:18.660479,55.816,"can1  206  [16]  6A 64 8E 1C 87 62 6D 1B 90 18 40 67 A3 60 00 00
  can1  206  [16]  C9 63 9A 1C AF 62 5C 1B 9E 18 90 67 CC 60 00 00"
2025-08-08T21:56:18.995197,56.151,"can1  206  [16]  6A 64 AD 1C 00 63 62 1B A7 18 B9 67 1C 61 00 00
  can1  206  [16]  1A 64 A0 1C 28 63 6D 1B A7 18 B9 67 45 61 00 00"
2025-08-08T21:56:18.997205,56.153,"can1  206  [16]  F2 63 B3 1C 79 63 73 1B BA 18 90 67 6D 61 00 00
  can1  206  [16]  79 63 B3 1C C9 63 68 1B C3 18 B9 67 6D 61 00 00"
2025-08-08T21:56:18.999806,56.155,"can1  206  [16]  00 63 B3 1C F2 63 62 1B CD 18 E1 67 95 61 00 00
  can1  206  [16]  00 63 AD 1C 42 64 68 1B D2 18 82 68 45 61 00 00"
2025-08-08T21:56:19.328121,56.484,"can1  206  [16]  D8 62 A7 1C 6A 64 68 1B EE 18 FB 68 6D 61 00 00
  can1  206  [16]  0E 62 AD 1C 93 64 79 1B DB 18 74 69 6D 61 00 00"
2025-08-08T21:56:19.330245,56.486,"can1  206  [16]  5F 62 A0 1C 0C 65 8A 1B E0 18 74 69 1C 61 00 00
  can1  206  [16]  E6 61 9A 1C 0C 65 90 1B F8 18 C4 69 F4 60 00 00"
2025-08-08T21:56:19.331288,56.487,"can1  206  [16]  0E 62 94 1C D5 65 8A 1B D6 18 15 6A CC 60 00 00
  can1  206  [16]  36 62 9A 1C E3 64 9C 1B D2 18 15 6A A3 60 00 00"
2025-08-08T21:56:19.662673,56.818,"can1  206  [16]  95 61 56 1C C9 63 06 1C C3 18 ED 69 B2 5F 00 00
  can1  206  [16]  36 62 25 1C C9 63 19 1C C3 18 74 69 10 5F 00 00"
2025-08-08T21:56:19.662673,56.818,"can1  206  [16]  5F 62 06 1C 79 63 06 1C B0 18 C4 69 10 5F 00 00
  can1  206  [16]  5F 62 00 1C 28 63 19 1C A7 18 C4 69 E8 5E 00 00"
2025-08-08T21:56:19.664787,56.820,"can1  206  [16]  D8 62 EE 1B 28 63 06 1C A2 18 74 69 E8 5E 00 00
  can1  206  [16]  50 63 FA 1B D8 62 EE 1B 9E 18 4C 69 6F 5E 00 00"
2025-08-08T21:56:19.665936,56.821,"can1  206  [16]  28 63 EE 1B 87 62 E8 1B 99 18 23 69 98 5E 00 00
  can1  206  [16]  A1 63 EE 1B 36 62 E3 1B 8B 18 FB 68 6F 5E 00 00"
2025-08-08T21:56:19.992674,57.148,"can1  206  [16]  F2 63 F4 1B 36 62 DD 1B 6B 18 5A 68 6F 5E 00 00
  can1  206  [16]  F2 63 F4 1B 0E 62 DD 1B 61 18 5A 68 6F 5E 00 00"
2025-08-08T21:56:19.992674,57.148,"can1  206  [16]  6A 64 FA 1B BD 61 D7 1B 86 18 E1 67 98 5E 00 00
  can1  206  [16]  6A 64 FA 1B 6D 61 A7 1B A7 18 FD 65 39 5F 00 00"
2025-08-08T21:56:19.992674,57.148,"can1  206  [16]  1A 64 56 1C 95 61 5C 1B E9 18 40 67 1C 61 00 00
  can1  206  [16]  42 64 DA 1C 79 63 4B 1B F8 18 09 68 95 61 00 00"
2025-08-08T21:56:20.325880,57.481,"can1  206  [16]  28 63 C7 1C C9 63 4B 1B DB 18 82 68 BD 61 00 00
  can1  206  [16]  F2 63 81 1C 87 62 4B 1B A7 18 E1 67 45 61 00 00"
2025-08-08T21:56:20.325880,57.481,"can1  206  [16]  C9 63 94 1C AF 62 73 1B CD 18 E1 67 45 61 00 00
  can1  206  [16]  C9 63 AD 1C 5F 62 79 1B C3 18 E1 67 45 61 00 00"
2025-08-08T21:56:20.325880,57.481,"can1  206  [16]  C9 63 B3 1C 00 63 7F 1B D6 18 09 68 6D 61 00 00
  can1  206  [16]  50 63 C0 1C A1 63 8A 1B F3 18 5A 68 45 61 00 00"
2025-08-08T21:56:20.648886,57.804,"can1  206  [16]  F2 63 BA 1C C9 63 90 1B F3 18 AA 68 45 61 00 00
  can1  206  [16]  C9 63 B3 1C 1A 64 96 1B 01 19 D3 68 45 61 00 00"
2025-08-08T21:56:20.648886,57.804,"can1  206  [16]  79 63 A7 1C 6A 64 90 1B 01 19 FB 68 45 61 00 00
  can1  206  [16]  00 63 9A 1C 6A 64 8A 1B 01 19 ED 69 45 61 00 00"
2025-08-08T21:56:20.649906,57.805,"can1  206  [16]  87 62 9A 1C 93 64 8A 1B DB 18 66 6A 45 61 00 00
  can1  206  [16]  36 62 87 1C BB 64 A7 1B EE 18 8E 6A 1C 61 00 00"
2025-08-08T21:56:20.650904,57.806,"can1  206  [16]  0E 62 87 1C E3 64 A7 1B F3 18 8E 6A CC 60 00 00
  can1  206  [16]  E6 61 8E 1C 93 64 A7 1B F3 18 2F 6B 1C 61 00 00"
2025-08-08T21:56:20.967652,58.123,"can1  206  [16]  BD 61 87 1C 93 64 AD 1B E9 18 DE 6A CC 60 00 00
  can1  206  [16]  BD 61 7B 1C 6A 64 C5 1B E5 18 80 6B CC 60 00 00"
2025-08-08T21:56:20.968658,58.124,"can1  206  [16]  BD 61 6E 1C 6A 64 C5 1B DB 18 57 6B 53 60 00 00
  can1  206  [16]  28 63 6E 1C 6A 64 D1 1B BF 18 2F 6B 53 60 00 00"
2025-08-08T21:56:20.969658,58.125,"can1  206  [16]  AF 62 5C 1C F2 63 D7 1B AC 18 66 6A 53 60 00 00
  can1  206  [16]  AF 62 50 1C F2 63 E3 1B AC 18 15 6A 2B 60 00 00"
2025-08-08T21:56:21.299551,58.455,"can1  206  [16]  87 62 49 1C F2 63 D7 1B A2 18 66 6A 02 60 00 00
  can1  206  [16]  36 62 2B 1C F2 63 DD 1B 9E 18 C4 69 02 60 00 00"
2025-08-08T21:56:21.299551,58.455,"can1  206  [16]  5F 62 25 1C A1 63 E3 1B 9E 18 ED 69 02 60 00 00
  can1  206  [16]  D8 62 1F 1C A1 63 E3 1B 90 18 ED 69 B2 5F 00 00"
2025-08-08T21:56:21.299551,58.455,"can1  206  [16]  AF 62 00 1C A1 63 EE 1B 86 18 9C 69 10 5F 00 00
  can1  206  [16]  50 63 00 1C 28 63 0C 1C 78 18 C4 69 39 5F 00 00"
2025-08-08T21:56:21.627768,58.783,"can1  206  [16]  28 63 E8 1B 50 63 19 1C 7D 18 3D 6A 10 5F 00 00
  can1  206  [16]  50 63 E3 1B D8 62 19 1C 6F 18 ED 69 C0 5E 00 00"
2025-08-08T21:56:21.630086,58.786,"can1  206  [16]  C9 63 E3 1B AF 62 19 1C 6F 18 ED 69 6F 5E 00 00
  can1  206  [16]  1A 64 E3 1B 87 62 1F 1C 61 18 C4 69 98 5E 00 00"
2025-08-08T21:56:21.631953,58.787,"can1  206  [16]  F2 63 E3 1B 0E 62 0C 1C 58 18 74 69 6F 5E 00 00
  can1  206  [16]  F2 63 FA 1B BD 61 06 1C 5D 18 D3 68 C0 5E 00 00"
2025-08-08T21:56:21.965840,59.121,"can1  206  [16]  6A 64 EE 1B BD 61 EE 1B 58 18 AA 68 6F 5E 00 00
  can1  206  [16]  1A 64 FA 1B 45 61 C5 1B 82 18 EF 66 B2 5F 00 00"
2025-08-08T21:56:21.965840,59.121,"can1  206  [16]  93 64 56 1C 95 61 5C 1B BF 18 31 68 1C 61 00 00
  can1  206  [16]  00 63 CD 1C 28 63 4B 1B D6 18 AA 68 BD 61 00 00"
2025-08-08T21:56:21.966830,59.122,"can1  206  [16]  F2 63 7B 1C 87 62 3A 1B AC 18 31 68 CC 60 00 00
  can1  206  [16]  C9 63 9A 1C 87 62 3A 1B AC 18 82 68 45 61 00 00"
2025-08-08T21:56:21.966830,59.122,"can1  206  [16]  A1 63 A7 1C D8 62 3A 1B B0 18 82 68 45 61 00 00
  can1  206  [16]  A1 63 AD 1C 28 63 3A 1B BF 18 AA 68 6D 61 00 00"
2025-08-08T21:56:22.277973,59.433,"can1  206  [16]  1A 64 B3 1C 50 63 45 1B BF 18 D3 68 6D 61 00 00
  can1  206  [16]  1A 64 A7 1C C9 63 45 1B C8 18 AA 68 45 61 00 00"
2025-08-08T21:56:22.277973,59.433,"can1  206  [16]  C9 63 B3 1C 1A 64 4B 1B D6 18 4C 69 45 61 00 00
  can1  206  [16]  79 63 A7 1C 6A 64 56 1B D2 18 C4 69 95 61 00 00"
2025-08-08T21:56:22.277973,59.433,"can1  206  [16]  50 63 9A 1C 6A 64 5C 1B C3 18 C4 69 45 61 00 00
  can1  206  [16]  28 63 8E 1C 42 64 62 1B D2 18 15 6A 45 61 00 00"
2025-08-08T21:56:22.638841,59.794,"can1  206  [16]  00 63 87 1C 93 64 5C 1B D2 18 8E 6A 1C 61 00 00
  can1  206  [16]  C9 63 87 1C E3 64 68 1B D6 18 3D 6A 1C 61 00 00"
2025-08-08T21:56:22.638841,59.794,"can1  206  [16]  F2 63 81 1C BB 64 68 1B C3 18 DE 6A A3 60 00 00
  can1  206  [16]  C9 63 87 1C BB 64 6D 1B C3 18 07 6B CC 60 00 00"
2025-08-08T21:56:22.641840,59.797,"can1  206  [16]  A1 63 87 1C 6A 64 68 1B C3 18 2F 6B F4 60 00 00
  can1  206  [16]  A1 63 7B 1C 1A 64 79 1B BF 18 2F 6B CC 60 00 00"
2025-08-08T21:56:22.959685,60.115,"can1  206  [16]  A1 63 68 1C 1A 64 84 1B D2 18 2F 6B CC 60 00 00
  can1  206  [16]  C9 63 62 1C 1A 64 96 1B B5 18 B6 6A CC 60 00 00"
2025-08-08T21:56:22.961202,60.117,"can1  206  [16]  28 63 62 1C 6A 64 9C 1B AC 18 66 6A 7B 60 00 00
  can1  206  [16]  A1 63 50 1C 1A 64 AD 1B A7 18 8E 6A DA 5F 00 00"
2025-08-08T21:56:22.961711,60.117,"can1  206  [16]  6A 64 3D 1C 1A 64 B9 1B AC 18 3D 6A 39 5F 00 00
  can1  206  [16]  E3 64 25 1C F2 63 C5 1B A2 18 ED 69 39 5F 00 00"
2025-08-08T21:56:22.963043,60.119,"can1  206  [16]  4E 66 19 1C C9 63 E3 1B 99 18 15 6A C0 5E 00 00
  can1  206  [16]  93 64 06 1C 79 63 FA 1B 86 18 3D 6A 98 5E 00 00"
2025-08-08T21:56:23.279574,60.435,"can1  206  [16]  93 64 FA 1B 79 63 EE 1B 86 18 9C 69 6F 5E 00 00
  can1  206  [16]  E3 64 EE 1B 28 63 00 1C 78 18 4C 69 47 5E 00 00"
2025-08-08T21:56:23.281571,60.437,"can1  206  [16]  E3 64 F4 1B D8 62 E8 1B 74 18 9C 69 F6 5D 00 00
  can1  206  [16]  BB 64 F4 1B D8 62 FA 1B 6B 18 9C 69 F6 5D 00 00"
2025-08-08T21:56:23.282576,60.438,"can1  206  [16]  D5 65 EE 1B 5F 62 EE 1B 6F 18 23 69 CE 5D 00 00
  can1  206  [16]  4E 66 FA 1B 0E 62 DD 1B 86 18 23 69 F6 5D 00 00"
2025-08-08T21:56:23.609316,60.765,can1  206  [16]  76 66 00 1C E6 61 DD 1B 61 18 5A 68 7E 5D 00 00
2025-08-08T21:56:23.609316,60.765,"can1  206  [16]  C7 66 EE 1B 95 61 CB 1B 90 18 9F 66 C0 5E 00 00
  can1  206  [16]  EF 66 49 1C 6D 61 62 1B B0 18 B9 67 CC 60 00 00"
2025-08-08T21:56:23.611310,60.767,"can1  206  [16]  26 66 D3 1C 00 63 51 1B BF 18 82 68 6D 61 00 00
  can1  206  [16]  D5 65 C0 1C A1 63 56 1B C8 18 5A 68 E6 61 00 00
  can1  206  [16]  EF 66 7B 1C D8 62 56 1B 94 18 68 67 A3 60 00 00"
2025-08-08T21:56:23.941357,61.097,"can1  206  [16]  9F 66 94 1C D8 62 56 1B A7 18 90 67 1C 61 00 00
  can1  206  [16]  4E 66 A0 1C D8 62 51 1B B5 18 E1 67 45 61 00 00"
2025-08-08T21:56:23.941357,61.097,"can1  206  [16]  26 66 AD 1C 28 63 51 1B BF 18 31 68 6D 61 00 00
  can1  206  [16]  FD 65 B3 1C 50 63 56 1B C8 18 31 68 95 61 00 00"
2025-08-08T21:56:23.941357,61.097,"can1  206  [16]  D5 65 B3 1C A1 63 5C 1B D2 18 5A 68 E6 61 00 00
  can1  206  [16]  C7 66 87 1C 5F 62 51 1B 9E 18 68 67 CC 60 00 00"
2025-08-08T21:56:24.272491,61.428,"can1  206  [16]  4E 66 9A 1C 5F 62 4B 1B AC 18 B9 67 1C 61 00 00
  can1  206  [16]  26 66 AD 1C D8 62 56 1B B5 18 68 67 1C 61 00 00"
2025-08-08T21:56:24.274493,61.430,can1  206  [16]  C7 66 B3 1C 00 63 56 1B BA 18 68 67 95 61 00 00
2025-08-08T21:56:24.275492,61.431,can1  206  [16]  FD 65 BA 1C 79 63 4B 1B C3 18 68 67 BD 61 00 00
2025-08-08T21:56:24.593626,61.749,"can1  206  [16]  4E 66 75 1C 87 62 4B 1B 90 18 40 67 F4 60 00 00
  can1  206  [16]  6A 64 9A 1C D8 62 56 1B A2 18 90 67 45 61 00 00
  can1  206  [16]  D5 65 A0 1C AF 62 56 1B B0 18 B9 67 1C 61 00 00
  can1  206  [16]  1A 64 B3 1C D8 62 56 1B BA 18 31 68 6D 61 00 00
  can1  206  [16]  50 63 AD 1C 79 63 5C 1B C3 18 5A 68 95 61 00 00"
2025-08-08T21:56:24.599625,61.755,"can1  206  [16]  79 63 B3 1C C9 63 51 1B CD 18 82 68 95 61 00 00
  can1  206  [16]  F2 63 BA 1C F2 63 40 1B D2 18 82 68 BD 61 00 00"
2025-08-08T21:56:24.606630,61.762,"can1  206  [16]  D5 65 94 1C D8 62 23 1B A7 18 09 68 45 61 00 00
  can1  206  [16]  E3 64 AD 1C D8 62 3A 1B B5 18 31 68 45 61 00 00"
2025-08-08T21:56:24.922689,62.078,"can1  206  [16]  AD 65 C0 1C 00 63 45 1B C3 18 5A 68 6D 61 00 00
  can1  206  [16]  E3 64 CD 1C 79 63 4B 1B C8 18 31 68 95 61 00 00"
2025-08-08T21:56:24.923690,62.079,"can1  206  [16]  1A 64 E0 1C C9 63 51 1B C8 18 82 68 E6 61 00 00
  can1  206  [16]  D5 65 A7 1C 00 63 40 1B 99 18 E1 67 45 61 00 00"
2025-08-08T21:56:24.924689,62.080,"can1  206  [16]  E3 64 C0 1C 00 63 40 1B AC 18 B9 67 45 61 00 00
  can1  206  [16]  6A 64 C7 1C D8 62 45 1B BA 18 90 67 6D 61 00 00"
2025-08-08T21:56:24.925688,62.081,"can1  206  [16]  A1 63 D3 1C 50 63 3A 1B C3 18 B9 67 45 61 00 00
  can1  206  [16]  79 63 D3 1C F2 63 40 1B CD 18 90 67 BD 61 00 00"
2025-08-08T21:56:25.246735,62.403,"can1  206  [16]  93 64 A0 1C 00 63 45 1B 9E 18 90 67 45 61 00 00
  can1  206  [16]  F2 63 BA 1C AF 62 40 1B AC 18 E1 67 45 61 00 00"
2025-08-08T21:56:25.248749,62.404,"can1  206  [16]  C9 63 CD 1C D8 62 3A 1B B5 18 E1 67 BD 61 00 00
  can1  206  [16]  1A 64 6E 1C 36 62 62 1B 7D 18 B9 67 53 60 00 00"
2025-08-08T21:56:25.249271,62.405,"can1  206  [16]  F2 63 94 1C 0E 62 62 1B 90 18 E1 67 7B 60 00 00
  can1  206  [16]  F2 63 A7 1C 87 62 73 1B 94 18 B9 67 CC 60 00 00"
2025-08-08T21:56:25.577493,62.733,"can1  206  [16]  C9 63 BA 1C D8 62 73 1B 99 18 B9 67 F4 60 00 00
  can1  206  [16]  F2 63 CD 1C D8 62 68 1B A7 18 09 68 45 61 00 00"
2025-08-08T21:56:25.582480,62.738,"can1  206  [16]  1A 64 C0 1C 28 63 5C 1B AC 18 09 68 45 61 00 00
  can1  206  [16]  F2 63 C7 1C 50 63 62 1B AC 18 82 68 45 61 00 00"
2025-08-08T21:56:25.582480,62.738,"can1  206  [16]  A1 63 DA 1C C9 63 56 1B BF 18 D3 68 6D 61 00 00
  can1  206  [16]  D8 62 E0 1C 42 64 56 1B BF 18 82 68 6D 61 00 00"
2025-08-08T21:56:25.915468,63.071,"can1  206  [16]  D8 62 DA 1C 93 64 62 1B C3 18 23 69 6D 61 00 00
  can1  206  [16]  79 63 CD 1C 0C 65 62 1B C3 18 4C 69 BD 61 00 00"
2025-08-08T21:56:25.915468,63.071,"can1  206  [16]  93 64 BA 1C A1 63 4B 1B A2 18 D3 68 6D 61 00 00
  can1  206  [16]  A1 63 CD 1C A1 63 4B 1B BA 18 D3 68 95 61 00 00"
2025-08-08T21:56:25.915468,63.071,"can1  206  [16]  00 63 E0 1C 1A 64 4B 1B BF 18 D3 68 BD 61 00 00
  can1  206  [16]  42 64 9A 1C 00 63 4B 1B 8B 18 5A 68 1C 61 00 00"
2025-08-08T21:56:26.238535,63.394,"can1  206  [16]  F2 63 B3 1C 28 63 51 1B 9E 18 82 68 F4 60 00 00
  can1  206  [16]  C9 63 CD 1C A1 63 56 1B A7 18 82 68 45 61 00 00"
2025-08-08T21:56:26.238535,63.394,"can1  206  [16]  A1 63 C0 1C C9 63 51 1B B0 18 31 68 45 61 00 00
  can1  206  [16]  79 63 BA 1C F2 63 51 1B BA 18 AA 68 45 61 00 00"
2025-08-08T21:56:26.238535,63.394,"can1  206  [16]  50 63 C0 1C 6A 64 56 1B BF 18 82 68 6D 61 00 00
  can1  206  [16]  D8 62 C0 1C 42 64 62 1B CD 18 AA 68 45 61 00 00"
