Timestamp,Elapsed_Time_s,CAN_Message
2025-11-08T03:02:31.820587,3.809,can0  204  [16]  E1 22 50 46 50 46 50 46 28 23 20 4E 30 75 00 00
2025-11-08T03:02:31.820944,3.809,can0  041  [04]  2F 00 00 00
2025-11-08T03:02:32.679917,4.668,can0  204  [16]  E1 22 50 46 50 46 50 46 28 23 20 4E 30 75 00 00
2025-11-08T03:02:32.680672,4.669,can0  206  [16]  9B 0C DA 07 93 0C DA DC ED 07 D3 0C A7 0C 00 00
2025-11-08T03:02:32.681305,4.670,can0  204  [16]  E1 22 50 46 50 46 50 46 28 23 20 4E 30 75 00 00
2025-11-08T03:02:32.681943,4.670,can0  204  [16]  E1 22 50 46 50 46 50 46 28 23 20 4E 30 75 00 00
2025-11-08T03:02:32.682568,4.671,can0  206  [16]  AF 0C DA 07 97 0C DA DC EF 07 FC 0C 97 0C 00 00
2025-11-08T03:02:32.683163,4.672,can0  204  [16]  E1 22 50 46 50 46 50 46 28 23 20 4E 30 75 00 00
2025-11-08T03:02:32.686071,4.675,can0  041  [04]  8B 00 00 00
2025-11-08T03:02:32.686627,4.675,can0  204  [16]  E1 22 50 46 50 46 50 46 28 23 20 4E 30 75 00 00
2025-11-08T03:02:32.687259,4.676,can0  204  [16]  E1 22 50 46 50 46 50 46 28 23 20 4E 30 75 00 00
2025-11-08T03:02:32.692248,4.681,can0  206  [16]  9F 0C DA 07 9B 0C 99 C6 F2 07 BB 0C AB 0C 00 00
2025-11-08T03:02:32.692428,4.681,can0  204  [16]  E1 22 50 46 50 46 50 46 28 23 20 4E 30 75 00 00
2025-11-08T03:02:32.692581,4.681,can0  204  [16]  E1 22 50 46 50 46 50 46 28 23 20 4E 30 75 00 00
2025-11-08T03:02:32.692730,4.681,can0  204  [16]  E1 22 50 46 50 46 50 46 28 23 20 4E 30 75 00 00
2025-11-08T03:02:32.693067,4.682,can0  206  [16]  6B 0C DC 07 9B 0C 99 C6 F2 07 C3 0C DF 0C 00 00
2025-11-08T03:02:32.693235,4.682,can0  041  [04]  10 01 00 00
2025-11-08T03:02:32.697185,4.686,can0  204  [16]  E1 22 50 46 50 46 50 46 28 23 20 4E 30 75 00 00
2025-11-08T03:02:32.697387,4.686,can0  204  [16]  E1 22 50 46 50 46 50 46 28 23 20 4E 30 75 00 00
2025-11-08T03:02:32.697545,4.686,can0  204  [16]  E1 22 50 46 50 46 50 46 28 23 20 4E 30 75 00 00
2025-11-08T03:02:32.697703,4.686,can0  206  [16]  97 0C E0 07 9F 0C 99 C6 F2 07 BF 0C AF 0C 00 00
2025-11-08T03:02:32.698875,4.687,can0  204  [16]  E1 22 50 46 50 46 50 46 28 23 20 4E 30 75 00 00
2025-11-08T03:02:32.699565,4.688,can0  204  [16]  E1 22 50 46 50 46 50 46 28 23 20 4E 30 75 00 00
2025-11-08T03:02:32.712078,4.701,can0  041  [04]  3F 01 00 00
2025-11-08T03:02:32.712326,4.701,can0  204  [16]  E1 22 50 46 50 46 50 46 28 23 20 4E 30 75 00 00
2025-11-08T03:02:32.712498,4.701,can0  206  [16]  A3 0C DC 07 8B 0C DA DC F2 07 CB 0C A3 0C 00 00
2025-11-08T03:02:32.712647,4.701,can0  204  [16]  E1 22 50 46 50 46 50 46 28 23 20 4E 30 75 00 00
2025-11-08T03:02:33.813128,5.802,can0  204  [16]  E1 22 50 46 50 46 50 46 28 23 20 4E 30 75 00 00
2025-11-08T03:02:33.813991,5.802,can0  204  [16]  E1 22 50 46 50 46 50 46 28 23 20 4E 30 75 00 00
2025-11-08T03:02:33.821537,5.810,can0  206  [16]  B3 0C CD 07 93 0C B1 E0 F2 07 CB 0C 97 0C 00 00
2025-11-08T03:02:33.821603,5.810,can0  041  [04]  02 00 02 00
2025-11-08T03:02:33.821638,5.810,can0  204  [16]  E1 22 50 46 50 46 50 46 28 23 20 4E 30 75 00 00
2025-11-08T03:02:33.821667,5.810,can0  204  [16]  E1 22 50 46 50 46 50 46 28 23 20 4E 30 75 00 00
2025-11-08T03:02:33.821695,5.810,can0  206  [16]  9F 0C DC 07 97 0C 99 C6 EF 07 BF 0C AB 0C 00 00
2025-11-08T03:02:33.821731,5.810,can0  204  [16]  E1 22 50 46 50 46 50 46 28 23 20 4E 30 75 00 00
2025-11-08T03:02:33.821758,5.810,can0  204  [16]  E1 22 50 46 50 46 50 46 28 23 20 4E 30 75 00 00
2025-11-08T03:02:33.822094,5.811,can0  041  [04]  02 00 00 00
2025-11-08T03:02:33.822134,5.811,can0  204  [16]  E1 22 50 46 50 46 50 46 28 23 20 4E 30 75 00 00
2025-11-08T03:02:33.822168,5.811,can0  206  [16]  A3 0C DC 07 9F 0C 3A DF F2 07 B7 0C A3 0C 00 00
2025-11-08T03:02:33.822197,5.811,can0  204  [16]  E1 22 50 46 50 46 50 46 28 23 20 4E 30 75 00 00
2025-11-08T03:02:33.822224,5.811,can0  204  [16]  E1 22 50 46 50 46 50 46 28 23 20 4E 30 75 00 00
2025-11-08T03:02:33.822252,5.811,can0  204  [16]  E1 22 50 46 50 46 50 46 28 23 20 4E 30 75 00 00
2025-11-08T03:02:33.822280,5.811,can0  206  [16]  83 0C DA 07 BF 0C 99 C6 F2 07 B3 0C 9F 0C 00 00
2025-11-08T03:02:33.822308,5.811,can0  204  [16]  E1 22 50 46 50 46 50 46 28 23 20 4E 30 75 00 00
2025-11-08T03:02:33.822347,5.811,can0  041  [04]  E4 00 00 00
2025-11-08T03:02:33.822374,5.811,can0  204  [16]  E1 22 50 46 50 46 50 46 28 23 20 4E 30 75 00 00
2025-11-08T03:02:33.822412,5.811,can0  204  [16]  E1 22 50 46 50 46 50 46 28 23 20 4E 30 75 00 00
2025-11-08T03:02:33.822440,5.811,can0  206  [16]  9F 0C E3 07 9F 0C B1 E0 EF 07 BF 0C A7 0C 00 00
2025-11-08T03:02:33.826004,5.814,can0  204  [16]  E1 22 50 46 50 46 50 46 28 23 20 4E 30 75 00 00
2025-11-08T03:02:33.829444,5.818,can0  204  [16]  E1 22 50 46 50 46 50 46 28 23 20 4E 30 75 00 00
2025-11-08T03:02:33.829518,5.818,can0  204  [16]  E1 22 50 46 50 46 50 46 28 23 20 4E 30 75 00 00
2025-11-08T03:02:33.829556,5.818,can0  041  [04]  3F 01 00 00
2025-11-08T03:02:33.848436,5.837,can0  206  [16]  AB 0C E7 07 9B 0C DA DC ED 07 BB 0C 9F 0C 00 00
2025-11-08T03:02:33.848676,5.837,can0  204  [16]  E1 22 50 46 50 46 50 46 28 23 20 4E 30 75 00 00
2025-11-08T03:02:33.848846,5.837,can0  204  [16]  E1 22 50 46 50 46 50 46 28 23 20 4E 30 75 00 00
2025-11-08T03:02:33.849008,5.837,can0  204  [16]  E1 22 50 46 50 46 50 46 28 23 20 4E 30 75 00 00
2025-11-08T03:02:33.849165,5.838,can0  206  [16]  9F 0C DE 07 97 0C DA DC EF 07 BF 0C AB 0C 00 00
2025-11-08T03:02:34.710514,6.699,can0  204  [16]  E1 22 50 46 50 46 50 46 28 23 20 4E 30 75 00 00
2025-11-08T03:02:34.711554,6.700,can0  041  [04]  02 00 00 00
2025-11-08T03:02:34.712946,6.701,can0  204  [16]  E1 22 50 46 50 46 50 46 28 23 20 4E 30 75 00 00
2025-11-08T03:02:34.713154,6.702,can0  206  [16]  9F 0C D8 07 97 0C 3A DF F2 07 C7 0C A7 0C 00 00
2025-11-08T03:02:34.713517,6.702,can0  204  [16]  E1 22 50 46 50 46 50 46 28 23 20 4E 30 75 00 00
2025-11-08T03:02:34.713984,6.702,can0  204  [16]  E1 22 50 46 50 46 50 46 28 23 20 4E 30 75 00 00
2025-11-08T03:02:34.714712,6.703,can0  204  [16]  E1 22 50 46 50 46 50 46 28 23 20 4E 30 75 00 00
2025-11-08T03:02:34.715953,6.704,can0  206  [16]  A3 0C DC 07 A7 0C DA DC EF 07 B3 0C A7 0C 00 00
2025-11-08T03:02:34.716615,6.705,can0  204  [16]  E1 22 50 46 50 46 50 46 28 23 20 4E 30 75 00 00
2025-11-08T03:02:34.717098,6.706,can0  041  [04]  2F 00 00 00
2025-11-08T03:02:34.717745,6.706,can0  204  [16]  E1 22 50 46 50 46 50 46 28 23 20 4E 30 75 00 00
2025-11-08T03:02:34.718774,6.707,can0  204  [16]  E1 22 50 46 50 46 50 46 28 23 20 4E 30 75 00 00
2025-11-08T03:02:34.719278,6.708,can0  206  [16]  9F 0C DA 07 9F 0C 99 C6 F2 07 BF 0C A7 0C 00 00
2025-11-08T03:02:34.721834,6.710,can0  204  [16]  E1 22 50 46 50 46 50 46 28 23 20 4E 30 75 00 00
2025-11-08T03:02:34.722526,6.711,can0  204  [16]  E1 22 50 46 50 46 50 46 28 23 20 4E 30 75 00 00
2025-11-08T03:02:34.723062,6.711,can0  041  [04]  3F 01 00 00
2025-11-08T03:02:34.723668,6.712,can0  204  [16]  E1 22 50 46 50 46 50 46 28 23 20 4E 30 75 00 00
2025-11-08T03:02:34.728925,6.717,can0  206  [16]  A3 0C DC 07 A3 0C C5 E1 F4 07 B7 0C A3 0C 00 00
2025-11-08T03:02:34.732141,6.721,can0  204  [16]  E1 22 50 46 50 46 50 46 28 23 20 4E 30 75 00 00
2025-11-08T03:02:34.732727,6.721,can0  204  [16]  E1 22 50 46 50 46 50 46 28 23 20 4E 30 75 00 00
2025-11-08T03:02:34.733632,6.722,can0  204  [16]  E1 22 50 46 50 46 50 46 28 23 20 4E 30 75 00 00
2025-11-08T03:02:34.739977,6.728,can0  206  [16]  A3 0C DC 07 9F 0C 3A DF EF 07 C3 0C A3 0C 00 00
2025-11-08T03:02:35.489356,7.478,can0  204  [16]  E1 22 50 46 50 46 50 46 28 23 20 4E 30 75 00 00
2025-11-08T03:02:35.490930,7.479,can0  041  [04]  02 00 00 00
2025-11-08T03:02:35.491384,7.480,can0  204  [16]  E1 22 50 46 50 46 50 46 28 23 20 4E 30 75 00 00
2025-11-08T03:02:35.493181,7.482,can0  204  [16]  E1 22 50 46 50 46 50 46 28 23 20 4E 30 75 00 00
2025-11-08T03:02:35.493670,7.482,can0  206  [16]  A7 0C DC 07 A3 0C DA DC F8 07 BF 0C 97 0C 00 00
2025-11-08T03:02:35.495918,7.484,can0  204  [16]  E1 22 50 46 50 46 50 46 28 23 20 4E 30 75 00 00
2025-11-08T03:02:35.496354,7.485,can0  204  [16]  E1 22 50 46 50 46 50 46 28 23 20 4E 30 75 00 00
2025-11-08T03:02:35.496742,7.485,can0  041  [04]  3F 01 00 00
2025-11-08T03:02:35.498981,7.487,can0  204  [16]  E1 22 50 46 50 46 50 46 28 23 20 4E 30 75 00 00
2025-11-08T03:02:35.499710,7.488,can0  206  [16]  9F 0C D6 07 93 0C DA DC F2 07 CB 0C A7 0C 00 00
2025-11-08T03:02:35.500164,7.489,can0  204  [16]  E1 22 50 46 50 46 50 46 28 23 20 4E 30 75 00 00
2025-11-08T03:02:35.501325,7.490,can0  204  [16]  E1 22 50 46 50 46 50 46 28 23 20 4E 30 75 00 00
2025-11-08T03:02:35.501815,7.490,can0  206  [16]  A7 0C DA 07 97 0C 99 C6 EF 07 BF 0C 9F 0C 00 00
2025-11-08T03:02:35.502277,7.491,can0  204  [16]  E1 22 50 46 50 46 50 46 28 23 20 4E 30 75 00 00
2025-11-08T03:02:35.504275,7.493,can0  204  [16]  E1 22 50 46 50 46 50 46 28 23 20 4E 30 75 00 00
2025-11-08T03:02:35.504699,7.493,can0  041  [04]  3F 01 00 00
2025-11-08T03:02:35.505166,7.494,can0  204  [16]  E1 22 50 46 50 46 50 46 28 23 20 4E 30 75 00 00
2025-11-08T03:02:35.507791,7.496,can0  206  [16]  AB 0C DA 07 97 0C 99 C6 F2 07 D3 0C 9B 0C 00 00
2025-11-08T03:02:35.509471,7.498,can0  204  [16]  E1 22 50 46 50 46 50 46 28 23 20 4E 30 75 00 00
2025-11-08T03:02:35.511093,7.500,can0  204  [16]  E1 22 50 46 50 46 50 46 28 23 20 4E 30 75 00 00
2025-11-08T03:02:35.512198,7.501,can0  204  [16]  E1 22 50 46 50 46 50 46 28 23 20 4E 30 75 00 00
2025-11-08T03:02:35.521143,7.510,can0  206  [16]  A3 0C DA 07 9B 0C DA DC F4 07 C7 0C A3 0C 00 00
2025-11-08T03:02:36.118973,8.107,can0  204  [16]  E1 22 50 46 50 46 50 46 28 23 20 4E 30 75 00 00
2025-11-08T03:02:36.119639,8.108,can0  041  [04]  02 00 00 00
2025-11-08T03:02:36.120245,8.109,can0  204  [16]  E1 22 50 46 50 46 50 46 28 23 20 4E 30 75 00 00
2025-11-08T03:02:36.120723,8.109,can0  204  [16]  E1 22 50 46 50 46 50 46 28 23 20 4E 30 75 00 00
2025-11-08T03:02:36.121389,8.110,can0  206  [16]  A3 0C DC 07 8F 0C 3A DF F4 07 CB 0C A7 0C 00 00
2025-11-08T03:02:36.122045,8.110,can0  204  [16]  E1 22 50 46 50 46 50 46 28 23 20 4E 30 75 00 00
2025-11-08T03:02:36.122746,8.111,can0  204  [16]  E1 22 50 46 50 46 50 46 28 23 20 4E 30 75 00 00
2025-11-08T03:02:36.123321,8.112,can0  041  [04]  8B 00 00 00
2025-11-08T03:02:36.124185,8.113,can0  204  [16]  E1 22 50 46 50 46 50 46 28 23 20 4E 30 75 00 00
2025-11-08T03:02:36.125252,8.114,can0  206  [16]  A3 0C DE 07 9B 0C DA DC F4 07 BF 0C A3 0C 00 00
2025-11-08T03:02:36.126831,8.115,can0  204  [16]  E1 22 50 46 50 46 50 46 28 23 20 4E 30 75 00 00
2025-11-08T03:02:36.127121,8.116,can0  204  [16]  E1 22 50 46 50 46 50 46 28 23 20 4E 30 75 00 00
2025-11-08T03:02:36.128114,8.117,can0  204  [16]  E1 22 50 46 50 46 50 46 28 23 20 4E 30 75 00 00
2025-11-08T03:02:36.128455,8.117,can0  206  [16]  9B 0C DC 07 9F 0C DA DC EF 07 BF 0C AB 0C 00 00
2025-11-08T03:02:36.129073,8.118,can0  041  [04]  02 00 02 00
2025-11-08T03:02:36.193697,8.182,can0  204  [16]  E1 22 50 46 50 46 50 46 28 23 20 4E 30 75 00 00
2025-11-08T03:02:36.779118,8.768,can0  204  [16]  E1 22 50 46 50 46 50 46 28 23 20 4E 30 75 00 00
2025-11-08T03:02:36.780097,8.769,can0  206  [16]  A3 0C DA 07 A3 0C 3A DF EF 07 C3 0C 9B 0C 00 00
2025-11-08T03:02:36.780746,8.769,can0  204  [16]  E1 22 50 46 50 46 50 46 28 23 20 4E 30 75 00 00
2025-11-08T03:02:36.781394,8.770,can0  204  [16]  E1 22 50 46 50 46 50 46 28 23 20 4E 30 75 00 00
2025-11-08T03:02:36.782030,8.770,can0  204  [16]  E1 22 50 46 50 46 50 46 28 23 20 4E 30 75 00 00
2025-11-08T03:02:36.782681,8.771,can0  041  [04]  02 00 00 00
2025-11-08T03:02:36.783335,8.772,can0  206  [16]  9F 0C DE 07 93 0C B1 E0 F2 07 C7 0C A7 0C 00 00
2025-11-08T03:02:36.785303,8.774,can0  204  [16]  E1 22 50 46 50 46 50 46 28 23 20 4E 30 75 00 00
2025-11-08T03:02:36.787825,8.776,can0  204  [16]  E1 22 50 46 50 46 50 46 28 23 20 4E 30 75 00 00
2025-11-08T03:02:36.788700,8.777,can0  204  [16]  E1 22 50 46 50 46 50 46 28 23 20 4E 30 75 00 00
2025-11-08T03:02:36.790685,8.779,can0  206  [16]  B7 0C DC 07 8B 0C 99 C6 F2 07 CB 0C A3 0C 00 00
2025-11-08T03:02:36.791728,8.780,can0  204  [16]  E1 22 50 46 50 46 50 46 28 23 20 4E 30 75 00 00
2025-11-08T03:02:36.792252,8.781,can0  204  [16]  E1 22 50 46 50 46 50 46 28 23 20 4E 30 75 00 00
2025-11-08T03:02:36.793826,8.782,can0  041  [04]  3F 01 00 00
2025-11-08T03:02:36.794424,8.783,can0  204  [16]  E1 22 50 46 50 46 50 46 28 23 20 4E 30 75 00 00
2025-11-08T03:02:36.797323,8.786,can0  206  [16]  9F 0C DE 07 9F 0C DA DC EF 07 C3 0C A7 0C 00 00
2025-11-08T03:02:36.798195,8.787,can0  204  [16]  E1 22 50 46 50 46 50 46 28 23 20 4E 30 75 00 00
2025-11-08T03:02:36.799675,8.788,can0  204  [16]  E1 22 50 46 50 46 50 46 28 23 20 4E 30 75 00 00
2025-11-08T03:02:36.801236,8.790,can0  204  [16]  E1 22 50 46 50 46 50 46 28 23 20 4E 30 75 00 00
2025-11-08T03:02:36.815556,8.804,can0  206  [16]  A3 0C DC 07 97 0C 3A DF F8 07 BB 0C A7 0C 00 00
2025-11-08T03:02:37.540588,9.529,can0  041  [04]  02 00 00 00
2025-11-08T03:02:37.541101,9.530,can0  204  [16]  E1 22 50 46 50 46 50 46 28 23 20 4E 30 75 00 00
2025-11-08T03:02:37.541864,9.530,can0  204  [16]  E1 22 50 46 50 46 50 46 28 23 20 4E 30 75 00 00
2025-11-08T03:02:37.542493,9.531,can0  204  [16]  E1 22 50 46 50 46 50 46 28 23 20 4E 30 75 00 00
2025-11-08T03:02:37.543114,9.532,can0  206  [16]  9B 0C DC 07 9F 0C DA DC F2 07 C3 0C AB 0C 00 00
2025-11-08T03:02:37.543725,9.532,can0  204  [16]  E1 22 50 46 50 46 50 46 28 23 20 4E 30 75 00 00
2025-11-08T03:02:37.544319,9.533,can0  204  [16]  E1 22 50 46 50 46 50 46 28 23 20 4E 30 75 00 00
2025-11-08T03:02:37.547831,9.536,can0  041  [04]  3F 01 00 00
2025-11-08T03:02:37.549106,9.538,can0  206  [16]  9B 0C D8 07 9B 0C 99 C6 EF 07 C7 0C AB 0C 00 00
2025-11-08T03:02:37.551404,9.540,can0  204  [16]  E1 22 50 46 50 46 50 46 28 23 20 4E 30 75 00 00
2025-11-08T03:02:37.551973,9.540,can0  204  [16]  E1 22 50 46 50 46 50 46 28 23 20 4E 30 75 00 00
2025-11-08T03:02:37.553763,9.542,can0  204  [16]  E1 22 50 46 50 46 50 46 28 23 20 4E 30 75 00 00
2025-11-08T03:02:37.555651,9.544,can0  206  [16]  A3 0C DA 07 97 0C B1 E0 F6 07 CB 0C A7 0C 00 00
2025-11-08T03:02:37.557080,9.546,can0  204  [16]  E1 22 50 46 50 46 50 46 28 23 20 4E 30 75 00 00
2025-11-08T03:02:37.557996,9.546,can0  041  [04]  3F 01 00 00
2025-11-08T03:02:37.559140,9.548,can0  204  [16]  E1 22 50 46 50 46 50 46 28 23 20 4E 30 75 00 00
2025-11-08T03:02:37.562912,9.551,can0  204  [16]  E1 22 50 46 50 46 50 46 28 23 20 4E 30 75 00 00
2025-11-08T03:02:37.566335,9.555,can0  206  [16]  A7 0C DE 07 9F 0C DA DC ED 07 C7 0C 9F 0C 00 00
2025-11-08T03:02:37.583719,9.572,can0  204  [16]  E1 22 50 46 50 46 50 46 28 23 20 4E 30 75 00 00
2025-11-08T03:02:38.335472,10.324,can0  204  [16]  E1 22 50 46 50 46 50 46 28 23 20 4E 30 75 00 00
2025-11-08T03:02:38.336118,10.325,can0  204  [16]  E1 22 50 46 50 46 50 46 28 23 20 4E 30 75 00 00
2025-11-08T03:02:38.337018,10.325,can0  206  [16]  A7 0C DE 07 97 0C DA DC EF 07 C7 0C 9F 0C 00 00
2025-11-08T03:02:38.337584,10.326,can0  041  [04]  3F 01 00 00
2025-11-08T03:02:38.338220,10.327,can0  204  [16]  E1 22 50 46 50 46 50 46 28 23 20 4E 30 75 00 00
2025-11-08T03:02:38.338843,10.327,can0  204  [16]  E1 22 50 46 50 46 50 46 28 23 20 4E 30 75 00 00
2025-11-08T03:02:38.339479,10.328,can0  204  [16]  E1 22 50 46 50 46 50 46 28 23 20 4E 30 75 00 00
2025-11-08T03:02:38.340533,10.329,can0  206  [16]  9F 0C DC 07 9F 0C 3A DF F4 07 B3 0C AB 0C 00 00
2025-11-08T03:02:38.341331,10.330,can0  204  [16]  E1 22 50 46 50 46 50 46 28 23 20 4E 30 75 00 00
2025-11-08T03:02:38.342028,10.330,can0  204  [16]  E1 22 50 46 50 46 50 46 28 23 20 4E 30 75 00 00
2025-11-08T03:02:38.342626,10.331,can0  041  [04]  3F 01 00 00
2025-11-08T03:02:38.343291,10.332,can0  204  [16]  E1 22 50 46 50 46 50 46 28 23 20 4E 30 75 00 00
2025-11-08T03:02:38.344003,10.332,can0  206  [16]  A3 0C DC 07 8F 0C DA DC F2 07 BF 0C A7 0C 00 00
2025-11-08T03:02:38.344673,10.333,can0  204  [16]  E1 22 50 46 50 46 50 46 28 23 20 4E 30 75 00 00
2025-11-08T03:02:38.346543,10.335,can0  204  [16]  E1 22 50 46 50 46 50 46 28 23 20 4E 30 75 00 00
2025-11-08T03:02:38.346801,10.335,can0  206  [16]  A3 0C DC 07 A3 0C DA DC FC 07 BF 0C 9B 0C 00 00
2025-11-08T03:02:38.347520,10.336,can0  204  [16]  E1 22 50 46 50 46 50 46 28 23 20 4E 30 75 00 00
2025-11-08T03:02:38.348119,10.337,can0  041  [04]  3F 01 00 00
2025-11-08T03:02:38.348889,10.337,can0  204  [16]  E1 22 50 46 50 46 50 46 28 23 20 4E 30 75 00 00
2025-11-08T03:02:38.349584,10.338,can0  204  [16]  E1 22 50 46 50 46 50 46 28 23 20 4E 30 75 00 00
2025-11-08T03:02:38.987612,10.976,can0  206  [16]  A3 0C DE 07 9F 0C DA DC EF 07 BB 0C A3 0C 00 00
2025-11-08T03:02:38.988615,10.977,can0  204  [16]  E1 22 50 46 50 46 50 46 28 23 20 4E 30 75 00 00
2025-11-08T03:02:38.995476,10.984,can0  204  [16]  E1 22 50 46 50 46 50 46 28 23 20 4E 30 75 00 00
2025-11-08T03:02:38.995535,10.984,can0  204  [16]  E1 22 50 46 50 46 50 46 28 23 20 4E 30 75 00 00
2025-11-08T03:02:38.995569,10.984,can0  041  [04]  3F 01 00 00
2025-11-08T03:02:38.995602,10.984,can0  206  [16]  A3 0C DE 07 9F 0C DA DC EF 07 B7 0C A3 0C 00 00
2025-11-08T03:02:38.995634,10.984,can0  204  [16]  E1 22 50 46 50 46 50 46 28 23 20 4E 30 75 00 00
2025-11-08T03:02:38.995663,10.984,can0  204  [16]  E1 22 50 46 50 46 50 46 28 23 20 4E 30 75 00 00
2025-11-08T03:02:38.995695,10.984,can0  204  [16]  E1 22 50 46 50 46 50 46 28 23 20 4E 30 75 00 00
2025-11-08T03:02:38.995726,10.984,can0  206  [16]  9B 0C DA 07 97 0C DA DC EF 07 B7 0C AF 0C 00 00
2025-11-08T03:02:38.995755,10.984,can0  204  [16]  E1 22 50 46 50 46 50 46 28 23 20 4E 30 75 00 00
2025-11-08T03:02:38.996245,10.985,can0  041  [04]  8B 00 00 00
2025-11-08T03:02:38.997061,10.985,can0  204  [16]  E1 22 50 46 50 46 50 46 28 23 20 4E 30 75 00 00
2025-11-08T03:02:38.997521,10.986,can0  204  [16]  E1 22 50 46 50 46 50 46 28 23 20 4E 30 75 00 00
2025-11-08T03:02:39.003589,10.992,can0  206  [16]  A3 0C DC 07 9B 0C 3A DF F6 07 C7 0C A3 0C 00 00
2025-11-08T03:02:39.003736,10.992,can0  204  [16]  E1 22 50 46 50 46 50 46 28 23 20 4E 30 75 00 00
2025-11-08T03:02:39.003773,10.992,can0  204  [16]  E1 22 50 46 50 46 50 46 28 23 20 4E 30 75 00 00
2025-11-08T03:02:39.003805,10.992,can0  206  [16]  A7 0C DC 07 93 0C DA DC F2 07 C3 0C A3 0C 00 00
2025-11-08T03:02:39.003838,10.992,can0  204  [16]  E1 22 50 46 50 46 50 46 28 23 20 4E 30 75 00 00
2025-11-08T03:02:39.003870,10.992,can0  041  [04]  E4 00 00 00
2025-11-08T03:02:39.653902,11.642,can0  204  [16]  E1 22 50 46 50 46 50 46 28 23 20 4E 30 75 00 00
2025-11-08T03:02:39.654628,11.643,can0  204  [16]  E1 22 50 46 50 46 50 46 28 23 20 4E 30 75 00 00
2025-11-08T03:02:39.655315,11.644,can0  206  [16]  97 0C DE 07 9B 0C 99 C6 F2 07 C3 0C AF 0C 00 00
2025-11-08T03:02:39.655978,11.644,can0  204  [16]  E1 22 50 46 50 46 50 46 28 23 20 4E 30 75 00 00
2025-11-08T03:02:39.656763,11.645,can0  204  [16]  E1 22 50 46 50 46 50 46 28 23 20 4E 30 75 00 00
2025-11-08T03:02:39.657254,11.646,can0  041  [04]  E4 00 00 00
2025-11-08T03:02:39.659553,11.648,can0  204  [16]  E1 22 50 46 50 46 50 46 28 23 20 4E 30 75 00 00
2025-11-08T03:02:39.659626,11.648,can0  206  [16]  A7 0C DA 07 9B 0C 99 C6 EF 07 BF 0C 9F 0C 00 00
2025-11-08T03:02:39.659668,11.648,can0  204  [16]  E1 22 50 46 50 46 50 46 28 23 20 4E 30 75 00 00
2025-11-08T03:02:39.660189,11.649,can0  204  [16]  E1 22 50 46 50 46 50 46 28 23 20 4E 30 75 00 00
2025-11-08T03:02:39.663449,11.652,can0  204  [16]  E1 22 50 46 50 46 50 46 28 23 20 4E 30 75 00 00
2025-11-08T03:02:39.663520,11.652,can0  206  [16]  9F 0C DA 07 9F 0C DA DC FA 07 C7 0C A7 0C 00 00
2025-11-08T03:02:39.663557,11.652,can0  204  [16]  E1 22 50 46 50 46 50 46 28 23 20 4E 30 75 00 00
2025-11-08T03:02:39.663592,11.652,can0  041  [04]  E4 00 00 00
2025-11-08T03:02:39.663627,11.652,can0  204  [16]  E1 22 50 46 50 46 50 46 28 23 20 4E 30 75 00 00
2025-11-08T03:02:39.664347,11.653,can0  204  [16]  E1 22 50 46 50 46 50 46 28 23 20 4E 30 75 00 00
2025-11-08T03:02:40.333143,12.322,can0  206  [16]  A3 0C DE 07 9B 0C DA DC EF 07 C3 0C A7 0C 00 00
2025-11-08T03:02:40.333916,12.322,can0  204  [16]  E1 22 50 46 50 46 50 46 28 23 20 4E 30 75 00 00
2025-11-08T03:02:40.334598,12.323,can0  204  [16]  E1 22 50 46 50 46 50 46 28 23 20 4E 30 75 00 00
2025-11-08T03:02:40.335194,12.324,can0  041  [04]  3F 01 00 00
2025-11-08T03:02:40.335865,12.324,can0  204  [16]  E1 22 50 46 50 46 50 46 28 23 20 4E 30 75 00 00
2025-11-08T03:02:40.336669,12.325,can0  206  [16]  A7 0C DC 07 9F 0C 99 C6 EF 07 BF 0C 9F 0C 00 00
2025-11-08T03:02:40.339388,12.328,can0  204  [16]  E1 22 50 46 50 46 50 46 28 23 20 4E 30 75 00 00
2025-11-08T03:02:40.339461,12.328,can0  204  [16]  E1 22 50 46 50 46 50 46 28 23 20 4E 30 75 00 00
2025-11-08T03:02:40.339503,12.328,can0  204  [16]  E1 22 50 46 50 46 50 46 28 23 20 4E 30 75 00 00
2025-11-08T03:02:40.339979,12.328,can0  206  [16]  9F 0C DE 07 97 0C 99 C6 F2 07 C7 0C A7 0C 00 00
2025-11-08T03:02:40.340988,12.329,can0  204  [16]  E1 22 50 46 50 46 50 46 28 23 20 4E 30 75 00 00
2025-11-08T03:02:40.341439,12.330,can0  041  [04]  3F 01 00 00
2025-11-08T03:02:40.341926,12.330,can0  204  [16]  E1 22 50 46 50 46 50 46 28 23 20 4E 30 75 00 00
2025-11-08T03:02:40.342660,12.331,can0  204  [16]  E1 22 50 46 50 46 50 46 28 23 20 4E 30 75 00 00
2025-11-08T03:02:40.347468,12.336,can0  206  [16]  9F 0C DC 07 9B 0C B1 E0 F4 07 CF 0C A3 0C 00 00
2025-11-08T03:02:40.347553,12.336,can0  204  [16]  E1 22 50 46 50 46 50 46 28 23 20 4E 30 75 00 00
2025-11-08T03:02:40.347596,12.336,can0  204  [16]  E1 22 50 46 50 46 50 46 28 23 20 4E 30 75 00 00
2025-11-08T03:02:40.347636,12.336,can0  041  [04]  3F 01 00 00
2025-11-08T03:02:40.347674,12.336,can0  206  [16]  A7 0C D8 07 9B 0C 3A DF F2 07 A3 0C 9F 0C 00 00
2025-11-08T03:02:40.353458,12.342,can0  204  [16]  E1 22 50 46 50 46 50 46 28 23 20 4E 30 75 00 00
2025-11-08T03:02:41.057387,13.046,can0  204  [16]  E1 22 50 46 50 46 50 46 28 23 20 4E 30 75 00 00
2025-11-08T03:02:41.058067,13.047,can0  204  [16]  E1 22 50 46 50 46 50 46 28 23 20 4E 30 75 00 00
2025-11-08T03:02:41.058738,13.047,can0  206  [16]  9F 0C DC 07 9B 0C DA DC F2 07 BF 0C AB 0C 00 00
2025-11-08T03:02:41.059395,13.048,can0  204  [16]  E1 22 50 46 50 46 50 46 28 23 20 4E 30 75 00 00
2025-11-08T03:02:41.060042,13.048,can0  204  [16]  E1 22 50 46 50 46 50 46 28 23 20 4E 30 75 00 00
2025-11-08T03:02:41.060704,13.049,can0  041  [04]  E4 00 00 00
2025-11-08T03:02:41.061372,13.050,can0  204  [16]  E1 22 50 46 50 46 50 46 28 23 20 4E 30 75 00 00
2025-11-08T03:02:41.063911,13.052,can0  206  [16]  9B 0C DE 07 9B 0C B1 E0 F2 07 C3 0C A7 0C 00 00
2025-11-08T03:02:41.063987,13.052,can0  204  [16]  E1 22 50 46 50 46 50 46 28 23 20 4E 30 75 00 00
2025-11-08T03:02:41.064288,13.053,can0  204  [16]  E1 22 50 46 50 46 50 46 28 23 20 4E 30 75 00 00
2025-11-08T03:02:41.064978,13.053,can0  204  [16]  E1 22 50 46 50 46 50 46 28 23 20 4E 30 75 00 00
2025-11-08T03:02:41.065909,13.054,can0  206  [16]  A7 0C DC 07 9B 0C DA DC EF 07 C3 0C 9F 0C 00 00
2025-11-08T03:02:41.066615,13.055,can0  204  [16]  E1 22 50 46 50 46 50 46 28 23 20 4E 30 75 00 00
2025-11-08T03:02:41.069444,13.058,can0  041  [04]  8B 00 00 00
2025-11-08T03:02:41.069505,13.058,can0  204  [16]  E1 22 50 46 50 46 50 46 28 23 20 4E 30 75 00 00
2025-11-08T03:02:41.069826,13.058,can0  204  [16]  E1 22 50 46 50 46 50 46 28 23 20 4E 30 75 00 00
2025-11-08T03:02:41.070691,13.059,can0  206  [16]  9F 0C DA 07 97 0C 3A DF F2 07 C7 0C AB 0C 00 00
2025-11-08T03:02:41.072449,13.061,can0  204  [16]  E1 22 50 46 50 46 50 46 28 23 20 4E 30 75 00 00
2025-11-08T03:02:41.761769,13.750,can0  204  [16]  E1 22 50 46 50 46 50 46 28 23 20 4E 30 75 00 00
2025-11-08T03:02:41.762687,13.751,can0  041  [04]  2F 00 00 00
2025-11-08T03:02:41.763441,13.752,can0  204  [16]  E1 22 50 46 50 46 50 46 28 23 20 4E 30 75 00 00
2025-11-08T03:02:41.764424,13.753,can0  206  [16]  9B 0C DE 07 A3 0C 99 C6 F2 07 B7 0C A7 0C 00 00
2025-11-08T03:02:41.765051,13.753,can0  204  [16]  E1 22 50 46 50 46 50 46 28 23 20 4E 30 75 00 00
2025-11-08T03:02:41.769327,13.758,can0  204  [16]  E1 22 50 46 50 46 50 46 28 23 20 4E 30 75 00 00
2025-11-08T03:02:41.769495,13.758,can0  206  [16]  A7 0C DC 07 9B 0C 99 C6 EF 07 B7 0C A3 0C 00 00
2025-11-08T03:02:41.771006,13.759,can0  204  [16]  E1 22 50 46 50 46 50 46 28 23 20 4E 30 75 00 00
2025-11-08T03:02:41.775248,13.764,can0  204  [16]  E1 22 50 46 50 46 50 46 28 23 20 4E 30 75 00 00
2025-11-08T03:02:41.775421,13.764,can0  041  [04]  2F 00 00 00
2025-11-08T03:02:41.775568,13.764,can0  204  [16]  E1 22 50 46 50 46 50 46 28 23 20 4E 30 75 00 00
2025-11-08T03:02:41.775959,13.764,can0  206  [16]  9B 0C D3 07 9B 0C 99 C6 F4 07 C7 0C AB 0C 00 00
2025-11-08T03:02:41.777012,13.765,can0  204  [16]  E1 22 50 46 50 46 50 46 28 23 20 4E 30 75 00 00
2025-11-08T03:02:41.781749,13.770,can0  204  [16]  E1 22 50 46 50 46 50 46 28 23 20 4E 30 75 00 00
2025-11-08T03:02:41.784278,13.773,can0  204  [16]  E1 22 50 46 50 46 50 46 28 23 20 4E 30 75 00 00
2025-11-08T03:02:41.786153,13.775,can0  041  [04]  8B 00 00 00
2025-11-08T03:02:41.787747,13.776,can0  206  [16]  9B 0C DA 07 97 0C DA DC EF 07 BF 0C AF 0C 00 00
2025-11-08T03:02:41.791296,13.780,can0  204  [16]  E1 22 50 46 50 46 50 46 28 23 20 4E 30 75 00 00
2025-11-08T03:02:41.791479,13.780,can0  204  [16]  E1 22 50 46 50 46 50 46 28 23 20 4E 30 75 00 00
2025-11-08T03:02:41.792662,13.781,can0  204  [16]  E1 22 50 46 50 46 50 46 28 23 20 4E 30 75 00 00
2025-11-08T03:02:41.794702,13.783,can0  206  [16]  A7 0C DA 07 97 0C DA DC EF 07 C3 0C A3 0C 00 00
2025-11-08T03:02:41.805567,13.794,can0  204  [16]  E1 22 50 46 50 46 50 46 28 23 20 4E 30 75 00 00
2025-11-08T03:02:42.528033,14.516,can0  204  [16]  E1 22 50 46 50 46 50 46 28 23 20 4E 30 75 00 00
2025-11-08T03:02:42.528707,14.517,can0  041  [04]  8B 00 00 00
2025-11-08T03:02:42.529415,14.518,can0  204  [16]  E1 22 50 46 50 46 50 46 28 23 20 4E 30 75 00 00
2025-11-08T03:02:42.530136,14.519,can0  206  [16]  A7 0C DC 07 97 0C 3A DF F2 07 C3 0C A7 0C 00 00
2025-11-08T03:02:42.530793,14.519,can0  204  [16]  E1 22 50 46 50 46 50 46 28 23 20 4E 30 75 00 00
2025-11-08T03:02:42.531474,14.520,can0  204  [16]  E1 22 50 46 50 46 50 46 28 23 20 4E 30 75 00 00
2025-11-08T03:02:42.532213,14.521,can0  204  [16]  E1 22 50 46 50 46 50 46 28 23 20 4E 30 75 00 00
2025-11-08T03:02:42.534794,14.523,can0  206  [16]  BB 0C DC 07 87 0C DA DC F2 07 C7 0C 9F 0C 00 00
2025-11-08T03:02:42.537698,14.526,can0  041  [04]  B5 00 00 00
2025-11-08T03:02:42.538230,14.527,can0  204  [16]  E1 22 50 46 50 46 50 46 28 23 20 4E 30 75 00 00
2025-11-08T03:02:42.539122,14.528,can0  204  [16]  E1 22 50 46 50 46 50 46 28 23 20 4E 30 75 00 00
2025-11-08T03:02:42.540570,14.529,can0  206  [16]  AF 0C DC 07 97 0C DA DC EF 07 CB 0C 97 0C 00 00
2025-11-08T03:02:42.543343,14.532,can0  204  [16]  E1 22 50 46 50 46 50 46 28 23 20 4E 30 75 00 00
2025-11-08T03:02:42.543947,14.532,can0  204  [16]  E1 22 50 46 50 46 50 46 28 23 20 4E 30 75 00 00
2025-11-08T03:02:42.544877,14.533,can0  204  [16]  E1 22 50 46 50 46 50 46 28 23 20 4E 30 75 00 00
2025-11-08T03:02:42.545539,14.534,can0  041  [04]  8B 00 02 00
2025-11-08T03:02:42.549568,14.538,can0  206  [16]  A3 0C EB 07 A3 0C 3A DF EF 07 B3 0C A3 0C 00 00
2025-11-08T03:02:42.549726,14.538,can0  204  [16]  E1 22 50 46 50 46 50 46 28 23 20 4E 30 75 00 00
2025-11-08T03:02:42.555553,14.544,can0  204  [16]  E1 22 50 46 50 46 50 46 28 23 20 4E 30 75 00 00
2025-11-08T03:02:43.254360,15.243,can0  204  [16]  E1 22 50 46 50 46 50 46 28 23 20 4E 30 75 00 00
2025-11-08T03:02:43.255095,15.244,can0  206  [16]  9F 0C DC 07 A3 0C 99 C6 EF 07 A3 0C A3 0C 00 00
2025-11-08T03:02:43.255744,15.244,can0  204  [16]  E1 22 50 46 50 46 50 46 28 23 20 4E 30 75 00 00
2025-11-08T03:02:43.256571,15.245,can0  041  [04]  B5 00 02 00
2025-11-08T03:02:43.257289,15.246,can0  204  [16]  E1 22 50 46 50 46 50 46 28 23 20 4E 30 75 00 00
2025-11-08T03:02:43.257932,15.246,can0  204  [16]  E1 22 50 46 50 46 50 46 28 23 20 4E 30 75 00 00
2025-11-08T03:02:43.258627,15.247,can0  206  [16]  AB 0C DC 07 9B 0C 3A DF F6 07 BF 0C 9B 0C 00 00
2025-11-08T03:02:43.262491,15.251,can0  204  [16]  E1 22 50 46 50 46 50 46 28 23 20 4E 30 75 00 00
2025-11-08T03:02:43.263491,15.252,can0  204  [16]  E1 22 50 46 50 46 50 46 28 23 20 4E 30 75 00 00
2025-11-08T03:02:43.264894,15.253,can0  204  [16]  E1 22 50 46 50 46 50 46 28 23 20 4E 30 75 00 00
2025-11-08T03:02:43.268394,15.257,can0  206  [16]  9F 0C DE 07 9F 0C DA DC EF 07 BB 0C AB 0C 00 00
2025-11-08T03:02:43.268454,15.257,can0  041  [04]  8B 00 02 00
2025-11-08T03:02:43.268493,15.257,can0  204  [16]  E1 22 50 46 50 46 50 46 28 23 20 4E 30 75 00 00
2025-11-08T03:02:43.268902,15.257,can0  204  [16]  E1 22 50 46 50 46 50 46 28 23 20 4E 30 75 00 00
2025-11-08T03:02:43.280537,15.269,can0  204  [16]  E1 22 50 46 50 46 50 46 28 23 20 4E 30 75 00 00
2025-11-08T03:02:43.280779,15.269,can0  206  [16]  AB 0C DE 07 97 0C 3A DF EF 07 BF 0C A3 0C 00 00
2025-11-08T03:02:43.280827,15.269,can0  204  [16]  E1 22 50 46 50 46 50 46 28 23 20 4E 30 75 00 00
2025-11-08T03:02:43.996961,15.985,can0  041  [04]  B5 00 02 00
2025-11-08T03:02:43.997549,15.986,can0  204  [16]  E1 22 50 46 50 46 50 46 28 23 20 4E 30 75 00 00
2025-11-08T03:02:44.004793,15.993,can0  206  [16]  A3 0C DC 07 97 0C DA DC F2 07 CF 0C A3 0C 00 00
2025-11-08T03:02:44.004857,15.993,can0  204  [16]  E1 22 50 46 50 46 50 46 28 23 20 4E 30 75 00 00
2025-11-08T03:02:44.004898,15.993,can0  204  [16]  E1 22 50 46 50 46 50 46 28 23 20 4E 30 75 00 00
2025-11-08T03:02:44.004938,15.993,can0  204  [16]  E1 22 50 46 50 46 50 46 28 23 20 4E 30 75 00 00
2025-11-08T03:02:44.004976,15.993,can0  206  [16]  9B 0C DE 07 9B 0C B1 E0 F2 07 B7 0C AB 0C 00 00
2025-11-08T03:02:44.005015,15.993,can0  204  [16]  E1 22 50 46 50 46 50 46 28 23 20 4E 30 75 00 00
2025-11-08T03:02:44.005053,15.993,can0  041  [04]  B5 00 00 00
2025-11-08T03:02:44.005091,15.994,can0  204  [16]  E1 22 50 46 50 46 50 46 28 23 20 4E 30 75 00 00
2025-11-08T03:02:44.005736,15.994,can0  204  [16]  E1 22 50 46 50 46 50 46 28 23 20 4E 30 75 00 00
2025-11-08T03:02:44.005803,15.994,can0  206  [16]  9F 0C DE 07 97 0C 2E E6 F2 07 CB 0C A3 0C 00 00
2025-11-08T03:02:44.005844,15.994,can0  204  [16]  E1 22 50 46 50 46 50 46 28 23 20 4E 30 75 00 00
2025-11-08T03:02:44.005883,15.994,can0  204  [16]  E1 22 50 46 50 46 50 46 28 23 20 4E 30 75 00 00
2025-11-08T03:02:44.005921,15.994,can0  204  [16]  E1 22 50 46 50 46 50 46 28 23 20 4E 30 75 00 00
2025-11-08T03:02:44.005960,15.994,can0  041  [04]  3F 01 00 00
2025-11-08T03:02:44.005998,15.994,can0  206  [16]  A3 0C DC 07 9B 0C DA DC EF 07 BB 0C A7 0C 00 00
2025-11-08T03:02:44.007058,15.995,can0  204  [16]  E1 22 50 46 50 46 50 46 28 23 20 4E 30 75 00 00
2025-11-08T03:02:44.007158,15.996,can0  204  [16]  E1 22 50 46 50 46 50 46 28 23 20 4E 30 75 00 00
2025-11-08T03:02:44.008205,15.997,can0  204  [16]  E1 22 50 46 50 46 50 46 28 23 20 4E 30 75 00 00
2025-11-08T03:02:44.008912,15.997,can0  206  [16]  97 0C DC 07 A3 0C DA DC EF 07 BB 0C AB 0C 00 00
2025-11-08T03:02:44.008967,15.997,can0  204  [16]  E1 22 50 46 50 46 50 46 28 23 20 4E 30 75 00 00
2025-11-08T03:02:44.666131,16.655,can0  041  [04]  3F 01 00 00
2025-11-08T03:02:44.666696,16.655,can0  204  [16]  E1 22 50 46 50 46 50 46 28 23 20 4E 30 75 00 00
2025-11-08T03:02:44.667228,16.656,can0  204  [16]  E1 22 50 46 50 46 50 46 28 23 20 4E 30 75 00 00
2025-11-08T03:02:44.667758,16.656,can0  206  [16]  A7 0C DC 07 97 0C DA DC EF 07 C7 0C 9F 0C 00 00
2025-11-08T03:02:44.668329,16.657,can0  204  [16]  E1 22 50 46 50 46 50 46 28 23 20 4E 30 75 00 00
2025-11-08T03:02:44.668901,16.657,can0  204  [16]  E1 22 50 46 50 46 50 46 28 23 20 4E 30 75 00 00
2025-11-08T03:02:44.669422,16.658,can0  206  [16]  A3 0C DC 07 A3 0C D0 E5 E9 07 B7 0C A3 0C 00 00
2025-11-08T03:02:44.669931,16.658,can0  204  [16]  E1 22 50 46 50 46 50 46 28 23 20 4E 30 75 00 00
2025-11-08T03:02:44.670349,16.659,can0  041  [04]  02 00 02 00
2025-11-08T03:02:44.671146,16.660,can0  204  [16]  E1 22 50 46 50 46 50 46 28 23 20 4E 30 75 00 00
2025-11-08T03:02:44.671482,16.660,can0  204  [16]  E1 22 50 46 50 46 50 46 28 23 20 4E 30 75 00 00
2025-11-08T03:02:44.672059,16.660,can0  206  [16]  9F 0C E5 07 9B 0C 3A DF EF 07 BB 0C AB 0C 00 00
2025-11-08T03:02:44.672585,16.661,can0  204  [16]  E1 22 50 46 50 46 50 46 28 23 20 4E 30 75 00 00
2025-11-08T03:02:44.673109,16.662,can0  204  [16]  E1 22 50 46 50 46 50 46 28 23 20 4E 30 75 00 00
2025-11-08T03:02:44.673621,16.662,can0  041  [04]  02 00 00 00
2025-11-08T03:02:44.674148,16.663,can0  204  [16]  E1 22 50 46 50 46 50 46 28 23 20 4E 30 75 00 00
2025-11-08T03:02:44.674715,16.663,can0  206  [16]  A7 0C DC 07 9B 0C 99 C6 F2 07 C3 0C 9F 0C 00 00
2025-11-08T03:02:44.675247,16.664,can0  204  [16]  E1 22 50 46 50 46 50 46 28 23 20 4E 30 75 00 00
2025-11-08T03:02:45.329470,17.318,can0  204  [16]  E1 22 50 46 50 46 50 46 28 23 20 4E 30 75 00 00
2025-11-08T03:02:45.330067,17.319,can0  204  [16]  E1 22 50 46 50 46 50 46 28 23 20 4E 30 75 00 00
2025-11-08T03:02:45.330541,17.319,can0  206  [16]  A7 0C DE 07 9B 0C B1 E0 F2 07 BB 0C A3 0C 00 00
2025-11-08T03:02:45.331068,17.320,can0  204  [16]  E1 22 50 46 50 46 50 46 28 23 20 4E 30 75 00 00
2025-11-08T03:02:45.331551,17.320,can0  041  [04]  3F 01 00 00
2025-11-08T03:02:45.332249,17.321,can0  204  [16]  E1 22 50 46 50 46 50 46 28 23 20 4E 30 75 00 00
2025-11-08T03:02:45.332729,17.321,can0  204  [16]  E1 22 50 46 50 46 50 46 28 23 20 4E 30 75 00 00
2025-11-08T03:02:45.333230,17.322,can0  206  [16]  A7 0C DE 07 9B 0C 99 C6 F4 07 BB 0C A3 0C 00 00
2025-11-08T03:02:45.333745,17.322,can0  204  [16]  E1 22 50 46 50 46 50 46 28 23 20 4E 30 75 00 00
2025-11-08T03:02:45.334654,17.323,can0  204  [16]  E1 22 50 46 50 46 50 46 28 23 20 4E 30 75 00 00
2025-11-08T03:02:45.334706,17.323,can0  041  [04]  E4 00 00 00
2025-11-08T03:02:45.335178,17.324,can0  204  [16]  E1 22 50 46 50 46 50 46 28 23 20 4E 30 75 00 00
2025-11-08T03:02:45.335805,17.324,can0  206  [16]  9F 0C DC 07 AB 0C 3A DF F4 07 AF 0C A7 0C 00 00
2025-11-08T03:02:45.336338,17.325,can0  204  [16]  E1 22 50 46 50 46 50 46 28 23 20 4E 30 75 00 00
2025-11-08T03:02:45.336863,17.325,can0  204  [16]  E1 22 50 46 50 46 50 46 28 23 20 4E 30 75 00 00
2025-11-08T03:02:45.337397,17.326,can0  204  [16]  E1 22 50 46 50 46 50 46 28 23 20 4E 30 75 00 00
2025-11-08T03:02:45.337928,17.326,can0  206  [16]  9B 0C E5 07 9B 0C 99 C6 F2 07 C3 0C AF 0C 00 00
2025-11-08T03:02:46.002242,17.991,can0  204  [16]  E1 22 50 46 50 46 50 46 28 23 20 4E 30 75 00 00
2025-11-08T03:02:46.002809,17.991,can0  041  [04]  E4 00 00 00
2025-11-08T03:02:46.003370,17.992,can0  204  [16]  E1 22 50 46 50 46 50 46 28 23 20 4E 30 75 00 00
2025-11-08T03:02:46.003975,17.992,can0  204  [16]  E1 22 50 46 50 46 50 46 28 23 20 4E 30 75 00 00
2025-11-08T03:02:46.004623,17.993,can0  206  [16]  A3 0C DC 07 9B 0C 99 C6 EF 07 BF 0C A3 0C 00 00
2025-11-08T03:02:46.005187,17.994,can0  204  [16]  E1 22 50 46 50 46 50 46 28 23 20 4E 30 75 00 00
2025-11-08T03:02:46.005737,17.994,can0  204  [16]  E1 22 50 46 50 46 50 46 28 23 20 4E 30 75 00 00
2025-11-08T03:02:46.006210,17.995,can0  041  [04]  B5 00 00 00
2025-11-08T03:02:46.007279,17.996,can0  206  [16]  9B 0C E0 07 9B 0C 99 C6 EF 07 BF 0C AB 0C 00 00
2025-11-08T03:02:46.007616,17.996,can0  204  [16]  E1 22 50 46 50 46 50 46 28 23 20 4E 30 75 00 00
2025-11-08T03:02:46.008987,17.997,can0  204  [16]  E1 22 50 46 50 46 50 46 28 23 20 4E 30 75 00 00
2025-11-08T03:02:46.009439,17.998,can0  204  [16]  E1 22 50 46 50 46 50 46 28 23 20 4E 30 75 00 00
2025-11-08T03:02:46.010221,17.999,can0  206  [16]  7F 0C DA 07 A7 0C 3A DF EF 07 BB 0C BF 0C 00 00
2025-11-08T03:02:46.010941,17.999,can0  204  [16]  E1 22 50 46 50 46 50 46 28 23 20 4E 30 75 00 00
2025-11-08T03:02:46.011688,18.000,can0  204  [16]  E1 22 50 46 50 46 50 46 28 23 20 4E 30 75 00 00
2025-11-08T03:02:46.012540,18.001,can0  041  [04]  B5 00 02 00
2025-11-08T03:02:46.013338,18.002,can0  204  [16]  E1 22 50 46 50 46 50 46 28 23 20 4E 30 75 00 00
2025-11-08T03:02:46.014195,18.003,can0  206  [16]  A3 0C DA 07 9B 0C DA DC EF 07 BF 0C A3 0C 00 00
2025-11-08T03:02:46.014872,18.003,can0  204  [16]  E1 22 50 46 50 46 50 46 28 23 20 4E 30 75 00 00
2025-11-08T03:02:46.663035,18.651,can0  204  [16]  E1 22 50 46 50 46 50 46 28 23 20 4E 30 75 00 00
2025-11-08T03:02:46.663707,18.652,can0  204  [16]  E1 22 50 46 50 46 50 46 28 23 20 4E 30 75 00 00
2025-11-08T03:02:46.664321,18.653,can0  206  [16]  97 0C DE 07 9F 0C DA DC F8 07 BF 0C AB 0C 00 00
2025-11-08T03:02:46.664914,18.653,can0  041  [04]  8B 00 02 00
2025-11-08T03:02:46.665502,18.654,can0  204  [16]  E1 22 50 46 50 46 50 46 28 23 20 4E 30 75 00 00
2025-11-08T03:02:46.666092,18.655,can0  204  [16]  E1 22 50 46 50 46 50 46 28 23 20 4E 30 75 00 00
2025-11-08T03:02:46.666673,18.655,can0  204  [16]  E1 22 50 46 50 46 50 46 28 23 20 4E 30 75 00 00
2025-11-08T03:02:46.667258,18.656,can0  206  [16]  9F 0C E3 07 C3 0C 99 C6 F2 07 9B 0C A7 0C 00 00
2025-11-08T03:02:46.667987,18.656,can0  204  [16]  E1 22 50 46 50 46 50 46 28 23 20 4E 30 75 00 00
2025-11-08T03:02:46.668269,18.657,can0  204  [16]  E1 22 50 46 50 46 50 46 28 23 20 4E 30 75 00 00
2025-11-08T03:02:46.668755,18.657,can0  041  [04]  8B 00 02 00
2025-11-08T03:02:46.669277,18.658,can0  206  [16]  9F 0C DE 07 9B 0C 3A DF F2 07 C3 0C A7 0C 00 00
2025-11-08T03:02:46.669803,18.658,can0  204  [16]  E1 22 50 46 50 46 50 46 28 23 20 4E 30 75 00 00
2025-11-08T03:02:46.670317,18.659,can0  204  [16]  E1 22 50 46 50 46 50 46 28 23 20 4E 30 75 00 00
2025-11-08T03:02:46.670841,18.659,can0  204  [16]  E1 22 50 46 50 46 50 46 28 23 20 4E 30 75 00 00
2025-11-08T03:02:46.671389,18.660,can0  206  [16]  A7 0C DE 07 97 0C DA DC EF 07 C3 0C A3 0C 00 00
2025-11-08T03:02:46.671908,18.660,can0  204  [16]  E1 22 50 46 50 46 50 46 28 23 20 4E 30 75 00 00
2025-11-08T03:02:47.333708,19.322,can0  204  [16]  E1 22 50 46 50 46 50 46 28 23 20 4E 30 75 00 00
2025-11-08T03:02:47.334255,19.323,can0  041  [04]  9F 00 02 00
2025-11-08T03:02:47.334805,19.323,can0  204  [16]  E1 22 50 46 50 46 50 46 28 23 20 4E 30 75 00 00
2025-11-08T03:02:47.335637,19.324,can0  206  [16]  9F 0C DC 07 9B 0C 3A DF F2 07 BB 0C AB 0C 00 00
2025-11-08T03:02:47.335936,19.324,can0  204  [16]  E1 22 50 46 50 46 50 46 28 23 20 4E 30 75 00 00
2025-11-08T03:02:47.336474,19.325,can0  204  [16]  E1 22 50 46 50 46 50 46 28 23 20 4E 30 75 00 00
2025-11-08T03:02:47.337020,19.325,can0  204  [16]  E1 22 50 46 50 46 50 46 28 23 20 4E 30 75 00 00
2025-11-08T03:02:47.337552,19.326,can0  206  [16]  9B 0C DC 07 97 0C 99 C6 EF 07 C3 0C AB 0C 00 00
2025-11-08T03:02:47.337966,19.326,can0  041  [04]  8B 00 00 00
2025-11-08T03:02:47.338705,19.327,can0  204  [16]  E1 22 50 46 50 46 50 46 28 23 20 4E 30 75 00 00
2025-11-08T03:02:47.339042,19.327,can0  204  [16]  E1 22 50 46 50 46 50 46 28 23 20 4E 30 75 00 00
2025-11-08T03:02:47.339585,19.328,can0  204  [16]  E1 22 50 46 50 46 50 46 28 23 20 4E 30 75 00 00
2025-11-08T03:02:47.340139,19.329,can0  206  [16]  A3 0C DE 07 9F 0C DA DC EF 07 BB 0C A3 0C 00 00
2025-11-08T03:02:47.340691,19.329,can0  204  [16]  E1 22 50 46 50 46 50 46 28 23 20 4E 30 75 00 00
2025-11-08T03:02:47.341154,19.330,can0  041  [04]  8B 00 02 00
2025-11-08T03:02:47.341686,19.330,can0  204  [16]  E1 22 50 46 50 46 50 46 28 23 20 4E 30 75 00 00
2025-11-08T03:02:47.342220,19.331,can0  204  [16]  E1 22 50 46 50 46 50 46 28 23 20 4E 30 75 00 00
2025-11-08T03:02:47.343020,19.331,can0  206  [16]  A3 0C D8 07 93 0C DA DC E0 07 CF 0C A3 0C 00 00
2025-11-08T03:02:47.343629,19.332,can0  204  [16]  E1 22 50 46 50 46 50 46 28 23 20 4E 30 75 00 00
2025-11-08T03:02:48.007391,19.996,can0  204  [16]  E1 22 50 46 50 46 50 46 28 23 20 4E 30 75 00 00
2025-11-08T03:02:48.008256,19.997,can0  206  [16]  9F 0C DC 07 9F 0C B1 E0 F2 07 BB 0C A7 0C 00 00
2025-11-08T03:02:48.008663,19.997,can0  204  [16]  E1 22 50 46 50 46 50 46 28 23 20 4E 30 75 00 00
2025-11-08T03:02:48.009168,19.998,can0  041  [04]  E4 00 00 00
2025-11-08T03:02:48.009759,19.998,can0  204  [16]  E1 22 50 46 50 46 50 46 28 23 20 4E 30 75 00 00
2025-11-08T03:02:48.010328,19.999,can0  204  [16]  E1 22 50 46 50 46 50 46 28 23 20 4E 30 75 00 00
2025-11-08T03:02:48.010987,19.999,can0  206  [16]  9F 0C D6 07 9B 0C 57 E3 EF 07 BB 0C AB 0C 00 00
2025-11-08T03:02:48.011578,20.000,can0  204  [16]  E1 22 50 46 50 46 50 46 28 23 20 4E 30 75 00 00
2025-11-08T03:02:48.012101,20.001,can0  204  [16]  E1 22 50 46 50 46 50 46 28 23 20 4E 30 75 00 00
2025-11-08T03:02:48.012708,20.001,can0  204  [16]  E1 22 50 46 50 46 50 46 28 23 20 4E 30 75 00 00
2025-11-08T03:02:48.013195,20.002,can0  041  [04]  E4 00 00 00
2025-11-08T03:02:48.013804,20.002,can0  206  [16]  A3 0C E0 07 9F 0C DA DC F2 07 B7 0C A3 0C 00 00
2025-11-08T03:02:48.014381,20.003,can0  204  [16]  E1 22 50 46 50 46 50 46 28 23 20 4E 30 75 00 00
2025-11-08T03:02:48.015239,20.004,can0  204  [16]  E1 22 50 46 50 46 50 46 28 23 20 4E 30 75 00 00
2025-11-08T03:02:48.015833,20.004,can0  204  [16]  E1 22 50 46 50 46 50 46 28 23 20 4E 30 75 00 00
2025-11-08T03:02:48.016446,20.005,can0  206  [16]  9F 0C DC 07 9B 0C 3A DF F2 07 C7 0C A7 0C 00 00
2025-11-08T03:02:48.017145,20.006,can0  204  [16]  E1 22 50 46 50 46 50 46 28 23 20 4E 30 75 00 00
2025-11-08T03:02:48.017476,20.006,can0  041  [04]  E4 00 00 00
2025-11-08T03:02:48.677382,20.666,can0  204  [16]  E1 22 50 46 50 46 50 46 28 23 20 4E 30 75 00 00
2025-11-08T03:02:48.678001,20.666,can0  204  [16]  E1 22 50 46 50 46 50 46 28 23 20 4E 30 75 00 00
2025-11-08T03:02:48.678694,20.667,can0  206  [16]  9F 0C DE 07 A3 0C DA DC F8 07 BB 0C A7 0C 00 00
2025-11-08T03:02:48.679258,20.668,can0  204  [16]  E1 22 50 46 50 46 50 46 28 23 20 4E 30 75 00 00
2025-11-08T03:02:48.679848,20.668,can0  204  [16]  E1 22 50 46 50 46 50 46 28 23 20 4E 30 75 00 00
2025-11-08T03:02:48.680422,20.669,can0  204  [16]  E1 22 50 46 50 46 50 46 28 23 20 4E 30 75 00 00
2025-11-08T03:02:48.680894,20.669,can0  041  [04]  E4 00 00 00
2025-11-08T03:02:48.681482,20.670,can0  206  [16]  A3 0C D3 07 9B 0C 99 C6 EF 07 C7 0C A3 0C 00 00
2025-11-08T03:02:48.682003,20.670,can0  204  [16]  E1 22 50 46 50 46 50 46 28 23 20 4E 30 75 00 00
2025-11-08T03:02:48.682583,20.671,can0  204  [16]  E1 22 50 46 50 46 50 46 28 23 20 4E 30 75 00 00
2025-11-08T03:02:48.683151,20.672,can0  204  [16]  E1 22 50 46 50 46 50 46 28 23 20 4E 30 75 00 00
2025-11-08T03:02:48.683740,20.672,can0  206  [16]  A3 0C D1 07 9B 0C C5 E1 F2 07 C3 0C A7 0C 00 00
2025-11-08T03:02:48.684321,20.673,can0  204  [16]  E1 22 50 46 50 46 50 46 28 23 20 4E 30 75 00 00
2025-11-08T03:02:48.684815,20.673,can0  041  [04]  10 01 00 00
2025-11-08T03:02:48.685369,20.674,can0  204  [16]  E1 22 50 46 50 46 50 46 28 23 20 4E 30 75 00 00
2025-11-08T03:02:48.685992,20.674,can0  206  [16]  A3 0C DC 07 9B 0C 99 C6 F2 07 CB 0C A3 0C 00 00
2025-11-08T03:02:48.686589,20.675,can0  204  [16]  E1 22 50 46 50 46 50 46 28 23 20 4E 30 75 00 00
2025-11-08T03:02:49.345705,21.334,can0  204  [16]  E1 22 50 46 50 46 50 46 28 23 20 4E 30 75 00 00
2025-11-08T03:02:49.346609,21.335,can0  204  [16]  E1 22 50 46 50 46 50 46 28 23 20 4E 30 75 00 00
2025-11-08T03:02:49.353981,21.342,can0  206  [16]  9B 0C E0 07 A7 0C DA DC EF 07 B7 0C A7 0C 00 00
2025-11-08T03:02:49.354049,21.342,can0  204  [16]  E1 22 50 46 50 46 50 46 28 23 20 4E 30 75 00 00
2025-11-08T03:02:49.354088,21.343,can0  041  [04]  10 01 02 00
2025-11-08T03:02:49.354126,21.343,can0  204  [16]  E1 22 50 46 50 46 50 46 28 23 20 4E 30 75 00 00
2025-11-08T03:02:49.354163,21.343,can0  204  [16]  E1 22 50 46 50 46 50 46 28 23 20 4E 30 75 00 00
2025-11-08T03:02:49.354199,21.343,can0  206  [16]  9B 0C DC 07 9F 0C 3A DF E7 07 BF 0C AB 0C 00 00
2025-11-08T03:02:49.354236,21.343,can0  204  [16]  E1 22 50 46 50 46 50 46 28 23 20 4E 30 75 00 00
2025-11-08T03:02:49.354273,21.343,can0  204  [16]  E1 22 50 46 50 46 50 46 28 23 20 4E 30 75 00 00
2025-11-08T03:02:49.354309,21.343,can0  041  [04]  10 01 02 00
2025-11-08T03:02:49.354345,21.343,can0  204  [16]  E1 22 50 46 50 46 50 46 28 23 20 4E 30 75 00 00
2025-11-08T03:02:49.354511,21.343,can0  206  [16]  9F 0C DA 07 9F 0C 3A DF F6 07 BF 0C A3 0C 00 00
2025-11-08T03:02:49.354767,21.343,can0  204  [16]  E1 22 50 46 50 46 50 46 28 23 20 4E 30 75 00 00
2025-11-08T03:02:49.354913,21.343,can0  204  [16]  E1 22 50 46 50 46 50 46 28 23 20 4E 30 75 00 00
2025-11-08T03:02:49.944882,21.933,can0  204  [16]  E1 22 50 46 50 46 50 46 28 23 20 4E 30 75 00 00
2025-11-08T03:02:49.945271,21.934,can0  206  [16]  A7 0C DE 07 9B 0C DA DC EF 07 BF 0C A3 0C 00 00
2025-11-08T03:02:49.945440,21.934,can0  204  [16]  E1 22 50 46 50 46 50 46 28 23 20 4E 30 75 00 00
2025-11-08T03:02:49.945591,21.934,can0  041  [04]  10 01 05 00
2025-11-08T03:02:49.945761,21.934,can0  204  [16]  E1 22 50 46 50 46 50 46 28 23 20 4E 30 75 00 00
2025-11-08T03:02:49.946340,21.935,can0  204  [16]  E1 22 50 46 50 46 50 46 28 23 20 4E 30 75 00 00
2025-11-08T03:02:49.946949,21.935,can0  206  [16]  A3 0C D6 07 97 0C D7 E6 F2 07 C3 0C A7 0C 00 00
2025-11-08T03:02:49.947520,21.936,can0  204  [16]  E1 22 50 46 50 46 50 46 28 23 20 4E 30 75 00 00
2025-11-08T03:02:49.948055,21.936,can0  204  [16]  E1 22 50 46 50 46 50 46 28 23 20 4E 30 75 00 00
2025-11-08T03:02:49.948952,21.937,can0  206  [16]  A7 0C DC 07 93 0C DA DC F2 07 BF 0C AB 0C 00 00
2025-11-08T03:02:49.949135,21.938,can0  041  [04]  10 01 02 00
2025-11-08T03:02:49.949683,21.938,can0  204  [16]  E1 22 50 46 50 46 50 46 28 23 20 4E 30 75 00 00
2025-11-08T03:02:49.950238,21.939,can0  204  [16]  E1 22 50 46 50 46 50 46 28 23 20 4E 30 75 00 00
2025-11-08T03:02:49.950795,21.939,can0  204  [16]  E1 22 50 46 50 46 50 46 28 23 20 4E 30 75 00 00
2025-11-08T03:02:49.951360,21.940,can0  206  [16]  AB 0C E0 07 93 0C 3A DF EF 07 BF 0C A3 0C 00 00
2025-11-08T03:02:49.951928,21.940,can0  204  [16]  E1 22 50 46 50 46 50 46 28 23 20 4E 30 75 00 00
2025-11-08T03:02:49.952479,21.941,can0  204  [16]  E1 22 50 46 50 46 50 46 28 23 20 4E 30 75 00 00
2025-11-08T03:02:50.556740,22.545,can0  041  [04]  3F 01 00 00
2025-11-08T03:02:50.557397,22.546,can0  204  [16]  E1 22 50 46 50 46 50 46 28 23 20 4E 30 75 00 00
2025-11-08T03:02:50.558084,22.547,can0  206  [16]  9F 0C E0 07 9B 0C DA DC F2 07 BF 0C A7 0C 00 00
2025-11-08T03:02:50.558681,22.547,can0  204  [16]  E1 22 50 46 50 46 50 46 28 23 20 4E 30 75 00 00
2025-11-08T03:02:50.559262,22.548,can0  204  [16]  E1 22 50 46 50 46 50 46 28 23 20 4E 30 75 00 00
2025-11-08T03:02:50.559847,22.548,can0  204  [16]  E1 22 50 46 50 46 50 46 28 23 20 4E 30 75 00 00
2025-11-08T03:02:50.560444,22.549,can0  206  [16]  9F 0C DE 07 9B 0C 3A DF EF 07 C3 0C AB 0C 00 00
2025-11-08T03:02:50.560953,22.549,can0  041  [04]  3F 01 00 00
2025-11-08T03:02:50.562638,22.551,can0  204  [16]  E1 22 50 46 50 46 50 46 28 23 20 4E 30 75 00 00
2025-11-08T03:02:50.562700,22.551,can0  204  [16]  E1 22 50 46 50 46 50 46 28 23 20 4E 30 75 00 00
2025-11-08T03:02:50.562742,22.551,can0  204  [16]  E1 22 50 46 50 46 50 46 28 23 20 4E 30 75 00 00
2025-11-08T03:02:50.563295,22.552,can0  206  [16]  9F 0C E7 07 A3 0C DA DC F8 07 B3 0C AB 0C 00 00
2025-11-08T03:02:50.563866,22.552,can0  204  [16]  E1 22 50 46 50 46 50 46 28 23 20 4E 30 75 00 00
2025-11-08T03:02:50.564448,22.553,can0  204  [16]  E1 22 50 46 50 46 50 46 28 23 20 4E 30 75 00 00
2025-11-08T03:02:50.565009,22.553,can0  041  [04]  3F 01 00 00
2025-11-08T03:02:50.565650,22.554,can0  204  [16]  E1 22 50 46 50 46 50 46 28 23 20 4E 30 75 00 00
2025-11-08T03:02:50.569673,22.558,can0  206  [16]  A7 0C D1 07 97 0C DA DC F6 07 C3 0C A7 0C 00 00
2025-11-08T03:02:50.569857,22.558,can0  204  [16]  E1 22 50 46 50 46 50 46 28 23 20 4E 30 75 00 00
2025-11-08T03:02:51.155028,23.143,can0  204  [16]  E1 22 50 46 50 46 50 46 28 23 20 4E 30 75 00 00
2025-11-08T03:02:51.156020,23.144,can0  206  [16]  9F 0C DC 07 9F 0C DA DC F4 07 C7 0C A3 0C 00 00
2025-11-08T03:02:51.156837,23.145,can0  204  [16]  E1 22 50 46 50 46 50 46 28 23 20 4E 30 75 00 00
2025-11-08T03:02:51.157625,23.146,can0  204  [16]  E1 22 50 46 50 46 50 46 28 23 20 4E 30 75 00 00
2025-11-08T03:02:51.158331,23.147,can0  041  [04]  3F 01 00 00
2025-11-08T03:02:51.159382,23.148,can0  204  [16]  E1 22 50 46 50 46 50 46 28 23 20 4E 30 75 00 00
2025-11-08T03:02:51.160255,23.149,can0  206  [16]  9F 0C DC 07 9F 0C DA DC F2 07 BF 0C A7 0C 00 00
2025-11-08T03:02:51.161082,23.150,can0  204  [16]  E1 22 50 46 50 46 50 46 28 23 20 4E 30 75 00 00
2025-11-08T03:02:51.161856,23.150,can0  204  [16]  E1 22 50 46 50 46 50 46 28 23 20 4E 30 75 00 00
2025-11-08T03:02:51.162795,23.151,can0  204  [16]  E1 22 50 46 50 46 50 46 28 23 20 4E 30 75 00 00
2025-11-08T03:02:51.163522,23.152,can0  206  [16]  9F 0C DA 07 9F 0C DA DC ED 07 C3 0C A7 0C 00 00
2025-11-08T03:02:51.164858,23.154,can0  041  [04]  3F 01 00 00
2025-11-08T03:02:51.165579,23.154,can0  204  [16]  E1 22 50 46 50 46 50 46 28 23 20 4E 30 75 00 00
2025-11-08T03:02:51.166811,23.155,can0  204  [16]  E1 22 50 46 50 46 50 46 28 23 20 4E 30 75 00 00
2025-11-08T03:02:51.767834,23.756,can0  204  [16]  E1 22 50 46 50 46 50 46 28 23 20 4E 30 75 00 00
2025-11-08T03:02:51.768566,23.757,can0  206  [16]  A7 0C D3 07 97 0C 57 E3 EB 07 C7 0C A3 0C 00 00
2025-11-08T03:02:51.769194,23.758,can0  204  [16]  E1 22 50 46 50 46 50 46 28 23 20 4E 30 75 00 00
2025-11-08T03:02:51.769731,23.758,can0  204  [16]  E1 22 50 46 50 46 50 46 28 23 20 4E 30 75 00 00
2025-11-08T03:02:51.770209,23.759,can0  041  [04]  02 00 00 00
2025-11-08T03:02:51.770722,23.759,can0  204  [16]  E1 22 50 46 50 46 50 46 28 23 20 4E 30 75 00 00
2025-11-08T03:02:51.771267,23.760,can0  206  [16]  9F 0C DE 07 A3 0C DA DC F2 07 BB 0C A7 0C 00 00
2025-11-08T03:02:51.771803,23.760,can0  204  [16]  E1 22 50 46 50 46 50 46 28 23 20 4E 30 75 00 00
2025-11-08T03:02:51.772328,23.761,can0  204  [16]  E1 22 50 46 50 46 50 46 28 23 20 4E 30 75 00 00
2025-11-08T03:02:51.775448,23.764,can0  204  [16]  E1 22 50 46 50 46 50 46 28 23 20 4E 30 75 00 00
2025-11-08T03:02:51.775518,23.764,can0  206  [16]  AB 0C DA 07 9B 0C 99 C6 EF 07 C3 0C 9B 0C 00 00
2025-11-08T03:02:51.775560,23.764,can0  041  [04]  52 01 02 00
2025-11-08T03:02:51.775597,23.764,can0  204  [16]  E1 22 50 46 50 46 50 46 28 23 20 4E 30 75 00 00
2025-11-08T03:02:51.775634,23.764,can0  204  [16]  E1 22 50 46 50 46 50 46 28 23 20 4E 30 75 00 00
2025-11-08T03:02:51.775672,23.764,can0  204  [16]  E1 22 50 46 50 46 50 46 28 23 20 4E 30 75 00 00
2025-11-08T03:02:51.775979,23.764,can0  206  [16]  A7 0C DC 07 9B 0C DA DC F2 07 BB 0C A3 0C 00 00
2025-11-08T03:02:52.493007,24.481,can0  204  [16]  E1 22 50 46 50 46 50 46 28 23 20 4E 30 75 00 00
2025-11-08T03:02:52.493956,24.482,can0  204  [16]  E1 22 50 46 50 46 50 46 28 23 20 4E 30 75 00 00
2025-11-08T03:02:52.494312,24.483,can0  041  [04]  52 01 02 00
2025-11-08T03:02:52.494947,24.483,can0  204  [16]  E1 22 50 46 50 46 50 46 28 23 20 4E 30 75 00 00
2025-11-08T03:02:52.495667,24.484,can0  206  [16]  9F 0C DA 07 9F 0C B1 E0 EF 07 BF 0C A7 0C 00 00
2025-11-08T03:02:52.496527,24.485,can0  204  [16]  E1 22 50 46 50 46 50 46 28 23 20 4E 30 75 00 00
2025-11-08T03:02:52.497260,24.486,can0  204  [16]  E1 22 50 46 50 46 50 46 28 23 20 4E 30 75 00 00
2025-11-08T03:02:52.499618,24.488,can0  206  [16]  AF 0C DC 07 9B 0C 99 C6 F8 07 C3 0C 97 0C 00 00
2025-11-08T03:02:52.499688,24.488,can0  204  [16]  E1 22 50 46 50 46 50 46 28 23 20 4E 30 75 00 00
2025-11-08T03:02:52.499906,24.488,can0  041  [04]  52 01 02 00
2025-11-08T03:02:52.500682,24.489,can0  204  [16]  E1 22 50 46 50 46 50 46 28 23 20 4E 30 75 00 00
2025-11-08T03:02:52.501763,24.490,can0  204  [16]  E1 22 50 46 50 46 50 46 28 23 20 4E 30 75 00 00
2025-11-08T03:02:52.502591,24.491,can0  206  [16]  A3 0C DE 07 9F 0C 3A DF F2 07 BF 0C A3 0C 00 00
2025-11-08T03:02:52.507550,24.496,can0  204  [16]  E1 22 50 46 50 46 50 46 28 23 20 4E 30 75 00 00
2025-11-08T03:02:52.507632,24.496,can0  204  [16]  E1 22 50 46 50 46 50 46 28 23 20 4E 30 75 00 00
2025-11-08T03:02:52.507675,24.496,can0  204  [16]  E1 22 50 46 50 46 50 46 28 23 20 4E 30 75 00 00
2025-11-08T03:02:52.507715,24.496,can0  041  [04]  52 01 02 00
2025-11-08T03:02:52.507755,24.496,can0  206  [16]  A3 0C DC 07 97 0C 99 C6 F2 07 BF 0C A7 0C 00 00
2025-11-08T03:02:52.507795,24.496,can0  204  [16]  E1 22 50 46 50 46 50 46 28 23 20 4E 30 75 00 00
2025-11-08T03:02:52.508649,24.497,can0  204  [16]  E1 22 50 46 50 46 50 46 28 23 20 4E 30 75 00 00
2025-11-08T03:02:52.509478,24.498,can0  204  [16]  E1 22 50 46 50 46 50 46 28 23 20 4E 30 75 00 00
2025-11-08T03:02:52.510287,24.499,can0  206  [16]  93 0C DE 07 A3 0C 3A DF EF 07 C3 0C AB 0C 00 00
2025-11-08T03:02:53.271229,25.260,can0  204  [16]  E1 22 50 46 50 46 50 46 28 23 20 4E 30 75 00 00
2025-11-08T03:02:53.271777,25.260,can0  041  [04]  3F 01 00 00
2025-11-08T03:02:53.272544,25.261,can0  204  [16]  E1 22 50 46 50 46 50 46 28 23 20 4E 30 75 00 00
2025-11-08T03:02:53.273167,25.262,can0  204  [16]  E1 22 50 46 50 46 50 46 28 23 20 4E 30 75 00 00
2025-11-08T03:02:53.273881,25.262,can0  206  [16]  9B 0C DA 07 9F 0C DA DC EF 07 C3 0C A7 0C 00 00
2025-11-08T03:02:53.274506,25.263,can0  204  [16]  E1 22 50 46 50 46 50 46 28 23 20 4E 30 75 00 00
2025-11-08T03:02:53.275101,25.264,can0  204  [16]  E1 22 50 46 50 46 50 46 28 23 20 4E 30 75 00 00
2025-11-08T03:02:53.275799,25.264,can0  206  [16]  9B 0C D8 07 A7 0C 99 C6 F4 07 BF 0C A3 0C 00 00
2025-11-08T03:02:53.276648,25.265,can0  204  [16]  E1 22 50 46 50 46 50 46 28 23 20 4E 30 75 00 00
2025-11-08T03:02:53.277533,25.266,can0  041  [04]  3F 01 00 00
2025-11-08T03:02:53.278199,25.267,can0  204  [16]  E1 22 50 46 50 46 50 46 28 23 20 4E 30 75 00 00
2025-11-08T03:02:53.278993,25.267,can0  204  [16]  E1 22 50 46 50 46 50 46 28 23 20 4E 30 75 00 00
2025-11-08T03:02:53.279792,25.268,can0  206  [16]  97 0C DA 07 A3 0C 57 E3 EF 07 BF 0C AB 0C 00 00
2025-11-08T03:02:53.281987,25.270,can0  204  [16]  E1 22 50 46 50 46 50 46 28 23 20 4E 30 75 00 00
2025-11-08T03:02:53.284564,25.273,can0  204  [16]  E1 22 50 46 50 46 50 46 28 23 20 4E 30 75 00 00
2025-11-08T03:02:53.286700,25.275,can0  041  [04]  2F 00 00 00
2025-11-08T03:02:53.287717,25.276,can0  204  [16]  E1 22 50 46 50 46 50 46 28 23 20 4E 30 75 00 00
2025-11-08T03:02:53.289191,25.278,can0  206  [16]  A7 0C DC 07 9B 0C DA DC F2 07 BB 0C A3 0C 00 00
2025-11-08T03:02:53.289783,25.278,can0  204  [16]  E1 22 50 46 50 46 50 46 28 23 20 4E 30 75 00 00
2025-11-08T03:02:53.290591,25.279,can0  204  [16]  E1 22 50 46 50 46 50 46 28 23 20 4E 30 75 00 00
2025-11-08T03:02:53.915752,25.904,can0  204  [16]  E1 22 50 46 50 46 50 46 28 23 20 4E 30 75 00 00
2025-11-08T03:02:53.917030,25.905,can0  206  [16]  A3 0C DC 07 9B 0C 99 C6 EF 07 BF 0C A7 0C 00 00
2025-11-08T03:02:53.917549,25.906,can0  204  [16]  E1 22 50 46 50 46 50 46 28 23 20 4E 30 75 00 00
2025-11-08T03:02:53.918319,25.907,can0  041  [04]  2F 00 00 00
2025-11-08T03:02:53.919073,25.908,can0  204  [16]  E1 22 50 46 50 46 50 46 28 23 20 4E 30 75 00 00
2025-11-08T03:02:53.929048,25.917,can0  204  [16]  E1 22 50 46 50 46 50 46 28 23 20 4E 30 75 00 00
2025-11-08T03:02:53.929277,25.918,can0  206  [16]  9F 0C DA 07 97 0C B1 E0 F2 07 C7 0C A7 0C 00 00
2025-11-08T03:02:53.930888,25.919,can0  204  [16]  E1 22 50 46 50 46 50 46 28 23 20 4E 30 75 00 00
2025-11-08T03:02:53.930991,25.919,can0  204  [16]  E1 22 50 46 50 46 50 46 28 23 20 4E 30 75 00 00
2025-11-08T03:02:53.931034,25.919,can0  204  [16]  E1 22 50 46 50 46 50 46 28 23 20 4E 30 75 00 00
2025-11-08T03:02:53.936009,25.924,can0  206  [16]  9F 0C E5 07 9B 0C B1 E0 F2 07 C7 0C AB 0C 00 00
2025-11-08T03:02:53.936217,25.925,can0  041  [04]  2F 00 00 00
2025-11-08T03:02:53.936371,25.925,can0  204  [16]  E1 22 50 46 50 46 50 46 28 23 20 4E 30 75 00 00
2025-11-08T03:02:53.936517,25.925,can0  204  [16]  E1 22 50 46 50 46 50 46 28 23 20 4E 30 75 00 00
2025-11-08T03:02:53.937447,25.926,can0  204  [16]  E1 22 50 46 50 46 50 46 28 23 20 4E 30 75 00 00
2025-11-08T03:02:53.949261,25.938,can0  206  [16]  A3 0C DC 07 9F 0C 99 C6 FC 07 BF 0C A3 0C 00 00
2025-11-08T03:02:53.949504,25.938,can0  204  [16]  E1 22 50 46 50 46 50 46 28 23 20 4E 30 75 00 00
2025-11-08T03:02:53.950115,25.939,can0  041  [04]  2F 00 02 00
2025-11-08T03:02:53.950577,25.939,can0  204  [16]  E1 22 50 46 50 46 50 46 28 23 20 4E 30 75 00 00
2025-11-08T03:02:53.950786,25.939,can0  206  [16]  A3 0C DA 07 8B 0C DA DC E9 07 D3 0C A3 0C 00 00
2025-11-08T03:02:53.950834,25.939,can0  204  [16]  E1 22 50 46 50 46 50 46 28 23 20 4E 30 75 00 00
2025-11-08T03:02:54.570136,26.559,can0  204  [16]  E1 22 50 46 50 46 50 46 28 23 20 4E 30 75 00 00
2025-11-08T03:02:54.570987,26.559,can0  204  [16]  E1 22 50 46 50 46 50 46 28 23 20 4E 30 75 00 00
2025-11-08T03:02:54.571966,26.560,can0  206  [16]  A3 0C DC 07 9B 0C DA DC F2 07 CB 0C A7 0C 00 00
2025-11-08T03:02:54.572788,26.561,can0  204  [16]  E1 22 50 46 50 46 50 46 28 23 20 4E 30 75 00 00
2025-11-08T03:02:54.573462,26.562,can0  041  [04]  2F 00 02 00
2025-11-08T03:02:54.574724,26.563,can0  204  [16]  E1 22 50 46 50 46 50 46 28 23 20 4E 30 75 00 00
2025-11-08T03:02:54.575583,26.564,can0  204  [16]  E1 22 50 46 50 46 50 46 28 23 20 4E 30 75 00 00
2025-11-08T03:02:54.576557,26.565,can0  206  [16]  9B 0C DE 07 A7 0C 99 C6 F2 07 C3 0C AB 0C 00 00
2025-11-08T03:02:54.577348,26.566,can0  204  [16]  E1 22 50 46 50 46 50 46 28 23 20 4E 30 75 00 00
2025-11-08T03:02:54.578104,26.567,can0  204  [16]  E1 22 50 46 50 46 50 46 28 23 20 4E 30 75 00 00
2025-11-08T03:02:54.579258,26.568,can0  041  [04]  02 00 00 00
2025-11-08T03:02:54.580329,26.569,can0  204  [16]  E1 22 50 46 50 46 50 46 28 23 20 4E 30 75 00 00
2025-11-08T03:02:54.580905,26.569,can0  206  [16]  A7 0C DC 07 97 0C DA DC F2 07 C7 0C A3 0C 00 00
2025-11-08T03:02:54.581686,26.570,can0  204  [16]  E1 22 50 46 50 46 50 46 28 23 20 4E 30 75 00 00
2025-11-08T03:02:54.582568,26.571,can0  204  [16]  E1 22 50 46 50 46 50 46 28 23 20 4E 30 75 00 00
2025-11-08T03:02:55.214372,27.203,can0  204  [16]  E1 22 50 46 50 46 50 46 28 23 20 4E 30 75 00 00
2025-11-08T03:02:55.215348,27.204,can0  206  [16]  A3 0C DC 07 9B 0C DA DC EF 07 BF 0C A7 0C 00 00
2025-11-08T03:02:55.216231,27.205,can0  204  [16]  E1 22 50 46 50 46 50 46 28 23 20 4E 30 75 00 00
2025-11-08T03:02:55.216940,27.205,can0  041  [04]  02 00 00 00
2025-11-08T03:02:55.217732,27.206,can0  204  [16]  E1 22 50 46 50 46 50 46 28 23 20 4E 30 75 00 00
2025-11-08T03:02:55.218937,27.207,can0  204  [16]  E1 22 50 46 50 46 50 46 28 23 20 4E 30 75 00 00
2025-11-08T03:02:55.219756,27.208,can0  206  [16]  8B 0C E0 07 AB 0C B1 E0 F4 07 BB 0C AF 0C 00 00
2025-11-08T03:02:55.220549,27.209,can0  204  [16]  E1 22 50 46 50 46 50 46 28 23 20 4E 30 75 00 00
2025-11-08T03:02:55.221323,27.210,can0  204  [16]  E1 22 50 46 50 46 50 46 28 23 20 4E 30 75 00 00
2025-11-08T03:02:55.222110,27.211,can0  206  [16]  93 0C DE 07 97 0C 99 C6 F6 07 C3 0C B7 0C 00 00
2025-11-08T03:02:55.224030,27.212,can0  041  [04]  02 00 00 00
2025-11-08T03:02:55.224320,27.213,can0  204  [16]  E1 22 50 46 50 46 50 46 28 23 20 4E 30 75 00 00
2025-11-08T03:02:55.226200,27.215,can0  204  [16]  E1 22 50 46 50 46 50 46 28 23 20 4E 30 75 00 00
2025-11-08T03:02:55.226253,27.215,can0  204  [16]  E1 22 50 46 50 46 50 46 28 23 20 4E 30 75 00 00
2025-11-08T03:02:55.226853,27.215,can0  206  [16]  A7 0C D8 07 9B 0C DA DC F4 07 C7 0C A3 0C 00 00
2025-11-08T03:02:55.227683,27.216,can0  204  [16]  E1 22 50 46 50 46 50 46 28 23 20 4E 30 75 00 00
2025-11-08T03:02:55.228484,27.217,can0  204  [16]  E1 22 50 46 50 46 50 46 28 23 20 4E 30 75 00 00
2025-11-08T03:02:55.229190,27.218,can0  041  [04]  3F 01 00 00
2025-11-08T03:02:55.232480,27.221,can0  204  [16]  E1 22 50 46 50 46 50 46 28 23 20 4E 30 75 00 00
2025-11-08T03:02:55.906704,27.895,can0  206  [16]  AB 0C DC 07 9B 0C DA DC D3 07 BF 0C 9F 0C 00 00
2025-11-08T03:02:55.907833,27.896,can0  204  [16]  E1 22 50 46 50 46 50 46 28 23 20 4E 30 75 00 00
2025-11-08T03:02:55.908624,27.897,can0  204  [16]  E1 22 50 46 50 46 50 46 28 23 20 4E 30 75 00 00
2025-11-08T03:02:55.909369,27.898,can0  204  [16]  E1 22 50 46 50 46 50 46 28 23 20 4E 30 75 00 00
2025-11-08T03:02:55.910142,27.899,can0  206  [16]  A3 0C D1 07 9F 0C 99 C6 EF 07 BF 0C A3 0C 00 00
2025-11-08T03:02:55.917787,27.906,can0  041  [04]  8B 00 00 00
2025-11-08T03:02:55.918031,27.906,can0  204  [16]  E1 22 50 46 50 46 50 46 28 23 20 4E 30 75 00 00
2025-11-08T03:02:55.918181,27.907,can0  204  [16]  E1 22 50 46 50 46 50 46 28 23 20 4E 30 75 00 00
2025-11-08T03:02:55.920596,27.909,can0  204  [16]  E1 22 50 46 50 46 50 46 28 23 20 4E 30 75 00 00
2025-11-08T03:02:55.925948,27.914,can0  206  [16]  9F 0C DA 07 97 0C 3A DF EF 07 D7 0C A3 0C 00 00
2025-11-08T03:02:55.926233,27.915,can0  204  [16]  E1 22 50 46 50 46 50 46 28 23 20 4E 30 75 00 00
2025-11-08T03:02:55.927225,27.916,can0  204  [16]  E1 22 50 46 50 46 50 46 28 23 20 4E 30 75 00 00
2025-11-08T03:02:55.934089,27.923,can0  041  [04]  8B 00 00 00
2025-11-08T03:02:55.934306,27.923,can0  204  [16]  E1 22 50 46 50 46 50 46 28 23 20 4E 30 75 00 00
2025-11-08T03:02:55.934350,27.923,can0  206  [16]  8B 0C DC 07 97 0C B1 E0 EF 07 BF 0C BF 0C 00 00
2025-11-08T03:02:55.934721,27.923,can0  204  [16]  E1 22 50 46 50 46 50 46 28 23 20 4E 30 75 00 00
2025-11-08T03:02:55.941325,27.930,can0  204  [16]  E1 22 50 46 50 46 50 46 28 23 20 4E 30 75 00 00
2025-11-08T03:02:55.942165,27.931,can0  206  [16]  97 0C DC 07 97 0C DA DC EF 07 BB 0C AF 0C 00 00
2025-11-08T03:02:55.942236,27.931,can0  204  [16]  E1 22 50 46 50 46 50 46 28 23 20 4E 30 75 00 00
2025-11-08T03:02:56.733601,28.722,can0  041  [04]  B5 00 00 00
2025-11-08T03:02:56.734474,28.723,can0  204  [16]  E1 22 50 46 50 46 50 46 28 23 20 4E 30 75 00 00
2025-11-08T03:02:56.735275,28.724,can0  204  [16]  E1 22 50 46 50 46 50 46 28 23 20 4E 30 75 00 00
2025-11-08T03:02:56.735438,28.724,can0  206  [16]  CB 0C DC 07 9B 0C A0 E2 EF 07 C7 0C 7B 0C 00 00
2025-11-08T03:02:56.735587,28.724,can0  204  [16]  E1 22 50 46 50 46 50 46 28 23 20 4E 30 75 00 00
2025-11-08T03:02:56.735634,28.724,can0  204  [16]  E1 22 50 46 50 46 50 46 28 23 20 4E 30 75 00 00
2025-11-08T03:02:56.735674,28.724,can0  204  [16]  E1 22 50 46 50 46 50 46 28 23 20 4E 30 75 00 00
2025-11-08T03:02:56.735712,28.724,can0  206  [16]  A3 0C DC 07 9B 0C B1 E0 F2 07 C3 0C A7 0C 00 00
2025-11-08T03:02:56.735751,28.724,can0  041  [04]  8B 00 00 00
2025-11-08T03:02:56.735788,28.724,can0  204  [16]  E1 22 50 46 50 46 50 46 28 23 20 4E 30 75 00 00
2025-11-08T03:02:56.735827,28.724,can0  204  [16]  E1 22 50 46 50 46 50 46 28 23 20 4E 30 75 00 00
2025-11-08T03:02:56.735865,28.724,can0  204  [16]  E1 22 50 46 50 46 50 46 28 23 20 4E 30 75 00 00
2025-11-08T03:02:56.735902,28.724,can0  206  [16]  A3 0C DC 07 9B 0C DA DC EF 07 BF 0C A7 0C 00 00
2025-11-08T03:02:56.735940,28.724,can0  204  [16]  E1 22 50 46 50 46 50 46 28 23 20 4E 30 75 00 00
2025-11-08T03:02:56.735978,28.724,can0  204  [16]  E1 22 50 46 50 46 50 46 28 23 20 4E 30 75 00 00
2025-11-08T03:02:56.736014,28.724,can0  041  [04]  02 00 00 00
2025-11-08T03:02:56.736051,28.724,can0  204  [16]  E1 22 50 46 50 46 50 46 28 23 20 4E 30 75 00 00
2025-11-08T03:02:56.736088,28.725,can0  206  [16]  A3 0C DC 07 9B 0C 3A DF F2 07 C3 0C A3 0C 00 00
2025-11-08T03:02:56.736126,28.725,can0  204  [16]  E1 22 50 46 50 46 50 46 28 23 20 4E 30 75 00 00
